!Agilent Technologies,E5061B,MY49204007,A.02.12
!Date: Fri Sep 12 10:13:22 2025
!Data & Calibration Information:
!Freq	S11:SOLT2(OFF)	S21:SOLT2(OFF)	S12:SOLT2(OFF)	S22:SOLT2(OFF)
# Hz S dB R 50
5.000	-2.000000e+002	0.000000e+000	-4.276873e-002	-1.888112e-001	-2.000000e+002	0.000000e+000	-2.000000e+002	0.000000e+000
5.082	-2.000000e+002	0.000000e+000	-4.287390e-002	-1.879801e-001	-2.000000e+002	0.000000e+000	-2.000000e+002	0.000000e+000
5.163	-2.000000e+002	0.000000e+000	-4.297033e-002	-1.870759e-001	-2.000000e+002	0.000000e+000	-2.000000e+002	0.000000e+000
5.245	-2.000000e+002	0.000000e+000	-4.302958e-002	-1.863383e-001	-2.000000e+002	0.000000e+000	-2.000000e+002	0.000000e+000
5.327	-2.000000e+002	0.000000e+000	-4.312399e-002	-1.855746e-001	-2.000000e+002	0.000000e+000	-2.000000e+002	0.000000e+000
5.408	-2.000000e+002	0.000000e+000	-4.330664e-002	-1.849301e-001	-2.000000e+002	0.000000e+000	-2.000000e+002	0.000000e+000
5.490	-2.000000e+002	0.000000e+000	-4.331189e-002	-1.852882e-001	-2.000000e+002	0.000000e+000	-2.000000e+002	0.000000e+000
5.571	-2.000000e+002	0.000000e+000	-4.334030e-002	-1.839864e-001	-2.000000e+002	0.000000e+000	-2.000000e+002	0.000000e+000
5.653	-2.000000e+002	0.000000e+000	-4.342051e-002	-1.830823e-001	-2.000000e+002	0.000000e+000	-2.000000e+002	0.000000e+000
5.735	-2.000000e+002	0.000000e+000	-4.348596e-002	-1.829303e-001	-2.000000e+002	0.000000e+000	-2.000000e+002	0.000000e+000
5.816	-2.000000e+002	0.000000e+000	-4.357654e-002	-1.824466e-001	-2.000000e+002	0.000000e+000	-2.000000e+002	0.000000e+000
5.898	-2.000000e+002	0.000000e+000	-4.371746e-002	-1.819167e-001	-2.000000e+002	0.000000e+000	-2.000000e+002	0.000000e+000
5.980	-2.000000e+002	0.000000e+000	-4.378547e-002	-1.813913e-001	-2.000000e+002	0.000000e+000	-2.000000e+002	0.000000e+000
6.061	-2.000000e+002	0.000000e+000	-4.370942e-002	-1.810282e-001	-2.000000e+002	0.000000e+000	-2.000000e+002	0.000000e+000
6.143	-2.000000e+002	0.000000e+000	-4.376865e-002	-1.813402e-001	-2.000000e+002	0.000000e+000	-2.000000e+002	0.000000e+000
6.225	-2.000000e+002	0.000000e+000	-4.387437e-002	-1.804317e-001	-2.000000e+002	0.000000e+000	-2.000000e+002	0.000000e+000
6.306	-2.000000e+002	0.000000e+000	-4.387912e-002	-1.802250e-001	-2.000000e+002	0.000000e+000	-2.000000e+002	0.000000e+000
6.388	-2.000000e+002	0.000000e+000	-4.390720e-002	-1.799983e-001	-2.000000e+002	0.000000e+000	-2.000000e+002	0.000000e+000
6.470	-2.000000e+002	0.000000e+000	-4.379196e-002	-1.797119e-001	-2.000000e+002	0.000000e+000	-2.000000e+002	0.000000e+000
6.551	-2.000000e+002	0.000000e+000	-4.394621e-002	-1.795307e-001	-2.000000e+002	0.000000e+000	-2.000000e+002	0.000000e+000
6.633	-2.000000e+002	0.000000e+000	-4.384660e-002	-1.790403e-001	-2.000000e+002	0.000000e+000	-2.000000e+002	0.000000e+000
6.714	-2.000000e+002	0.000000e+000	-4.397235e-002	-1.797023e-001	-2.000000e+002	0.000000e+000	-2.000000e+002	0.000000e+000
6.796	-2.000000e+002	0.000000e+000	-4.398429e-002	-1.797571e-001	-2.000000e+002	0.000000e+000	-2.000000e+002	0.000000e+000
6.892	-2.000000e+002	0.000000e+000	-4.403107e-002	-1.787773e-001	-2.000000e+002	0.000000e+000	-2.000000e+002	0.000000e+000
7.004	-2.000000e+002	0.000000e+000	-4.399299e-002	-1.790292e-001	-2.000000e+002	0.000000e+000	-2.000000e+002	0.000000e+000
7.117	-2.000000e+002	0.000000e+000	-4.389229e-002	-1.790629e-001	-2.000000e+002	0.000000e+000	-2.000000e+002	0.000000e+000
7.229	-2.000000e+002	0.000000e+000	-4.396608e-002	-1.792855e-001	-2.000000e+002	0.000000e+000	-2.000000e+002	0.000000e+000
7.342	-2.000000e+002	0.000000e+000	-4.396836e-002	-1.797778e-001	-2.000000e+002	0.000000e+000	-2.000000e+002	0.000000e+000
7.454	-2.000000e+002	0.000000e+000	-4.394664e-002	-1.799723e-001	-2.000000e+002	0.000000e+000	-2.000000e+002	0.000000e+000
7.567	-2.000000e+002	0.000000e+000	-4.390851e-002	-1.801462e-001	-2.000000e+002	0.000000e+000	-2.000000e+002	0.000000e+000
7.679	-2.000000e+002	0.000000e+000	-4.394170e-002	-1.803341e-001	-2.000000e+002	0.000000e+000	-2.000000e+002	0.000000e+000
7.792	-2.000000e+002	0.000000e+000	-4.395302e-002	-1.800150e-001	-2.000000e+002	0.000000e+000	-2.000000e+002	0.000000e+000
7.904	-2.000000e+002	0.000000e+000	-4.393662e-002	-1.805223e-001	-2.000000e+002	0.000000e+000	-2.000000e+002	0.000000e+000
8.017	-2.000000e+002	0.000000e+000	-4.387294e-002	-1.812934e-001	-2.000000e+002	0.000000e+000	-2.000000e+002	0.000000e+000
8.129	-2.000000e+002	0.000000e+000	-4.386736e-002	-1.807422e-001	-2.000000e+002	0.000000e+000	-2.000000e+002	0.000000e+000
8.242	-2.000000e+002	0.000000e+000	-4.378879e-002	-1.816877e-001	-2.000000e+002	0.000000e+000	-2.000000e+002	0.000000e+000
8.354	-2.000000e+002	0.000000e+000	-4.364640e-002	-1.821814e-001	-2.000000e+002	0.000000e+000	-2.000000e+002	0.000000e+000
8.467	-2.000000e+002	0.000000e+000	-4.362301e-002	-1.829673e-001	-2.000000e+002	0.000000e+000	-2.000000e+002	0.000000e+000
8.580	-2.000000e+002	0.000000e+000	-4.357472e-002	-1.829600e-001	-2.000000e+002	0.000000e+000	-2.000000e+002	0.000000e+000
8.692	-2.000000e+002	0.000000e+000	-4.354865e-002	-1.834607e-001	-2.000000e+002	0.000000e+000	-2.000000e+002	0.000000e+000
8.805	-2.000000e+002	0.000000e+000	-4.347450e-002	-1.840212e-001	-2.000000e+002	0.000000e+000	-2.000000e+002	0.000000e+000
8.917	-2.000000e+002	0.000000e+000	-4.343639e-002	-1.844947e-001	-2.000000e+002	0.000000e+000	-2.000000e+002	0.000000e+000
9.030	-2.000000e+002	0.000000e+000	-4.333571e-002	-1.851938e-001	-2.000000e+002	0.000000e+000	-2.000000e+002	0.000000e+000
9.142	-2.000000e+002	0.000000e+000	-4.332893e-002	-1.858671e-001	-2.000000e+002	0.000000e+000	-2.000000e+002	0.000000e+000
9.255	-2.000000e+002	0.000000e+000	-4.331024e-002	-1.860135e-001	-2.000000e+002	0.000000e+000	-2.000000e+002	0.000000e+000
9.367	-2.000000e+002	0.000000e+000	-4.319778e-002	-1.865085e-001	-2.000000e+002	0.000000e+000	-2.000000e+002	0.000000e+000
9.499	-2.000000e+002	0.000000e+000	-4.311500e-002	-1.875715e-001	-2.000000e+002	0.000000e+000	-2.000000e+002	0.000000e+000
9.654	-2.000000e+002	0.000000e+000	-4.314986e-002	-1.884161e-001	-2.000000e+002	0.000000e+000	-2.000000e+002	0.000000e+000
9.809	-2.000000e+002	0.000000e+000	-4.296802e-002	-1.895685e-001	-2.000000e+002	0.000000e+000	-2.000000e+002	0.000000e+000
9.964	-2.000000e+002	0.000000e+000	-4.298248e-002	-1.902016e-001	-2.000000e+002	0.000000e+000	-2.000000e+002	0.000000e+000
10.119	-2.000000e+002	0.000000e+000	-4.296696e-002	-1.901212e-001	-2.000000e+002	0.000000e+000	-2.000000e+002	0.000000e+000
10.274	-2.000000e+002	0.000000e+000	-4.304988e-002	-1.892769e-001	-2.000000e+002	0.000000e+000	-2.000000e+002	0.000000e+000
10.429	-2.000000e+002	0.000000e+000	-4.303478e-002	-1.887808e-001	-2.000000e+002	0.000000e+000	-2.000000e+002	0.000000e+000
10.585	-2.000000e+002	0.000000e+000	-4.300415e-002	-1.886005e-001	-2.000000e+002	0.000000e+000	-2.000000e+002	0.000000e+000
10.740	-2.000000e+002	0.000000e+000	-4.311181e-002	-1.879034e-001	-2.000000e+002	0.000000e+000	-2.000000e+002	0.000000e+000
10.895	-2.000000e+002	0.000000e+000	-4.310604e-002	-1.878379e-001	-2.000000e+002	0.000000e+000	-2.000000e+002	0.000000e+000
11.050	-2.000000e+002	0.000000e+000	-4.316870e-002	-1.868467e-001	-2.000000e+002	0.000000e+000	-2.000000e+002	0.000000e+000
11.205	-2.000000e+002	0.000000e+000	-4.325451e-002	-1.865680e-001	-2.000000e+002	0.000000e+000	-2.000000e+002	0.000000e+000
11.360	-2.000000e+002	0.000000e+000	-4.327848e-002	-1.864264e-001	-2.000000e+002	0.000000e+000	-2.000000e+002	0.000000e+000
11.515	-2.000000e+002	0.000000e+000	-4.324511e-002	-1.856745e-001	-2.000000e+002	0.000000e+000	-2.000000e+002	0.000000e+000
11.670	-2.000000e+002	0.000000e+000	-4.320487e-002	-1.852692e-001	-2.000000e+002	0.000000e+000	-2.000000e+002	0.000000e+000
11.825	-2.000000e+002	0.000000e+000	-4.322437e-002	-1.844958e-001	-2.000000e+002	0.000000e+000	-2.000000e+002	0.000000e+000
11.980	-2.000000e+002	0.000000e+000	-4.330290e-002	-1.846635e-001	-2.000000e+002	0.000000e+000	-2.000000e+002	0.000000e+000
12.136	-2.000000e+002	0.000000e+000	-4.338785e-002	-1.842926e-001	-2.000000e+002	0.000000e+000	-2.000000e+002	0.000000e+000
12.291	-2.000000e+002	0.000000e+000	-4.343701e-002	-1.838904e-001	-2.000000e+002	0.000000e+000	-2.000000e+002	0.000000e+000
12.446	-2.000000e+002	0.000000e+000	-4.340457e-002	-1.837292e-001	-2.000000e+002	0.000000e+000	-2.000000e+002	0.000000e+000
12.601	-2.000000e+002	0.000000e+000	-4.337387e-002	-1.830712e-001	-2.000000e+002	0.000000e+000	-2.000000e+002	0.000000e+000
12.756	-2.000000e+002	0.000000e+000	-4.341071e-002	-1.829642e-001	-2.000000e+002	0.000000e+000	-2.000000e+002	0.000000e+000
12.911	-2.000000e+002	0.000000e+000	-4.348106e-002	-1.828612e-001	-2.000000e+002	0.000000e+000	-2.000000e+002	0.000000e+000
13.092	-2.000000e+002	0.000000e+000	-4.351280e-002	-1.828326e-001	-2.000000e+002	0.000000e+000	-2.000000e+002	0.000000e+000
13.308	-2.000000e+002	0.000000e+000	-4.346739e-002	-1.824353e-001	-2.000000e+002	0.000000e+000	-2.000000e+002	0.000000e+000
13.523	-2.000000e+002	0.000000e+000	-4.352447e-002	-1.825990e-001	-2.000000e+002	0.000000e+000	-2.000000e+002	0.000000e+000
13.738	-2.000000e+002	0.000000e+000	-4.353788e-002	-1.822178e-001	-2.000000e+002	0.000000e+000	-2.000000e+002	0.000000e+000
13.954	-2.000000e+002	0.000000e+000	-4.357380e-002	-1.816494e-001	-2.000000e+002	0.000000e+000	-2.000000e+002	0.000000e+000
14.169	-2.000000e+002	0.000000e+000	-4.363938e-002	-1.817137e-001	-2.000000e+002	0.000000e+000	-2.000000e+002	0.000000e+000
14.385	-2.000000e+002	0.000000e+000	-4.355050e-002	-1.815196e-001	-2.000000e+002	0.000000e+000	-2.000000e+002	0.000000e+000
14.600	-2.000000e+002	0.000000e+000	-4.360366e-002	-1.814007e-001	-2.000000e+002	0.000000e+000	-2.000000e+002	0.000000e+000
14.815	-2.000000e+002	0.000000e+000	-4.360836e-002	-1.812787e-001	-2.000000e+002	0.000000e+000	-2.000000e+002	0.000000e+000
15.031	-2.000000e+002	0.000000e+000	-4.360844e-002	-1.806995e-001	-2.000000e+002	0.000000e+000	-2.000000e+002	0.000000e+000
15.246	-2.000000e+002	0.000000e+000	-4.363681e-002	-1.807075e-001	-2.000000e+002	0.000000e+000	-2.000000e+002	0.000000e+000
15.461	-2.000000e+002	0.000000e+000	-4.369182e-002	-1.805418e-001	-2.000000e+002	0.000000e+000	-2.000000e+002	0.000000e+000
15.677	-2.000000e+002	0.000000e+000	-4.364524e-002	-1.804528e-001	-2.000000e+002	0.000000e+000	-2.000000e+002	0.000000e+000
15.892	-2.000000e+002	0.000000e+000	-4.364219e-002	-1.807113e-001	-2.000000e+002	0.000000e+000	-2.000000e+002	0.000000e+000
16.107	-2.000000e+002	0.000000e+000	-4.373352e-002	-1.805569e-001	-2.000000e+002	0.000000e+000	-2.000000e+002	0.000000e+000
16.323	-2.000000e+002	0.000000e+000	-4.371630e-002	-1.804163e-001	-2.000000e+002	0.000000e+000	-2.000000e+002	0.000000e+000
16.538	-2.000000e+002	0.000000e+000	-4.371290e-002	-1.808116e-001	-2.000000e+002	0.000000e+000	-2.000000e+002	0.000000e+000
16.753	-2.000000e+002	0.000000e+000	-4.374417e-002	-1.804401e-001	-2.000000e+002	0.000000e+000	-2.000000e+002	0.000000e+000
16.969	-2.000000e+002	0.000000e+000	-4.371231e-002	-1.805275e-001	-2.000000e+002	0.000000e+000	-2.000000e+002	0.000000e+000
17.184	-2.000000e+002	0.000000e+000	-4.367101e-002	-1.803377e-001	-2.000000e+002	0.000000e+000	-2.000000e+002	0.000000e+000
17.399	-2.000000e+002	0.000000e+000	-4.360816e-002	-1.811439e-001	-2.000000e+002	0.000000e+000	-2.000000e+002	0.000000e+000
17.615	-2.000000e+002	0.000000e+000	-4.367213e-002	-1.809963e-001	-2.000000e+002	0.000000e+000	-2.000000e+002	0.000000e+000
17.830	-2.000000e+002	0.000000e+000	-4.361424e-002	-1.808754e-001	-2.000000e+002	0.000000e+000	-2.000000e+002	0.000000e+000
18.045	-2.000000e+002	0.000000e+000	-4.369087e-002	-1.811824e-001	-2.000000e+002	0.000000e+000	-2.000000e+002	0.000000e+000
18.299	-2.000000e+002	0.000000e+000	-4.376667e-002	-1.802300e-001	-2.000000e+002	0.000000e+000	-2.000000e+002	0.000000e+000
18.598	-2.000000e+002	0.000000e+000	-4.358818e-002	-1.807605e-001	-2.000000e+002	0.000000e+000	-2.000000e+002	0.000000e+000
18.897	-2.000000e+002	0.000000e+000	-4.363904e-002	-1.805412e-001	-2.000000e+002	0.000000e+000	-2.000000e+002	0.000000e+000
19.195	-2.000000e+002	0.000000e+000	-4.365667e-002	-1.804512e-001	-2.000000e+002	0.000000e+000	-2.000000e+002	0.000000e+000
19.494	-2.000000e+002	0.000000e+000	-4.369083e-002	-1.809122e-001	-2.000000e+002	0.000000e+000	-2.000000e+002	0.000000e+000
19.793	-2.000000e+002	0.000000e+000	-4.365764e-002	-1.806816e-001	-2.000000e+002	0.000000e+000	-2.000000e+002	0.000000e+000
20.092	-2.000000e+002	0.000000e+000	-4.376248e-002	-1.817336e-001	-2.000000e+002	0.000000e+000	-2.000000e+002	0.000000e+000
20.391	-2.000000e+002	0.000000e+000	-4.379901e-002	-1.811400e-001	-2.000000e+002	0.000000e+000	-2.000000e+002	0.000000e+000
20.689	-2.000000e+002	0.000000e+000	-4.380822e-002	-1.812799e-001	-2.000000e+002	0.000000e+000	-2.000000e+002	0.000000e+000
20.988	-2.000000e+002	0.000000e+000	-4.361040e-002	-1.821192e-001	-2.000000e+002	0.000000e+000	-2.000000e+002	0.000000e+000
21.287	-2.000000e+002	0.000000e+000	-4.364859e-002	-1.823652e-001	-2.000000e+002	0.000000e+000	-2.000000e+002	0.000000e+000
21.586	-2.000000e+002	0.000000e+000	-4.363905e-002	-1.820355e-001	-2.000000e+002	0.000000e+000	-2.000000e+002	0.000000e+000
21.885	-2.000000e+002	0.000000e+000	-4.361006e-002	-1.826943e-001	-2.000000e+002	0.000000e+000	-2.000000e+002	0.000000e+000
22.183	-2.000000e+002	0.000000e+000	-4.364544e-002	-1.835083e-001	-2.000000e+002	0.000000e+000	-2.000000e+002	0.000000e+000
22.482	-2.000000e+002	0.000000e+000	-4.362591e-002	-1.835001e-001	-2.000000e+002	0.000000e+000	-2.000000e+002	0.000000e+000
22.781	-2.000000e+002	0.000000e+000	-4.367733e-002	-1.839004e-001	-2.000000e+002	0.000000e+000	-2.000000e+002	0.000000e+000
23.080	-2.000000e+002	0.000000e+000	-4.356855e-002	-1.841688e-001	-2.000000e+002	0.000000e+000	-2.000000e+002	0.000000e+000
23.378	-2.000000e+002	0.000000e+000	-4.358328e-002	-1.840359e-001	-2.000000e+002	0.000000e+000	-2.000000e+002	0.000000e+000
23.677	-2.000000e+002	0.000000e+000	-4.359492e-002	-1.844296e-001	-2.000000e+002	0.000000e+000	-2.000000e+002	0.000000e+000
23.976	-2.000000e+002	0.000000e+000	-4.363946e-002	-1.850404e-001	-2.000000e+002	0.000000e+000	-2.000000e+002	0.000000e+000
24.275	-2.000000e+002	0.000000e+000	-4.365556e-002	-1.858500e-001	-2.000000e+002	0.000000e+000	-2.000000e+002	0.000000e+000
24.574	-2.000000e+002	0.000000e+000	-4.363813e-002	-1.859160e-001	-2.000000e+002	0.000000e+000	-2.000000e+002	0.000000e+000
24.872	-2.000000e+002	0.000000e+000	-4.365882e-002	-1.860986e-001	-2.000000e+002	0.000000e+000	-2.000000e+002	0.000000e+000
25.222	-2.000000e+002	0.000000e+000	-4.371668e-002	-1.861782e-001	-2.000000e+002	0.000000e+000	-2.000000e+002	0.000000e+000
25.634	-2.000000e+002	0.000000e+000	-4.351551e-002	-1.866502e-001	-2.000000e+002	0.000000e+000	-2.000000e+002	0.000000e+000
26.046	-2.000000e+002	0.000000e+000	-4.349280e-002	-1.875519e-001	-2.000000e+002	0.000000e+000	-2.000000e+002	0.000000e+000
26.457	-2.000000e+002	0.000000e+000	-4.342299e-002	-1.879949e-001	-2.000000e+002	0.000000e+000	-2.000000e+002	0.000000e+000
26.869	-2.000000e+002	0.000000e+000	-4.347870e-002	-1.882609e-001	-2.000000e+002	0.000000e+000	-2.000000e+002	0.000000e+000
27.281	-2.000000e+002	0.000000e+000	-4.346947e-002	-1.893050e-001	-2.000000e+002	0.000000e+000	-2.000000e+002	0.000000e+000
27.693	-2.000000e+002	0.000000e+000	-4.335888e-002	-1.891870e-001	-2.000000e+002	0.000000e+000	-2.000000e+002	0.000000e+000
28.105	-2.000000e+002	0.000000e+000	-4.338197e-002	-1.910718e-001	-2.000000e+002	0.000000e+000	-2.000000e+002	0.000000e+000
28.517	-2.000000e+002	0.000000e+000	-4.344422e-002	-1.914747e-001	-2.000000e+002	0.000000e+000	-2.000000e+002	0.000000e+000
28.928	-2.000000e+002	0.000000e+000	-4.351911e-002	-1.913986e-001	-2.000000e+002	0.000000e+000	-2.000000e+002	0.000000e+000
29.340	-2.000000e+002	0.000000e+000	-4.344568e-002	-1.925263e-001	-2.000000e+002	0.000000e+000	-2.000000e+002	0.000000e+000
29.752	-2.000000e+002	0.000000e+000	-4.333868e-002	-1.927742e-001	-2.000000e+002	0.000000e+000	-2.000000e+002	0.000000e+000
30.164	-2.000000e+002	0.000000e+000	-4.342541e-002	-1.928801e-001	-2.000000e+002	0.000000e+000	-2.000000e+002	0.000000e+000
30.576	-2.000000e+002	0.000000e+000	-4.336886e-002	-1.926757e-001	-2.000000e+002	0.000000e+000	-2.000000e+002	0.000000e+000
30.988	-2.000000e+002	0.000000e+000	-4.351036e-002	-1.930685e-001	-2.000000e+002	0.000000e+000	-2.000000e+002	0.000000e+000
31.399	-2.000000e+002	0.000000e+000	-4.345156e-002	-1.930537e-001	-2.000000e+002	0.000000e+000	-2.000000e+002	0.000000e+000
31.811	-2.000000e+002	0.000000e+000	-4.330888e-002	-1.933372e-001	-2.000000e+002	0.000000e+000	-2.000000e+002	0.000000e+000
32.223	-2.000000e+002	0.000000e+000	-4.332098e-002	-1.926255e-001	-2.000000e+002	0.000000e+000	-2.000000e+002	0.000000e+000
32.635	-2.000000e+002	0.000000e+000	-4.349125e-002	-1.924566e-001	-2.000000e+002	0.000000e+000	-2.000000e+002	0.000000e+000
33.047	-2.000000e+002	0.000000e+000	-4.335535e-002	-1.923251e-001	-2.000000e+002	0.000000e+000	-2.000000e+002	0.000000e+000
33.458	-2.000000e+002	0.000000e+000	-4.348250e-002	-1.927534e-001	-2.000000e+002	0.000000e+000	-2.000000e+002	0.000000e+000
33.870	-2.000000e+002	0.000000e+000	-4.341572e-002	-1.914105e-001	-2.000000e+002	0.000000e+000	-2.000000e+002	0.000000e+000
34.282	-2.000000e+002	0.000000e+000	-4.343377e-002	-1.916174e-001	-2.000000e+002	0.000000e+000	-2.000000e+002	0.000000e+000
34.764	-2.000000e+002	0.000000e+000	-4.329262e-002	-1.912138e-001	-2.000000e+002	0.000000e+000	-2.000000e+002	0.000000e+000
35.331	-2.000000e+002	0.000000e+000	-4.332450e-002	-1.920147e-001	-2.000000e+002	0.000000e+000	-2.000000e+002	0.000000e+000
35.899	-2.000000e+002	0.000000e+000	-4.333378e-002	-1.915467e-001	-2.000000e+002	0.000000e+000	-2.000000e+002	0.000000e+000
36.467	-2.000000e+002	0.000000e+000	-4.326823e-002	-1.913119e-001	-2.000000e+002	0.000000e+000	-2.000000e+002	0.000000e+000
37.034	-2.000000e+002	0.000000e+000	-4.326431e-002	-1.911726e-001	-2.000000e+002	0.000000e+000	-2.000000e+002	0.000000e+000
37.602	-2.000000e+002	0.000000e+000	-4.342282e-002	-1.915660e-001	-2.000000e+002	0.000000e+000	-2.000000e+002	0.000000e+000
38.170	-2.000000e+002	0.000000e+000	-4.329189e-002	-1.916494e-001	-2.000000e+002	0.000000e+000	-2.000000e+002	0.000000e+000
38.737	-2.000000e+002	0.000000e+000	-4.341194e-002	-1.912982e-001	-2.000000e+002	0.000000e+000	-2.000000e+002	0.000000e+000
39.305	-2.000000e+002	0.000000e+000	-4.336344e-002	-1.913684e-001	-2.000000e+002	0.000000e+000	-2.000000e+002	0.000000e+000
39.872	-2.000000e+002	0.000000e+000	-4.339037e-002	-1.904019e-001	-2.000000e+002	0.000000e+000	-2.000000e+002	0.000000e+000
40.440	-2.000000e+002	0.000000e+000	-4.343014e-002	-1.910493e-001	-2.000000e+002	0.000000e+000	-2.000000e+002	0.000000e+000
41.008	-2.000000e+002	0.000000e+000	-4.342057e-002	-1.912314e-001	-2.000000e+002	0.000000e+000	-2.000000e+002	0.000000e+000
41.575	-2.000000e+002	0.000000e+000	-4.347971e-002	-1.913725e-001	-2.000000e+002	0.000000e+000	-2.000000e+002	0.000000e+000
42.143	-2.000000e+002	0.000000e+000	-4.334983e-002	-1.913268e-001	-2.000000e+002	0.000000e+000	-2.000000e+002	0.000000e+000
42.711	-2.000000e+002	0.000000e+000	-4.346001e-002	-1.904413e-001	-2.000000e+002	0.000000e+000	-2.000000e+002	0.000000e+000
43.278	-2.000000e+002	0.000000e+000	-4.339894e-002	-1.911131e-001	-2.000000e+002	0.000000e+000	-2.000000e+002	0.000000e+000
43.846	-2.000000e+002	0.000000e+000	-4.340854e-002	-1.905620e-001	-2.000000e+002	0.000000e+000	-2.000000e+002	0.000000e+000
44.414	-2.000000e+002	0.000000e+000	-4.348235e-002	-1.905954e-001	-2.000000e+002	0.000000e+000	-2.000000e+002	0.000000e+000
44.981	-2.000000e+002	0.000000e+000	-4.341515e-002	-1.905734e-001	-2.000000e+002	0.000000e+000	-2.000000e+002	0.000000e+000
