!Agilent Technologies,E5061B,MY49204007,A.02.12
!Date: Fri Sep 12 10:11:27 2025
!Data & Calibration Information:
!Freq	S11:SOLT2(OFF)	S21:SOLT2(OFF)	S12:SOLT2(OFF)	S22:SOLT2(OFF)
# Hz S dB R 50
5.000	-2.000000e+002	0.000000e+000	-4.312056e-002	-1.852618e-001	-2.000000e+002	0.000000e+000	-2.000000e+002	0.000000e+000
5.082	-2.000000e+002	0.000000e+000	-4.333255e-002	-1.838731e-001	-2.000000e+002	0.000000e+000	-2.000000e+002	0.000000e+000
5.163	-2.000000e+002	0.000000e+000	-4.328048e-002	-1.830348e-001	-2.000000e+002	0.000000e+000	-2.000000e+002	0.000000e+000
5.245	-2.000000e+002	0.000000e+000	-4.340950e-002	-1.820204e-001	-2.000000e+002	0.000000e+000	-2.000000e+002	0.000000e+000
5.327	-2.000000e+002	0.000000e+000	-4.355685e-002	-1.813047e-001	-2.000000e+002	0.000000e+000	-2.000000e+002	0.000000e+000
5.408	-2.000000e+002	0.000000e+000	-4.377186e-002	-1.808448e-001	-2.000000e+002	0.000000e+000	-2.000000e+002	0.000000e+000
5.490	-2.000000e+002	0.000000e+000	-4.371946e-002	-1.810174e-001	-2.000000e+002	0.000000e+000	-2.000000e+002	0.000000e+000
5.571	-2.000000e+002	0.000000e+000	-4.384515e-002	-1.796700e-001	-2.000000e+002	0.000000e+000	-2.000000e+002	0.000000e+000
5.653	-2.000000e+002	0.000000e+000	-4.376581e-002	-1.788510e-001	-2.000000e+002	0.000000e+000	-2.000000e+002	0.000000e+000
5.735	-2.000000e+002	0.000000e+000	-4.391963e-002	-1.785401e-001	-2.000000e+002	0.000000e+000	-2.000000e+002	0.000000e+000
5.816	-2.000000e+002	0.000000e+000	-4.395605e-002	-1.782875e-001	-2.000000e+002	0.000000e+000	-2.000000e+002	0.000000e+000
5.898	-2.000000e+002	0.000000e+000	-4.405812e-002	-1.774731e-001	-2.000000e+002	0.000000e+000	-2.000000e+002	0.000000e+000
5.980	-2.000000e+002	0.000000e+000	-4.414266e-002	-1.775870e-001	-2.000000e+002	0.000000e+000	-2.000000e+002	0.000000e+000
6.061	-2.000000e+002	0.000000e+000	-4.405164e-002	-1.767813e-001	-2.000000e+002	0.000000e+000	-2.000000e+002	0.000000e+000
6.143	-2.000000e+002	0.000000e+000	-4.417157e-002	-1.776601e-001	-2.000000e+002	0.000000e+000	-2.000000e+002	0.000000e+000
6.225	-2.000000e+002	0.000000e+000	-4.424403e-002	-1.761900e-001	-2.000000e+002	0.000000e+000	-2.000000e+002	0.000000e+000
6.306	-2.000000e+002	0.000000e+000	-4.425951e-002	-1.761217e-001	-2.000000e+002	0.000000e+000	-2.000000e+002	0.000000e+000
6.388	-2.000000e+002	0.000000e+000	-4.423063e-002	-1.760475e-001	-2.000000e+002	0.000000e+000	-2.000000e+002	0.000000e+000
6.470	-2.000000e+002	0.000000e+000	-4.419988e-002	-1.754732e-001	-2.000000e+002	0.000000e+000	-2.000000e+002	0.000000e+000
6.551	-2.000000e+002	0.000000e+000	-4.435471e-002	-1.754992e-001	-2.000000e+002	0.000000e+000	-2.000000e+002	0.000000e+000
6.633	-2.000000e+002	0.000000e+000	-4.422874e-002	-1.751839e-001	-2.000000e+002	0.000000e+000	-2.000000e+002	0.000000e+000
6.714	-2.000000e+002	0.000000e+000	-4.433226e-002	-1.759654e-001	-2.000000e+002	0.000000e+000	-2.000000e+002	0.000000e+000
6.796	-2.000000e+002	0.000000e+000	-4.434279e-002	-1.758240e-001	-2.000000e+002	0.000000e+000	-2.000000e+002	0.000000e+000
6.892	-2.000000e+002	0.000000e+000	-4.429293e-002	-1.750551e-001	-2.000000e+002	0.000000e+000	-2.000000e+002	0.000000e+000
7.004	-2.000000e+002	0.000000e+000	-4.434987e-002	-1.752336e-001	-2.000000e+002	0.000000e+000	-2.000000e+002	0.000000e+000
7.117	-2.000000e+002	0.000000e+000	-4.426230e-002	-1.752225e-001	-2.000000e+002	0.000000e+000	-2.000000e+002	0.000000e+000
7.229	-2.000000e+002	0.000000e+000	-4.426141e-002	-1.757898e-001	-2.000000e+002	0.000000e+000	-2.000000e+002	0.000000e+000
7.342	-2.000000e+002	0.000000e+000	-4.427201e-002	-1.756815e-001	-2.000000e+002	0.000000e+000	-2.000000e+002	0.000000e+000
7.454	-2.000000e+002	0.000000e+000	-4.426539e-002	-1.761134e-001	-2.000000e+002	0.000000e+000	-2.000000e+002	0.000000e+000
7.567	-2.000000e+002	0.000000e+000	-4.425670e-002	-1.761968e-001	-2.000000e+002	0.000000e+000	-2.000000e+002	0.000000e+000
7.679	-2.000000e+002	0.000000e+000	-4.428647e-002	-1.773344e-001	-2.000000e+002	0.000000e+000	-2.000000e+002	0.000000e+000
7.792	-2.000000e+002	0.000000e+000	-4.429925e-002	-1.768403e-001	-2.000000e+002	0.000000e+000	-2.000000e+002	0.000000e+000
7.904	-2.000000e+002	0.000000e+000	-4.423812e-002	-1.771883e-001	-2.000000e+002	0.000000e+000	-2.000000e+002	0.000000e+000
8.017	-2.000000e+002	0.000000e+000	-4.413652e-002	-1.782033e-001	-2.000000e+002	0.000000e+000	-2.000000e+002	0.000000e+000
8.129	-2.000000e+002	0.000000e+000	-4.411167e-002	-1.777961e-001	-2.000000e+002	0.000000e+000	-2.000000e+002	0.000000e+000
8.242	-2.000000e+002	0.000000e+000	-4.410431e-002	-1.784644e-001	-2.000000e+002	0.000000e+000	-2.000000e+002	0.000000e+000
8.354	-2.000000e+002	0.000000e+000	-4.408216e-002	-1.784281e-001	-2.000000e+002	0.000000e+000	-2.000000e+002	0.000000e+000
8.467	-2.000000e+002	0.000000e+000	-4.400455e-002	-1.792176e-001	-2.000000e+002	0.000000e+000	-2.000000e+002	0.000000e+000
8.580	-2.000000e+002	0.000000e+000	-4.388583e-002	-1.792766e-001	-2.000000e+002	0.000000e+000	-2.000000e+002	0.000000e+000
8.692	-2.000000e+002	0.000000e+000	-4.384468e-002	-1.796055e-001	-2.000000e+002	0.000000e+000	-2.000000e+002	0.000000e+000
8.805	-2.000000e+002	0.000000e+000	-4.373552e-002	-1.799952e-001	-2.000000e+002	0.000000e+000	-2.000000e+002	0.000000e+000
8.917	-2.000000e+002	0.000000e+000	-4.373943e-002	-1.807740e-001	-2.000000e+002	0.000000e+000	-2.000000e+002	0.000000e+000
9.030	-2.000000e+002	0.000000e+000	-4.377258e-002	-1.810675e-001	-2.000000e+002	0.000000e+000	-2.000000e+002	0.000000e+000
9.142	-2.000000e+002	0.000000e+000	-4.364758e-002	-1.819256e-001	-2.000000e+002	0.000000e+000	-2.000000e+002	0.000000e+000
9.255	-2.000000e+002	0.000000e+000	-4.359002e-002	-1.820588e-001	-2.000000e+002	0.000000e+000	-2.000000e+002	0.000000e+000
9.367	-2.000000e+002	0.000000e+000	-4.352335e-002	-1.826700e-001	-2.000000e+002	0.000000e+000	-2.000000e+002	0.000000e+000
9.499	-2.000000e+002	0.000000e+000	-4.347887e-002	-1.833597e-001	-2.000000e+002	0.000000e+000	-2.000000e+002	0.000000e+000
9.654	-2.000000e+002	0.000000e+000	-4.349347e-002	-1.838136e-001	-2.000000e+002	0.000000e+000	-2.000000e+002	0.000000e+000
9.809	-2.000000e+002	0.000000e+000	-4.329192e-002	-1.848598e-001	-2.000000e+002	0.000000e+000	-2.000000e+002	0.000000e+000
9.964	-2.000000e+002	0.000000e+000	-4.328719e-002	-1.860998e-001	-2.000000e+002	0.000000e+000	-2.000000e+002	0.000000e+000
10.119	-2.000000e+002	0.000000e+000	-4.324662e-002	-1.859790e-001	-2.000000e+002	0.000000e+000	-2.000000e+002	0.000000e+000
10.274	-2.000000e+002	0.000000e+000	-4.322325e-002	-1.853068e-001	-2.000000e+002	0.000000e+000	-2.000000e+002	0.000000e+000
10.429	-2.000000e+002	0.000000e+000	-4.334052e-002	-1.845868e-001	-2.000000e+002	0.000000e+000	-2.000000e+002	0.000000e+000
10.585	-2.000000e+002	0.000000e+000	-4.334519e-002	-1.839879e-001	-2.000000e+002	0.000000e+000	-2.000000e+002	0.000000e+000
10.740	-2.000000e+002	0.000000e+000	-4.349534e-002	-1.833413e-001	-2.000000e+002	0.000000e+000	-2.000000e+002	0.000000e+000
10.895	-2.000000e+002	0.000000e+000	-4.343431e-002	-1.834544e-001	-2.000000e+002	0.000000e+000	-2.000000e+002	0.000000e+000
11.050	-2.000000e+002	0.000000e+000	-4.343103e-002	-1.823349e-001	-2.000000e+002	0.000000e+000	-2.000000e+002	0.000000e+000
11.205	-2.000000e+002	0.000000e+000	-4.350510e-002	-1.821534e-001	-2.000000e+002	0.000000e+000	-2.000000e+002	0.000000e+000
11.360	-2.000000e+002	0.000000e+000	-4.351244e-002	-1.821355e-001	-2.000000e+002	0.000000e+000	-2.000000e+002	0.000000e+000
11.515	-2.000000e+002	0.000000e+000	-4.356539e-002	-1.816242e-001	-2.000000e+002	0.000000e+000	-2.000000e+002	0.000000e+000
11.670	-2.000000e+002	0.000000e+000	-4.354610e-002	-1.811951e-001	-2.000000e+002	0.000000e+000	-2.000000e+002	0.000000e+000
11.825	-2.000000e+002	0.000000e+000	-4.357574e-002	-1.806488e-001	-2.000000e+002	0.000000e+000	-2.000000e+002	0.000000e+000
11.980	-2.000000e+002	0.000000e+000	-4.364980e-002	-1.803782e-001	-2.000000e+002	0.000000e+000	-2.000000e+002	0.000000e+000
12.136	-2.000000e+002	0.000000e+000	-4.368715e-002	-1.804692e-001	-2.000000e+002	0.000000e+000	-2.000000e+002	0.000000e+000
12.291	-2.000000e+002	0.000000e+000	-4.368799e-002	-1.800093e-001	-2.000000e+002	0.000000e+000	-2.000000e+002	0.000000e+000
12.446	-2.000000e+002	0.000000e+000	-4.370634e-002	-1.796564e-001	-2.000000e+002	0.000000e+000	-2.000000e+002	0.000000e+000
12.601	-2.000000e+002	0.000000e+000	-4.373945e-002	-1.796716e-001	-2.000000e+002	0.000000e+000	-2.000000e+002	0.000000e+000
12.756	-2.000000e+002	0.000000e+000	-4.367182e-002	-1.795629e-001	-2.000000e+002	0.000000e+000	-2.000000e+002	0.000000e+000
12.911	-2.000000e+002	0.000000e+000	-4.381978e-002	-1.789705e-001	-2.000000e+002	0.000000e+000	-2.000000e+002	0.000000e+000
13.092	-2.000000e+002	0.000000e+000	-4.381909e-002	-1.788335e-001	-2.000000e+002	0.000000e+000	-2.000000e+002	0.000000e+000
13.308	-2.000000e+002	0.000000e+000	-4.377008e-002	-1.783277e-001	-2.000000e+002	0.000000e+000	-2.000000e+002	0.000000e+000
13.523	-2.000000e+002	0.000000e+000	-4.384351e-002	-1.785771e-001	-2.000000e+002	0.000000e+000	-2.000000e+002	0.000000e+000
13.738	-2.000000e+002	0.000000e+000	-4.389133e-002	-1.786031e-001	-2.000000e+002	0.000000e+000	-2.000000e+002	0.000000e+000
13.954	-2.000000e+002	0.000000e+000	-4.383780e-002	-1.776928e-001	-2.000000e+002	0.000000e+000	-2.000000e+002	0.000000e+000
14.169	-2.000000e+002	0.000000e+000	-4.392198e-002	-1.777063e-001	-2.000000e+002	0.000000e+000	-2.000000e+002	0.000000e+000
14.385	-2.000000e+002	0.000000e+000	-4.383440e-002	-1.775140e-001	-2.000000e+002	0.000000e+000	-2.000000e+002	0.000000e+000
14.600	-2.000000e+002	0.000000e+000	-4.394276e-002	-1.770133e-001	-2.000000e+002	0.000000e+000	-2.000000e+002	0.000000e+000
14.815	-2.000000e+002	0.000000e+000	-4.386278e-002	-1.769957e-001	-2.000000e+002	0.000000e+000	-2.000000e+002	0.000000e+000
15.031	-2.000000e+002	0.000000e+000	-4.390710e-002	-1.767085e-001	-2.000000e+002	0.000000e+000	-2.000000e+002	0.000000e+000
15.246	-2.000000e+002	0.000000e+000	-4.397179e-002	-1.768839e-001	-2.000000e+002	0.000000e+000	-2.000000e+002	0.000000e+000
15.461	-2.000000e+002	0.000000e+000	-4.398688e-002	-1.769276e-001	-2.000000e+002	0.000000e+000	-2.000000e+002	0.000000e+000
15.677	-2.000000e+002	0.000000e+000	-4.405286e-002	-1.763947e-001	-2.000000e+002	0.000000e+000	-2.000000e+002	0.000000e+000
15.892	-2.000000e+002	0.000000e+000	-4.404199e-002	-1.765914e-001	-2.000000e+002	0.000000e+000	-2.000000e+002	0.000000e+000
16.107	-2.000000e+002	0.000000e+000	-4.408272e-002	-1.764175e-001	-2.000000e+002	0.000000e+000	-2.000000e+002	0.000000e+000
16.323	-2.000000e+002	0.000000e+000	-4.395944e-002	-1.762846e-001	-2.000000e+002	0.000000e+000	-2.000000e+002	0.000000e+000
16.538	-2.000000e+002	0.000000e+000	-4.402582e-002	-1.767750e-001	-2.000000e+002	0.000000e+000	-2.000000e+002	0.000000e+000
16.753	-2.000000e+002	0.000000e+000	-4.394351e-002	-1.767152e-001	-2.000000e+002	0.000000e+000	-2.000000e+002	0.000000e+000
16.969	-2.000000e+002	0.000000e+000	-4.400266e-002	-1.772349e-001	-2.000000e+002	0.000000e+000	-2.000000e+002	0.000000e+000
17.184	-2.000000e+002	0.000000e+000	-4.401293e-002	-1.768469e-001	-2.000000e+002	0.000000e+000	-2.000000e+002	0.000000e+000
17.399	-2.000000e+002	0.000000e+000	-4.388528e-002	-1.767934e-001	-2.000000e+002	0.000000e+000	-2.000000e+002	0.000000e+000
17.615	-2.000000e+002	0.000000e+000	-4.389413e-002	-1.768259e-001	-2.000000e+002	0.000000e+000	-2.000000e+002	0.000000e+000
17.830	-2.000000e+002	0.000000e+000	-4.392545e-002	-1.765919e-001	-2.000000e+002	0.000000e+000	-2.000000e+002	0.000000e+000
18.045	-2.000000e+002	0.000000e+000	-4.393385e-002	-1.768312e-001	-2.000000e+002	0.000000e+000	-2.000000e+002	0.000000e+000
18.299	-2.000000e+002	0.000000e+000	-4.405087e-002	-1.763088e-001	-2.000000e+002	0.000000e+000	-2.000000e+002	0.000000e+000
18.598	-2.000000e+002	0.000000e+000	-4.388349e-002	-1.767888e-001	-2.000000e+002	0.000000e+000	-2.000000e+002	0.000000e+000
18.897	-2.000000e+002	0.000000e+000	-4.394289e-002	-1.767831e-001	-2.000000e+002	0.000000e+000	-2.000000e+002	0.000000e+000
19.195	-2.000000e+002	0.000000e+000	-4.399419e-002	-1.772027e-001	-2.000000e+002	0.000000e+000	-2.000000e+002	0.000000e+000
19.494	-2.000000e+002	0.000000e+000	-4.400602e-002	-1.768367e-001	-2.000000e+002	0.000000e+000	-2.000000e+002	0.000000e+000
19.793	-2.000000e+002	0.000000e+000	-4.391767e-002	-1.776082e-001	-2.000000e+002	0.000000e+000	-2.000000e+002	0.000000e+000
20.092	-2.000000e+002	0.000000e+000	-4.400751e-002	-1.774721e-001	-2.000000e+002	0.000000e+000	-2.000000e+002	0.000000e+000
20.391	-2.000000e+002	0.000000e+000	-4.404904e-002	-1.781786e-001	-2.000000e+002	0.000000e+000	-2.000000e+002	0.000000e+000
20.689	-2.000000e+002	0.000000e+000	-4.400358e-002	-1.781161e-001	-2.000000e+002	0.000000e+000	-2.000000e+002	0.000000e+000
20.988	-2.000000e+002	0.000000e+000	-4.391821e-002	-1.785279e-001	-2.000000e+002	0.000000e+000	-2.000000e+002	0.000000e+000
21.287	-2.000000e+002	0.000000e+000	-4.393887e-002	-1.784132e-001	-2.000000e+002	0.000000e+000	-2.000000e+002	0.000000e+000
21.586	-2.000000e+002	0.000000e+000	-4.387496e-002	-1.785046e-001	-2.000000e+002	0.000000e+000	-2.000000e+002	0.000000e+000
21.885	-2.000000e+002	0.000000e+000	-4.390194e-002	-1.791474e-001	-2.000000e+002	0.000000e+000	-2.000000e+002	0.000000e+000
22.183	-2.000000e+002	0.000000e+000	-4.383658e-002	-1.788666e-001	-2.000000e+002	0.000000e+000	-2.000000e+002	0.000000e+000
22.482	-2.000000e+002	0.000000e+000	-4.390532e-002	-1.794965e-001	-2.000000e+002	0.000000e+000	-2.000000e+002	0.000000e+000
22.781	-2.000000e+002	0.000000e+000	-4.394365e-002	-1.796587e-001	-2.000000e+002	0.000000e+000	-2.000000e+002	0.000000e+000
23.080	-2.000000e+002	0.000000e+000	-4.377871e-002	-1.802708e-001	-2.000000e+002	0.000000e+000	-2.000000e+002	0.000000e+000
23.378	-2.000000e+002	0.000000e+000	-4.379849e-002	-1.806851e-001	-2.000000e+002	0.000000e+000	-2.000000e+002	0.000000e+000
23.677	-2.000000e+002	0.000000e+000	-4.380523e-002	-1.807576e-001	-2.000000e+002	0.000000e+000	-2.000000e+002	0.000000e+000
23.976	-2.000000e+002	0.000000e+000	-4.390677e-002	-1.809381e-001	-2.000000e+002	0.000000e+000	-2.000000e+002	0.000000e+000
24.275	-2.000000e+002	0.000000e+000	-4.383666e-002	-1.814339e-001	-2.000000e+002	0.000000e+000	-2.000000e+002	0.000000e+000
24.574	-2.000000e+002	0.000000e+000	-4.381351e-002	-1.815357e-001	-2.000000e+002	0.000000e+000	-2.000000e+002	0.000000e+000
24.872	-2.000000e+002	0.000000e+000	-4.383095e-002	-1.819857e-001	-2.000000e+002	0.000000e+000	-2.000000e+002	0.000000e+000
25.222	-2.000000e+002	0.000000e+000	-4.387093e-002	-1.824550e-001	-2.000000e+002	0.000000e+000	-2.000000e+002	0.000000e+000
25.634	-2.000000e+002	0.000000e+000	-4.376849e-002	-1.828658e-001	-2.000000e+002	0.000000e+000	-2.000000e+002	0.000000e+000
26.046	-2.000000e+002	0.000000e+000	-4.377256e-002	-1.833937e-001	-2.000000e+002	0.000000e+000	-2.000000e+002	0.000000e+000
26.457	-2.000000e+002	0.000000e+000	-4.377603e-002	-1.839830e-001	-2.000000e+002	0.000000e+000	-2.000000e+002	0.000000e+000
26.869	-2.000000e+002	0.000000e+000	-4.374486e-002	-1.841048e-001	-2.000000e+002	0.000000e+000	-2.000000e+002	0.000000e+000
27.281	-2.000000e+002	0.000000e+000	-4.384384e-002	-1.850024e-001	-2.000000e+002	0.000000e+000	-2.000000e+002	0.000000e+000
27.693	-2.000000e+002	0.000000e+000	-4.364704e-002	-1.851665e-001	-2.000000e+002	0.000000e+000	-2.000000e+002	0.000000e+000
28.105	-2.000000e+002	0.000000e+000	-4.374226e-002	-1.861902e-001	-2.000000e+002	0.000000e+000	-2.000000e+002	0.000000e+000
28.517	-2.000000e+002	0.000000e+000	-4.376361e-002	-1.870255e-001	-2.000000e+002	0.000000e+000	-2.000000e+002	0.000000e+000
28.928	-2.000000e+002	0.000000e+000	-4.377355e-002	-1.871287e-001	-2.000000e+002	0.000000e+000	-2.000000e+002	0.000000e+000
29.340	-2.000000e+002	0.000000e+000	-4.372974e-002	-1.879594e-001	-2.000000e+002	0.000000e+000	-2.000000e+002	0.000000e+000
29.752	-2.000000e+002	0.000000e+000	-4.362906e-002	-1.885868e-001	-2.000000e+002	0.000000e+000	-2.000000e+002	0.000000e+000
30.164	-2.000000e+002	0.000000e+000	-4.357898e-002	-1.889104e-001	-2.000000e+002	0.000000e+000	-2.000000e+002	0.000000e+000
30.576	-2.000000e+002	0.000000e+000	-4.352927e-002	-1.889067e-001	-2.000000e+002	0.000000e+000	-2.000000e+002	0.000000e+000
30.988	-2.000000e+002	0.000000e+000	-4.366143e-002	-1.898534e-001	-2.000000e+002	0.000000e+000	-2.000000e+002	0.000000e+000
31.399	-2.000000e+002	0.000000e+000	-4.366131e-002	-1.889747e-001	-2.000000e+002	0.000000e+000	-2.000000e+002	0.000000e+000
31.811	-2.000000e+002	0.000000e+000	-4.362556e-002	-1.893897e-001	-2.000000e+002	0.000000e+000	-2.000000e+002	0.000000e+000
32.223	-2.000000e+002	0.000000e+000	-4.347073e-002	-1.887842e-001	-2.000000e+002	0.000000e+000	-2.000000e+002	0.000000e+000
32.635	-2.000000e+002	0.000000e+000	-4.369333e-002	-1.887602e-001	-2.000000e+002	0.000000e+000	-2.000000e+002	0.000000e+000
33.047	-2.000000e+002	0.000000e+000	-4.356331e-002	-1.885632e-001	-2.000000e+002	0.000000e+000	-2.000000e+002	0.000000e+000
33.458	-2.000000e+002	0.000000e+000	-4.366745e-002	-1.886757e-001	-2.000000e+002	0.000000e+000	-2.000000e+002	0.000000e+000
33.870	-2.000000e+002	0.000000e+000	-4.366776e-002	-1.880563e-001	-2.000000e+002	0.000000e+000	-2.000000e+002	0.000000e+000
34.282	-2.000000e+002	0.000000e+000	-4.365806e-002	-1.887895e-001	-2.000000e+002	0.000000e+000	-2.000000e+002	0.000000e+000
34.764	-2.000000e+002	0.000000e+000	-4.362421e-002	-1.882405e-001	-2.000000e+002	0.000000e+000	-2.000000e+002	0.000000e+000
35.331	-2.000000e+002	0.000000e+000	-4.365971e-002	-1.882089e-001	-2.000000e+002	0.000000e+000	-2.000000e+002	0.000000e+000
35.899	-2.000000e+002	0.000000e+000	-4.365083e-002	-1.881726e-001	-2.000000e+002	0.000000e+000	-2.000000e+002	0.000000e+000
36.467	-2.000000e+002	0.000000e+000	-4.359505e-002	-1.881419e-001	-2.000000e+002	0.000000e+000	-2.000000e+002	0.000000e+000
37.034	-2.000000e+002	0.000000e+000	-4.363192e-002	-1.878692e-001	-2.000000e+002	0.000000e+000	-2.000000e+002	0.000000e+000
37.602	-2.000000e+002	0.000000e+000	-4.367302e-002	-1.875253e-001	-2.000000e+002	0.000000e+000	-2.000000e+002	0.000000e+000
38.170	-2.000000e+002	0.000000e+000	-4.365875e-002	-1.878326e-001	-2.000000e+002	0.000000e+000	-2.000000e+002	0.000000e+000
38.737	-2.000000e+002	0.000000e+000	-4.366814e-002	-1.875855e-001	-2.000000e+002	0.000000e+000	-2.000000e+002	0.000000e+000
39.305	-2.000000e+002	0.000000e+000	-4.368418e-002	-1.875768e-001	-2.000000e+002	0.000000e+000	-2.000000e+002	0.000000e+000
39.872	-2.000000e+002	0.000000e+000	-4.372796e-002	-1.871042e-001	-2.000000e+002	0.000000e+000	-2.000000e+002	0.000000e+000
40.440	-2.000000e+002	0.000000e+000	-4.365494e-002	-1.875059e-001	-2.000000e+002	0.000000e+000	-2.000000e+002	0.000000e+000
41.008	-2.000000e+002	0.000000e+000	-4.376694e-002	-1.875899e-001	-2.000000e+002	0.000000e+000	-2.000000e+002	0.000000e+000
41.575	-2.000000e+002	0.000000e+000	-4.374520e-002	-1.873975e-001	-2.000000e+002	0.000000e+000	-2.000000e+002	0.000000e+000
42.143	-2.000000e+002	0.000000e+000	-4.367109e-002	-1.873316e-001	-2.000000e+002	0.000000e+000	-2.000000e+002	0.000000e+000
42.711	-2.000000e+002	0.000000e+000	-4.365521e-002	-1.871613e-001	-2.000000e+002	0.000000e+000	-2.000000e+002	0.000000e+000
43.278	-2.000000e+002	0.000000e+000	-4.349824e-002	-1.870903e-001	-2.000000e+002	0.000000e+000	-2.000000e+002	0.000000e+000
43.846	-2.000000e+002	0.000000e+000	-4.360954e-002	-1.873438e-001	-2.000000e+002	0.000000e+000	-2.000000e+002	0.000000e+000
44.414	-2.000000e+002	0.000000e+000	-4.358993e-002	-1.870577e-001	-2.000000e+002	0.000000e+000	-2.000000e+002	0.000000e+000
44.981	-2.000000e+002	0.000000e+000	-4.365315e-002	-1.877001e-001	-2.000000e+002	0.000000e+000	-2.000000e+002	0.000000e+000
