!Agilent Technologies,E5061B,MY49204007,A.02.12
!Date: Fri Sep 12 09:25:38 2025
!Data & Calibration Information:
!Freq	S11:SOLT2(OFF)	S21:SOLT2(OFF)	S12:SOLT2(OFF)	S22:SOLT2(OFF)
# Hz S dB R 50
5.000	-2.000000e+002	0.000000e+000	-5.990442e-002	-2.562348e-001	-2.000000e+002	0.000000e+000	-2.000000e+002	0.000000e+000
5.082	-2.000000e+002	0.000000e+000	-6.000117e-002	-2.580197e-001	-2.000000e+002	0.000000e+000	-2.000000e+002	0.000000e+000
5.163	-2.000000e+002	0.000000e+000	-5.994292e-002	-2.592581e-001	-2.000000e+002	0.000000e+000	-2.000000e+002	0.000000e+000
5.245	-2.000000e+002	0.000000e+000	-6.003784e-002	-2.607309e-001	-2.000000e+002	0.000000e+000	-2.000000e+002	0.000000e+000
5.327	-2.000000e+002	0.000000e+000	-6.016130e-002	-2.620857e-001	-2.000000e+002	0.000000e+000	-2.000000e+002	0.000000e+000
5.408	-2.000000e+002	0.000000e+000	-6.032618e-002	-2.634630e-001	-2.000000e+002	0.000000e+000	-2.000000e+002	0.000000e+000
5.490	-2.000000e+002	0.000000e+000	-6.040362e-002	-2.655629e-001	-2.000000e+002	0.000000e+000	-2.000000e+002	0.000000e+000
5.571	-2.000000e+002	0.000000e+000	-6.043652e-002	-2.659611e-001	-2.000000e+002	0.000000e+000	-2.000000e+002	0.000000e+000
5.653	-2.000000e+002	0.000000e+000	-6.035657e-002	-2.670062e-001	-2.000000e+002	0.000000e+000	-2.000000e+002	0.000000e+000
5.735	-2.000000e+002	0.000000e+000	-6.042246e-002	-2.683412e-001	-2.000000e+002	0.000000e+000	-2.000000e+002	0.000000e+000
5.816	-2.000000e+002	0.000000e+000	-6.046884e-002	-2.699773e-001	-2.000000e+002	0.000000e+000	-2.000000e+002	0.000000e+000
5.898	-2.000000e+002	0.000000e+000	-6.057726e-002	-2.717808e-001	-2.000000e+002	0.000000e+000	-2.000000e+002	0.000000e+000
5.980	-2.000000e+002	0.000000e+000	-6.067884e-002	-2.731666e-001	-2.000000e+002	0.000000e+000	-2.000000e+002	0.000000e+000
6.061	-2.000000e+002	0.000000e+000	-6.050134e-002	-2.749952e-001	-2.000000e+002	0.000000e+000	-2.000000e+002	0.000000e+000
6.143	-2.000000e+002	0.000000e+000	-6.058111e-002	-2.769289e-001	-2.000000e+002	0.000000e+000	-2.000000e+002	0.000000e+000
6.225	-2.000000e+002	0.000000e+000	-6.070254e-002	-2.780813e-001	-2.000000e+002	0.000000e+000	-2.000000e+002	0.000000e+000
6.306	-2.000000e+002	0.000000e+000	-6.072176e-002	-2.795929e-001	-2.000000e+002	0.000000e+000	-2.000000e+002	0.000000e+000
6.388	-2.000000e+002	0.000000e+000	-6.062831e-002	-2.819000e-001	-2.000000e+002	0.000000e+000	-2.000000e+002	0.000000e+000
6.470	-2.000000e+002	0.000000e+000	-6.065369e-002	-2.832092e-001	-2.000000e+002	0.000000e+000	-2.000000e+002	0.000000e+000
6.551	-2.000000e+002	0.000000e+000	-6.067771e-002	-2.844795e-001	-2.000000e+002	0.000000e+000	-2.000000e+002	0.000000e+000
6.633	-2.000000e+002	0.000000e+000	-6.064264e-002	-2.868108e-001	-2.000000e+002	0.000000e+000	-2.000000e+002	0.000000e+000
6.714	-2.000000e+002	0.000000e+000	-6.062808e-002	-2.885779e-001	-2.000000e+002	0.000000e+000	-2.000000e+002	0.000000e+000
6.796	-2.000000e+002	0.000000e+000	-6.067074e-002	-2.907005e-001	-2.000000e+002	0.000000e+000	-2.000000e+002	0.000000e+000
6.892	-2.000000e+002	0.000000e+000	-6.064615e-002	-2.921376e-001	-2.000000e+002	0.000000e+000	-2.000000e+002	0.000000e+000
7.004	-2.000000e+002	0.000000e+000	-6.055654e-002	-2.952438e-001	-2.000000e+002	0.000000e+000	-2.000000e+002	0.000000e+000
7.117	-2.000000e+002	0.000000e+000	-6.053207e-002	-2.975364e-001	-2.000000e+002	0.000000e+000	-2.000000e+002	0.000000e+000
7.229	-2.000000e+002	0.000000e+000	-6.056143e-002	-3.003942e-001	-2.000000e+002	0.000000e+000	-2.000000e+002	0.000000e+000
7.342	-2.000000e+002	0.000000e+000	-6.056726e-002	-3.034357e-001	-2.000000e+002	0.000000e+000	-2.000000e+002	0.000000e+000
7.454	-2.000000e+002	0.000000e+000	-6.053250e-002	-3.056640e-001	-2.000000e+002	0.000000e+000	-2.000000e+002	0.000000e+000
7.567	-2.000000e+002	0.000000e+000	-6.047348e-002	-3.086869e-001	-2.000000e+002	0.000000e+000	-2.000000e+002	0.000000e+000
7.679	-2.000000e+002	0.000000e+000	-6.049839e-002	-3.115914e-001	-2.000000e+002	0.000000e+000	-2.000000e+002	0.000000e+000
7.792	-2.000000e+002	0.000000e+000	-6.049402e-002	-3.140162e-001	-2.000000e+002	0.000000e+000	-2.000000e+002	0.000000e+000
7.904	-2.000000e+002	0.000000e+000	-6.037659e-002	-3.167875e-001	-2.000000e+002	0.000000e+000	-2.000000e+002	0.000000e+000
8.017	-2.000000e+002	0.000000e+000	-6.031731e-002	-3.205757e-001	-2.000000e+002	0.000000e+000	-2.000000e+002	0.000000e+000
8.129	-2.000000e+002	0.000000e+000	-6.034657e-002	-3.227914e-001	-2.000000e+002	0.000000e+000	-2.000000e+002	0.000000e+000
8.242	-2.000000e+002	0.000000e+000	-6.027529e-002	-3.259676e-001	-2.000000e+002	0.000000e+000	-2.000000e+002	0.000000e+000
8.354	-2.000000e+002	0.000000e+000	-6.017694e-002	-3.292184e-001	-2.000000e+002	0.000000e+000	-2.000000e+002	0.000000e+000
8.467	-2.000000e+002	0.000000e+000	-6.007124e-002	-3.319296e-001	-2.000000e+002	0.000000e+000	-2.000000e+002	0.000000e+000
8.580	-2.000000e+002	0.000000e+000	-6.004295e-002	-3.346335e-001	-2.000000e+002	0.000000e+000	-2.000000e+002	0.000000e+000
8.692	-2.000000e+002	0.000000e+000	-5.994057e-002	-3.372335e-001	-2.000000e+002	0.000000e+000	-2.000000e+002	0.000000e+000
8.805	-2.000000e+002	0.000000e+000	-5.989539e-002	-3.404612e-001	-2.000000e+002	0.000000e+000	-2.000000e+002	0.000000e+000
8.917	-2.000000e+002	0.000000e+000	-5.987824e-002	-3.435887e-001	-2.000000e+002	0.000000e+000	-2.000000e+002	0.000000e+000
9.030	-2.000000e+002	0.000000e+000	-5.980066e-002	-3.465522e-001	-2.000000e+002	0.000000e+000	-2.000000e+002	0.000000e+000
9.142	-2.000000e+002	0.000000e+000	-5.973200e-002	-3.501940e-001	-2.000000e+002	0.000000e+000	-2.000000e+002	0.000000e+000
9.255	-2.000000e+002	0.000000e+000	-5.968072e-002	-3.530083e-001	-2.000000e+002	0.000000e+000	-2.000000e+002	0.000000e+000
9.367	-2.000000e+002	0.000000e+000	-5.959340e-002	-3.562577e-001	-2.000000e+002	0.000000e+000	-2.000000e+002	0.000000e+000
9.499	-2.000000e+002	0.000000e+000	-5.950260e-002	-3.600000e-001	-2.000000e+002	0.000000e+000	-2.000000e+002	0.000000e+000
9.654	-2.000000e+002	0.000000e+000	-5.951469e-002	-3.643490e-001	-2.000000e+002	0.000000e+000	-2.000000e+002	0.000000e+000
9.809	-2.000000e+002	0.000000e+000	-5.941790e-002	-3.684954e-001	-2.000000e+002	0.000000e+000	-2.000000e+002	0.000000e+000
9.964	-2.000000e+002	0.000000e+000	-5.935570e-002	-3.730771e-001	-2.000000e+002	0.000000e+000	-2.000000e+002	0.000000e+000
10.119	-2.000000e+002	0.000000e+000	-5.930075e-002	-3.761325e-001	-2.000000e+002	0.000000e+000	-2.000000e+002	0.000000e+000
10.274	-2.000000e+002	0.000000e+000	-5.935054e-002	-3.793613e-001	-2.000000e+002	0.000000e+000	-2.000000e+002	0.000000e+000
10.429	-2.000000e+002	0.000000e+000	-5.945240e-002	-3.819770e-001	-2.000000e+002	0.000000e+000	-2.000000e+002	0.000000e+000
10.585	-2.000000e+002	0.000000e+000	-5.944307e-002	-3.850478e-001	-2.000000e+002	0.000000e+000	-2.000000e+002	0.000000e+000
10.740	-2.000000e+002	0.000000e+000	-5.955977e-002	-3.883592e-001	-2.000000e+002	0.000000e+000	-2.000000e+002	0.000000e+000
10.895	-2.000000e+002	0.000000e+000	-5.953380e-002	-3.912472e-001	-2.000000e+002	0.000000e+000	-2.000000e+002	0.000000e+000
11.050	-2.000000e+002	0.000000e+000	-5.954652e-002	-3.943236e-001	-2.000000e+002	0.000000e+000	-2.000000e+002	0.000000e+000
11.205	-2.000000e+002	0.000000e+000	-5.960574e-002	-3.968906e-001	-2.000000e+002	0.000000e+000	-2.000000e+002	0.000000e+000
11.360	-2.000000e+002	0.000000e+000	-5.958961e-002	-4.002720e-001	-2.000000e+002	0.000000e+000	-2.000000e+002	0.000000e+000
11.515	-2.000000e+002	0.000000e+000	-5.959659e-002	-4.031863e-001	-2.000000e+002	0.000000e+000	-2.000000e+002	0.000000e+000
11.670	-2.000000e+002	0.000000e+000	-5.955020e-002	-4.064945e-001	-2.000000e+002	0.000000e+000	-2.000000e+002	0.000000e+000
11.825	-2.000000e+002	0.000000e+000	-5.956824e-002	-4.094434e-001	-2.000000e+002	0.000000e+000	-2.000000e+002	0.000000e+000
11.980	-2.000000e+002	0.000000e+000	-5.969812e-002	-4.125793e-001	-2.000000e+002	0.000000e+000	-2.000000e+002	0.000000e+000
12.136	-2.000000e+002	0.000000e+000	-5.973964e-002	-4.155780e-001	-2.000000e+002	0.000000e+000	-2.000000e+002	0.000000e+000
12.291	-2.000000e+002	0.000000e+000	-5.971837e-002	-4.187977e-001	-2.000000e+002	0.000000e+000	-2.000000e+002	0.000000e+000
12.446	-2.000000e+002	0.000000e+000	-5.962125e-002	-4.224203e-001	-2.000000e+002	0.000000e+000	-2.000000e+002	0.000000e+000
12.601	-2.000000e+002	0.000000e+000	-5.956505e-002	-4.256307e-001	-2.000000e+002	0.000000e+000	-2.000000e+002	0.000000e+000
12.756	-2.000000e+002	0.000000e+000	-5.962111e-002	-4.284705e-001	-2.000000e+002	0.000000e+000	-2.000000e+002	0.000000e+000
12.911	-2.000000e+002	0.000000e+000	-5.967881e-002	-4.315865e-001	-2.000000e+002	0.000000e+000	-2.000000e+002	0.000000e+000
13.092	-2.000000e+002	0.000000e+000	-5.971134e-002	-4.355320e-001	-2.000000e+002	0.000000e+000	-2.000000e+002	0.000000e+000
13.308	-2.000000e+002	0.000000e+000	-5.966555e-002	-4.398891e-001	-2.000000e+002	0.000000e+000	-2.000000e+002	0.000000e+000
13.523	-2.000000e+002	0.000000e+000	-5.978350e-002	-4.453788e-001	-2.000000e+002	0.000000e+000	-2.000000e+002	0.000000e+000
13.738	-2.000000e+002	0.000000e+000	-5.983128e-002	-4.493830e-001	-2.000000e+002	0.000000e+000	-2.000000e+002	0.000000e+000
13.954	-2.000000e+002	0.000000e+000	-5.978874e-002	-4.536772e-001	-2.000000e+002	0.000000e+000	-2.000000e+002	0.000000e+000
14.169	-2.000000e+002	0.000000e+000	-5.985920e-002	-4.581858e-001	-2.000000e+002	0.000000e+000	-2.000000e+002	0.000000e+000
14.385	-2.000000e+002	0.000000e+000	-5.987790e-002	-4.627602e-001	-2.000000e+002	0.000000e+000	-2.000000e+002	0.000000e+000
14.600	-2.000000e+002	0.000000e+000	-5.988961e-002	-4.675470e-001	-2.000000e+002	0.000000e+000	-2.000000e+002	0.000000e+000
14.815	-2.000000e+002	0.000000e+000	-5.993323e-002	-4.722360e-001	-2.000000e+002	0.000000e+000	-2.000000e+002	0.000000e+000
15.031	-2.000000e+002	0.000000e+000	-6.000525e-002	-4.769379e-001	-2.000000e+002	0.000000e+000	-2.000000e+002	0.000000e+000
15.246	-2.000000e+002	0.000000e+000	-6.001574e-002	-4.816300e-001	-2.000000e+002	0.000000e+000	-2.000000e+002	0.000000e+000
15.461	-2.000000e+002	0.000000e+000	-6.001983e-002	-4.859423e-001	-2.000000e+002	0.000000e+000	-2.000000e+002	0.000000e+000
15.677	-2.000000e+002	0.000000e+000	-5.999843e-002	-4.907335e-001	-2.000000e+002	0.000000e+000	-2.000000e+002	0.000000e+000
15.892	-2.000000e+002	0.000000e+000	-6.001414e-002	-4.955390e-001	-2.000000e+002	0.000000e+000	-2.000000e+002	0.000000e+000
16.107	-2.000000e+002	0.000000e+000	-6.009328e-002	-5.002262e-001	-2.000000e+002	0.000000e+000	-2.000000e+002	0.000000e+000
16.323	-2.000000e+002	0.000000e+000	-6.003694e-002	-5.045134e-001	-2.000000e+002	0.000000e+000	-2.000000e+002	0.000000e+000
16.538	-2.000000e+002	0.000000e+000	-6.000978e-002	-5.097722e-001	-2.000000e+002	0.000000e+000	-2.000000e+002	0.000000e+000
16.753	-2.000000e+002	0.000000e+000	-6.008133e-002	-5.147591e-001	-2.000000e+002	0.000000e+000	-2.000000e+002	0.000000e+000
16.969	-2.000000e+002	0.000000e+000	-6.002127e-002	-5.193243e-001	-2.000000e+002	0.000000e+000	-2.000000e+002	0.000000e+000
17.184	-2.000000e+002	0.000000e+000	-6.006901e-002	-5.238278e-001	-2.000000e+002	0.000000e+000	-2.000000e+002	0.000000e+000
17.399	-2.000000e+002	0.000000e+000	-6.004958e-002	-5.289001e-001	-2.000000e+002	0.000000e+000	-2.000000e+002	0.000000e+000
17.615	-2.000000e+002	0.000000e+000	-6.005233e-002	-5.337595e-001	-2.000000e+002	0.000000e+000	-2.000000e+002	0.000000e+000
17.830	-2.000000e+002	0.000000e+000	-6.002529e-002	-5.386493e-001	-2.000000e+002	0.000000e+000	-2.000000e+002	0.000000e+000
18.045	-2.000000e+002	0.000000e+000	-6.002932e-002	-5.432954e-001	-2.000000e+002	0.000000e+000	-2.000000e+002	0.000000e+000
18.299	-2.000000e+002	0.000000e+000	-6.023213e-002	-5.486872e-001	-2.000000e+002	0.000000e+000	-2.000000e+002	0.000000e+000
18.598	-2.000000e+002	0.000000e+000	-6.010905e-002	-5.557894e-001	-2.000000e+002	0.000000e+000	-2.000000e+002	0.000000e+000
18.897	-2.000000e+002	0.000000e+000	-6.019354e-002	-5.623829e-001	-2.000000e+002	0.000000e+000	-2.000000e+002	0.000000e+000
19.195	-2.000000e+002	0.000000e+000	-6.014753e-002	-5.690325e-001	-2.000000e+002	0.000000e+000	-2.000000e+002	0.000000e+000
19.494	-2.000000e+002	0.000000e+000	-6.029090e-002	-5.756327e-001	-2.000000e+002	0.000000e+000	-2.000000e+002	0.000000e+000
19.793	-2.000000e+002	0.000000e+000	-6.021783e-002	-5.825480e-001	-2.000000e+002	0.000000e+000	-2.000000e+002	0.000000e+000
20.092	-2.000000e+002	0.000000e+000	-6.024739e-002	-5.898046e-001	-2.000000e+002	0.000000e+000	-2.000000e+002	0.000000e+000
20.391	-2.000000e+002	0.000000e+000	-6.026015e-002	-5.965235e-001	-2.000000e+002	0.000000e+000	-2.000000e+002	0.000000e+000
20.689	-2.000000e+002	0.000000e+000	-6.032423e-002	-6.034054e-001	-2.000000e+002	0.000000e+000	-2.000000e+002	0.000000e+000
20.988	-2.000000e+002	0.000000e+000	-6.034947e-002	-6.097678e-001	-2.000000e+002	0.000000e+000	-2.000000e+002	0.000000e+000
21.287	-2.000000e+002	0.000000e+000	-6.041999e-002	-6.166459e-001	-2.000000e+002	0.000000e+000	-2.000000e+002	0.000000e+000
21.586	-2.000000e+002	0.000000e+000	-6.038022e-002	-6.238803e-001	-2.000000e+002	0.000000e+000	-2.000000e+002	0.000000e+000
21.885	-2.000000e+002	0.000000e+000	-6.037295e-002	-6.311393e-001	-2.000000e+002	0.000000e+000	-2.000000e+002	0.000000e+000
22.183	-2.000000e+002	0.000000e+000	-6.044285e-002	-6.377687e-001	-2.000000e+002	0.000000e+000	-2.000000e+002	0.000000e+000
22.482	-2.000000e+002	0.000000e+000	-6.036872e-002	-6.444285e-001	-2.000000e+002	0.000000e+000	-2.000000e+002	0.000000e+000
22.781	-2.000000e+002	0.000000e+000	-6.049678e-002	-6.513458e-001	-2.000000e+002	0.000000e+000	-2.000000e+002	0.000000e+000
23.080	-2.000000e+002	0.000000e+000	-6.045976e-002	-6.581223e-001	-2.000000e+002	0.000000e+000	-2.000000e+002	0.000000e+000
23.378	-2.000000e+002	0.000000e+000	-6.050801e-002	-6.652191e-001	-2.000000e+002	0.000000e+000	-2.000000e+002	0.000000e+000
23.677	-2.000000e+002	0.000000e+000	-6.046289e-002	-6.721913e-001	-2.000000e+002	0.000000e+000	-2.000000e+002	0.000000e+000
23.976	-2.000000e+002	0.000000e+000	-6.055907e-002	-6.788013e-001	-2.000000e+002	0.000000e+000	-2.000000e+002	0.000000e+000
24.275	-2.000000e+002	0.000000e+000	-6.057243e-002	-6.860903e-001	-2.000000e+002	0.000000e+000	-2.000000e+002	0.000000e+000
24.574	-2.000000e+002	0.000000e+000	-6.058920e-002	-6.930189e-001	-2.000000e+002	0.000000e+000	-2.000000e+002	0.000000e+000
24.872	-2.000000e+002	0.000000e+000	-6.059345e-002	-6.999004e-001	-2.000000e+002	0.000000e+000	-2.000000e+002	0.000000e+000
25.222	-2.000000e+002	0.000000e+000	-6.075455e-002	-7.081506e-001	-2.000000e+002	0.000000e+000	-2.000000e+002	0.000000e+000
25.634	-2.000000e+002	0.000000e+000	-6.058433e-002	-7.177085e-001	-2.000000e+002	0.000000e+000	-2.000000e+002	0.000000e+000
26.046	-2.000000e+002	0.000000e+000	-6.068150e-002	-7.272504e-001	-2.000000e+002	0.000000e+000	-2.000000e+002	0.000000e+000
26.457	-2.000000e+002	0.000000e+000	-6.075069e-002	-7.365498e-001	-2.000000e+002	0.000000e+000	-2.000000e+002	0.000000e+000
26.869	-2.000000e+002	0.000000e+000	-6.075274e-002	-7.466547e-001	-2.000000e+002	0.000000e+000	-2.000000e+002	0.000000e+000
27.281	-2.000000e+002	0.000000e+000	-6.083916e-002	-7.561104e-001	-2.000000e+002	0.000000e+000	-2.000000e+002	0.000000e+000
27.693	-2.000000e+002	0.000000e+000	-6.074161e-002	-7.657324e-001	-2.000000e+002	0.000000e+000	-2.000000e+002	0.000000e+000
28.105	-2.000000e+002	0.000000e+000	-6.083324e-002	-7.760086e-001	-2.000000e+002	0.000000e+000	-2.000000e+002	0.000000e+000
28.517	-2.000000e+002	0.000000e+000	-6.093577e-002	-7.846422e-001	-2.000000e+002	0.000000e+000	-2.000000e+002	0.000000e+000
28.928	-2.000000e+002	0.000000e+000	-6.095715e-002	-7.944771e-001	-2.000000e+002	0.000000e+000	-2.000000e+002	0.000000e+000
29.340	-2.000000e+002	0.000000e+000	-6.094560e-002	-8.043991e-001	-2.000000e+002	0.000000e+000	-2.000000e+002	0.000000e+000
29.752	-2.000000e+002	0.000000e+000	-6.091254e-002	-8.143409e-001	-2.000000e+002	0.000000e+000	-2.000000e+002	0.000000e+000
30.164	-2.000000e+002	0.000000e+000	-6.102233e-002	-8.231526e-001	-2.000000e+002	0.000000e+000	-2.000000e+002	0.000000e+000
30.576	-2.000000e+002	0.000000e+000	-6.103313e-002	-8.321687e-001	-2.000000e+002	0.000000e+000	-2.000000e+002	0.000000e+000
30.988	-2.000000e+002	0.000000e+000	-6.116363e-002	-8.414828e-001	-2.000000e+002	0.000000e+000	-2.000000e+002	0.000000e+000
31.399	-2.000000e+002	0.000000e+000	-6.117568e-002	-8.501316e-001	-2.000000e+002	0.000000e+000	-2.000000e+002	0.000000e+000
31.811	-2.000000e+002	0.000000e+000	-6.120819e-002	-8.595040e-001	-2.000000e+002	0.000000e+000	-2.000000e+002	0.000000e+000
32.223	-2.000000e+002	0.000000e+000	-6.121596e-002	-8.679753e-001	-2.000000e+002	0.000000e+000	-2.000000e+002	0.000000e+000
32.635	-2.000000e+002	0.000000e+000	-6.128658e-002	-8.769615e-001	-2.000000e+002	0.000000e+000	-2.000000e+002	0.000000e+000
33.047	-2.000000e+002	0.000000e+000	-6.128995e-002	-8.860223e-001	-2.000000e+002	0.000000e+000	-2.000000e+002	0.000000e+000
33.458	-2.000000e+002	0.000000e+000	-6.142192e-002	-8.956825e-001	-2.000000e+002	0.000000e+000	-2.000000e+002	0.000000e+000
33.870	-2.000000e+002	0.000000e+000	-6.154837e-002	-9.040047e-001	-2.000000e+002	0.000000e+000	-2.000000e+002	0.000000e+000
34.282	-2.000000e+002	0.000000e+000	-6.160466e-002	-9.127941e-001	-2.000000e+002	0.000000e+000	-2.000000e+002	0.000000e+000
34.764	-2.000000e+002	0.000000e+000	-6.150592e-002	-9.223504e-001	-2.000000e+002	0.000000e+000	-2.000000e+002	0.000000e+000
35.331	-2.000000e+002	0.000000e+000	-6.162475e-002	-9.354089e-001	-2.000000e+002	0.000000e+000	-2.000000e+002	0.000000e+000
35.899	-2.000000e+002	0.000000e+000	-6.171260e-002	-9.482027e-001	-2.000000e+002	0.000000e+000	-2.000000e+002	0.000000e+000
36.467	-2.000000e+002	0.000000e+000	-6.178728e-002	-9.601138e-001	-2.000000e+002	0.000000e+000	-2.000000e+002	0.000000e+000
37.034	-2.000000e+002	0.000000e+000	-6.195233e-002	-9.726246e-001	-2.000000e+002	0.000000e+000	-2.000000e+002	0.000000e+000
37.602	-2.000000e+002	0.000000e+000	-6.194286e-002	-9.846596e-001	-2.000000e+002	0.000000e+000	-2.000000e+002	0.000000e+000
38.170	-2.000000e+002	0.000000e+000	-6.195282e-002	-9.967142e-001	-2.000000e+002	0.000000e+000	-2.000000e+002	0.000000e+000
38.737	-2.000000e+002	0.000000e+000	-6.213570e-002	-1.008738e+000	-2.000000e+002	0.000000e+000	-2.000000e+002	0.000000e+000
39.305	-2.000000e+002	0.000000e+000	-6.230748e-002	-1.021493e+000	-2.000000e+002	0.000000e+000	-2.000000e+002	0.000000e+000
39.872	-2.000000e+002	0.000000e+000	-6.237523e-002	-1.034104e+000	-2.000000e+002	0.000000e+000	-2.000000e+002	0.000000e+000
40.440	-2.000000e+002	0.000000e+000	-6.240110e-002	-1.046406e+000	-2.000000e+002	0.000000e+000	-2.000000e+002	0.000000e+000
41.008	-2.000000e+002	0.000000e+000	-6.249558e-002	-1.059826e+000	-2.000000e+002	0.000000e+000	-2.000000e+002	0.000000e+000
41.575	-2.000000e+002	0.000000e+000	-6.256725e-002	-1.071588e+000	-2.000000e+002	0.000000e+000	-2.000000e+002	0.000000e+000
42.143	-2.000000e+002	0.000000e+000	-6.264253e-002	-1.084183e+000	-2.000000e+002	0.000000e+000	-2.000000e+002	0.000000e+000
42.711	-2.000000e+002	0.000000e+000	-6.275907e-002	-1.095833e+000	-2.000000e+002	0.000000e+000	-2.000000e+002	0.000000e+000
43.278	-2.000000e+002	0.000000e+000	-6.270641e-002	-1.108893e+000	-2.000000e+002	0.000000e+000	-2.000000e+002	0.000000e+000
43.846	-2.000000e+002	0.000000e+000	-6.295237e-002	-1.120445e+000	-2.000000e+002	0.000000e+000	-2.000000e+002	0.000000e+000
44.414	-2.000000e+002	0.000000e+000	-6.293136e-002	-1.133048e+000	-2.000000e+002	0.000000e+000	-2.000000e+002	0.000000e+000
44.981	-2.000000e+002	0.000000e+000	-6.296533e-002	-1.145669e+000	-2.000000e+002	0.000000e+000	-2.000000e+002	0.000000e+000
