!Agilent Technologies,E5061B,MY49204007,A.02.12
!Date: Fri Sep 12 09:38:00 2025
!Data & Calibration Information:
!Freq	S11:SOLT2(OFF)	S21:SOLT2(OFF)	S12:SOLT2(OFF)	S22:SOLT2(OFF)
# Hz S dB R 50
5.000	-2.000000e+002	0.000000e+000	-4.747633e-002	-2.827627e-001	-2.000000e+002	0.000000e+000	-2.000000e+002	0.000000e+000
5.082	-2.000000e+002	0.000000e+000	-4.764098e-002	-2.838565e-001	-2.000000e+002	0.000000e+000	-2.000000e+002	0.000000e+000
5.163	-2.000000e+002	0.000000e+000	-4.765028e-002	-2.845108e-001	-2.000000e+002	0.000000e+000	-2.000000e+002	0.000000e+000
5.245	-2.000000e+002	0.000000e+000	-4.776712e-002	-2.854363e-001	-2.000000e+002	0.000000e+000	-2.000000e+002	0.000000e+000
5.327	-2.000000e+002	0.000000e+000	-4.780451e-002	-2.867265e-001	-2.000000e+002	0.000000e+000	-2.000000e+002	0.000000e+000
5.408	-2.000000e+002	0.000000e+000	-4.809624e-002	-2.882388e-001	-2.000000e+002	0.000000e+000	-2.000000e+002	0.000000e+000
5.490	-2.000000e+002	0.000000e+000	-4.815360e-002	-2.907583e-001	-2.000000e+002	0.000000e+000	-2.000000e+002	0.000000e+000
5.571	-2.000000e+002	0.000000e+000	-4.822832e-002	-2.906584e-001	-2.000000e+002	0.000000e+000	-2.000000e+002	0.000000e+000
5.653	-2.000000e+002	0.000000e+000	-4.820048e-002	-2.914564e-001	-2.000000e+002	0.000000e+000	-2.000000e+002	0.000000e+000
5.735	-2.000000e+002	0.000000e+000	-4.824284e-002	-2.929899e-001	-2.000000e+002	0.000000e+000	-2.000000e+002	0.000000e+000
5.816	-2.000000e+002	0.000000e+000	-4.830530e-002	-2.940346e-001	-2.000000e+002	0.000000e+000	-2.000000e+002	0.000000e+000
5.898	-2.000000e+002	0.000000e+000	-4.842598e-002	-2.956458e-001	-2.000000e+002	0.000000e+000	-2.000000e+002	0.000000e+000
5.980	-2.000000e+002	0.000000e+000	-4.857311e-002	-2.973515e-001	-2.000000e+002	0.000000e+000	-2.000000e+002	0.000000e+000
6.061	-2.000000e+002	0.000000e+000	-4.848153e-002	-2.984676e-001	-2.000000e+002	0.000000e+000	-2.000000e+002	0.000000e+000
6.143	-2.000000e+002	0.000000e+000	-4.856978e-002	-3.007860e-001	-2.000000e+002	0.000000e+000	-2.000000e+002	0.000000e+000
6.225	-2.000000e+002	0.000000e+000	-4.866259e-002	-3.019754e-001	-2.000000e+002	0.000000e+000	-2.000000e+002	0.000000e+000
6.306	-2.000000e+002	0.000000e+000	-4.871301e-002	-3.033619e-001	-2.000000e+002	0.000000e+000	-2.000000e+002	0.000000e+000
6.388	-2.000000e+002	0.000000e+000	-4.865164e-002	-3.052348e-001	-2.000000e+002	0.000000e+000	-2.000000e+002	0.000000e+000
6.470	-2.000000e+002	0.000000e+000	-4.864239e-002	-3.067826e-001	-2.000000e+002	0.000000e+000	-2.000000e+002	0.000000e+000
6.551	-2.000000e+002	0.000000e+000	-4.869416e-002	-3.083185e-001	-2.000000e+002	0.000000e+000	-2.000000e+002	0.000000e+000
6.633	-2.000000e+002	0.000000e+000	-4.854349e-002	-3.099224e-001	-2.000000e+002	0.000000e+000	-2.000000e+002	0.000000e+000
6.714	-2.000000e+002	0.000000e+000	-4.861308e-002	-3.123995e-001	-2.000000e+002	0.000000e+000	-2.000000e+002	0.000000e+000
6.796	-2.000000e+002	0.000000e+000	-4.864464e-002	-3.141823e-001	-2.000000e+002	0.000000e+000	-2.000000e+002	0.000000e+000
6.892	-2.000000e+002	0.000000e+000	-4.863444e-002	-3.154961e-001	-2.000000e+002	0.000000e+000	-2.000000e+002	0.000000e+000
7.004	-2.000000e+002	0.000000e+000	-4.855959e-002	-3.184382e-001	-2.000000e+002	0.000000e+000	-2.000000e+002	0.000000e+000
7.117	-2.000000e+002	0.000000e+000	-4.852380e-002	-3.207524e-001	-2.000000e+002	0.000000e+000	-2.000000e+002	0.000000e+000
7.229	-2.000000e+002	0.000000e+000	-4.856209e-002	-3.232254e-001	-2.000000e+002	0.000000e+000	-2.000000e+002	0.000000e+000
7.342	-2.000000e+002	0.000000e+000	-4.860958e-002	-3.264714e-001	-2.000000e+002	0.000000e+000	-2.000000e+002	0.000000e+000
7.454	-2.000000e+002	0.000000e+000	-4.853100e-002	-3.287400e-001	-2.000000e+002	0.000000e+000	-2.000000e+002	0.000000e+000
7.567	-2.000000e+002	0.000000e+000	-4.850040e-002	-3.313602e-001	-2.000000e+002	0.000000e+000	-2.000000e+002	0.000000e+000
7.679	-2.000000e+002	0.000000e+000	-4.849229e-002	-3.345450e-001	-2.000000e+002	0.000000e+000	-2.000000e+002	0.000000e+000
7.792	-2.000000e+002	0.000000e+000	-4.856060e-002	-3.369021e-001	-2.000000e+002	0.000000e+000	-2.000000e+002	0.000000e+000
7.904	-2.000000e+002	0.000000e+000	-4.861096e-002	-3.400779e-001	-2.000000e+002	0.000000e+000	-2.000000e+002	0.000000e+000
8.017	-2.000000e+002	0.000000e+000	-4.852564e-002	-3.432755e-001	-2.000000e+002	0.000000e+000	-2.000000e+002	0.000000e+000
8.129	-2.000000e+002	0.000000e+000	-4.839917e-002	-3.455769e-001	-2.000000e+002	0.000000e+000	-2.000000e+002	0.000000e+000
8.242	-2.000000e+002	0.000000e+000	-4.843741e-002	-3.483827e-001	-2.000000e+002	0.000000e+000	-2.000000e+002	0.000000e+000
8.354	-2.000000e+002	0.000000e+000	-4.835071e-002	-3.514004e-001	-2.000000e+002	0.000000e+000	-2.000000e+002	0.000000e+000
8.467	-2.000000e+002	0.000000e+000	-4.824968e-002	-3.544895e-001	-2.000000e+002	0.000000e+000	-2.000000e+002	0.000000e+000
8.580	-2.000000e+002	0.000000e+000	-4.826266e-002	-3.570325e-001	-2.000000e+002	0.000000e+000	-2.000000e+002	0.000000e+000
8.692	-2.000000e+002	0.000000e+000	-4.824239e-002	-3.600200e-001	-2.000000e+002	0.000000e+000	-2.000000e+002	0.000000e+000
8.805	-2.000000e+002	0.000000e+000	-4.811921e-002	-3.628778e-001	-2.000000e+002	0.000000e+000	-2.000000e+002	0.000000e+000
8.917	-2.000000e+002	0.000000e+000	-4.801737e-002	-3.657752e-001	-2.000000e+002	0.000000e+000	-2.000000e+002	0.000000e+000
9.030	-2.000000e+002	0.000000e+000	-4.803765e-002	-3.692774e-001	-2.000000e+002	0.000000e+000	-2.000000e+002	0.000000e+000
9.142	-2.000000e+002	0.000000e+000	-4.798662e-002	-3.726590e-001	-2.000000e+002	0.000000e+000	-2.000000e+002	0.000000e+000
9.255	-2.000000e+002	0.000000e+000	-4.792261e-002	-3.754858e-001	-2.000000e+002	0.000000e+000	-2.000000e+002	0.000000e+000
9.367	-2.000000e+002	0.000000e+000	-4.790688e-002	-3.780353e-001	-2.000000e+002	0.000000e+000	-2.000000e+002	0.000000e+000
9.499	-2.000000e+002	0.000000e+000	-4.777997e-002	-3.818281e-001	-2.000000e+002	0.000000e+000	-2.000000e+002	0.000000e+000
9.654	-2.000000e+002	0.000000e+000	-4.782447e-002	-3.861750e-001	-2.000000e+002	0.000000e+000	-2.000000e+002	0.000000e+000
9.809	-2.000000e+002	0.000000e+000	-4.759697e-002	-3.905969e-001	-2.000000e+002	0.000000e+000	-2.000000e+002	0.000000e+000
9.964	-2.000000e+002	0.000000e+000	-4.761072e-002	-3.950872e-001	-2.000000e+002	0.000000e+000	-2.000000e+002	0.000000e+000
10.119	-2.000000e+002	0.000000e+000	-4.760653e-002	-3.984866e-001	-2.000000e+002	0.000000e+000	-2.000000e+002	0.000000e+000
10.274	-2.000000e+002	0.000000e+000	-4.764144e-002	-4.012007e-001	-2.000000e+002	0.000000e+000	-2.000000e+002	0.000000e+000
10.429	-2.000000e+002	0.000000e+000	-4.771161e-002	-4.041426e-001	-2.000000e+002	0.000000e+000	-2.000000e+002	0.000000e+000
10.585	-2.000000e+002	0.000000e+000	-4.767454e-002	-4.071709e-001	-2.000000e+002	0.000000e+000	-2.000000e+002	0.000000e+000
10.740	-2.000000e+002	0.000000e+000	-4.777785e-002	-4.098080e-001	-2.000000e+002	0.000000e+000	-2.000000e+002	0.000000e+000
10.895	-2.000000e+002	0.000000e+000	-4.780644e-002	-4.131519e-001	-2.000000e+002	0.000000e+000	-2.000000e+002	0.000000e+000
11.050	-2.000000e+002	0.000000e+000	-4.780639e-002	-4.157150e-001	-2.000000e+002	0.000000e+000	-2.000000e+002	0.000000e+000
11.205	-2.000000e+002	0.000000e+000	-4.785694e-002	-4.186072e-001	-2.000000e+002	0.000000e+000	-2.000000e+002	0.000000e+000
11.360	-2.000000e+002	0.000000e+000	-4.793070e-002	-4.226452e-001	-2.000000e+002	0.000000e+000	-2.000000e+002	0.000000e+000
11.515	-2.000000e+002	0.000000e+000	-4.801530e-002	-4.251237e-001	-2.000000e+002	0.000000e+000	-2.000000e+002	0.000000e+000
11.670	-2.000000e+002	0.000000e+000	-4.799923e-002	-4.283619e-001	-2.000000e+002	0.000000e+000	-2.000000e+002	0.000000e+000
11.825	-2.000000e+002	0.000000e+000	-4.801573e-002	-4.315603e-001	-2.000000e+002	0.000000e+000	-2.000000e+002	0.000000e+000
11.980	-2.000000e+002	0.000000e+000	-4.808782e-002	-4.344362e-001	-2.000000e+002	0.000000e+000	-2.000000e+002	0.000000e+000
12.136	-2.000000e+002	0.000000e+000	-4.806110e-002	-4.377986e-001	-2.000000e+002	0.000000e+000	-2.000000e+002	0.000000e+000
12.291	-2.000000e+002	0.000000e+000	-4.815945e-002	-4.408464e-001	-2.000000e+002	0.000000e+000	-2.000000e+002	0.000000e+000
12.446	-2.000000e+002	0.000000e+000	-4.808872e-002	-4.442953e-001	-2.000000e+002	0.000000e+000	-2.000000e+002	0.000000e+000
12.601	-2.000000e+002	0.000000e+000	-4.810447e-002	-4.472632e-001	-2.000000e+002	0.000000e+000	-2.000000e+002	0.000000e+000
12.756	-2.000000e+002	0.000000e+000	-4.817143e-002	-4.501914e-001	-2.000000e+002	0.000000e+000	-2.000000e+002	0.000000e+000
12.911	-2.000000e+002	0.000000e+000	-4.819546e-002	-4.536231e-001	-2.000000e+002	0.000000e+000	-2.000000e+002	0.000000e+000
13.092	-2.000000e+002	0.000000e+000	-4.827880e-002	-4.571518e-001	-2.000000e+002	0.000000e+000	-2.000000e+002	0.000000e+000
13.308	-2.000000e+002	0.000000e+000	-4.829467e-002	-4.615933e-001	-2.000000e+002	0.000000e+000	-2.000000e+002	0.000000e+000
13.523	-2.000000e+002	0.000000e+000	-4.839026e-002	-4.665461e-001	-2.000000e+002	0.000000e+000	-2.000000e+002	0.000000e+000
13.738	-2.000000e+002	0.000000e+000	-4.845090e-002	-4.710971e-001	-2.000000e+002	0.000000e+000	-2.000000e+002	0.000000e+000
13.954	-2.000000e+002	0.000000e+000	-4.844991e-002	-4.752410e-001	-2.000000e+002	0.000000e+000	-2.000000e+002	0.000000e+000
14.169	-2.000000e+002	0.000000e+000	-4.852568e-002	-4.794626e-001	-2.000000e+002	0.000000e+000	-2.000000e+002	0.000000e+000
14.385	-2.000000e+002	0.000000e+000	-4.845113e-002	-4.846630e-001	-2.000000e+002	0.000000e+000	-2.000000e+002	0.000000e+000
14.600	-2.000000e+002	0.000000e+000	-4.852024e-002	-4.890720e-001	-2.000000e+002	0.000000e+000	-2.000000e+002	0.000000e+000
14.815	-2.000000e+002	0.000000e+000	-4.850750e-002	-4.932695e-001	-2.000000e+002	0.000000e+000	-2.000000e+002	0.000000e+000
15.031	-2.000000e+002	0.000000e+000	-4.865575e-002	-4.979041e-001	-2.000000e+002	0.000000e+000	-2.000000e+002	0.000000e+000
15.246	-2.000000e+002	0.000000e+000	-4.861911e-002	-5.028860e-001	-2.000000e+002	0.000000e+000	-2.000000e+002	0.000000e+000
15.461	-2.000000e+002	0.000000e+000	-4.865713e-002	-5.073920e-001	-2.000000e+002	0.000000e+000	-2.000000e+002	0.000000e+000
15.677	-2.000000e+002	0.000000e+000	-4.862786e-002	-5.118586e-001	-2.000000e+002	0.000000e+000	-2.000000e+002	0.000000e+000
15.892	-2.000000e+002	0.000000e+000	-4.869459e-002	-5.164339e-001	-2.000000e+002	0.000000e+000	-2.000000e+002	0.000000e+000
16.107	-2.000000e+002	0.000000e+000	-4.875522e-002	-5.211157e-001	-2.000000e+002	0.000000e+000	-2.000000e+002	0.000000e+000
16.323	-2.000000e+002	0.000000e+000	-4.865256e-002	-5.262406e-001	-2.000000e+002	0.000000e+000	-2.000000e+002	0.000000e+000
16.538	-2.000000e+002	0.000000e+000	-4.871648e-002	-5.313524e-001	-2.000000e+002	0.000000e+000	-2.000000e+002	0.000000e+000
16.753	-2.000000e+002	0.000000e+000	-4.872474e-002	-5.360061e-001	-2.000000e+002	0.000000e+000	-2.000000e+002	0.000000e+000
16.969	-2.000000e+002	0.000000e+000	-4.867419e-002	-5.408107e-001	-2.000000e+002	0.000000e+000	-2.000000e+002	0.000000e+000
17.184	-2.000000e+002	0.000000e+000	-4.873208e-002	-5.450888e-001	-2.000000e+002	0.000000e+000	-2.000000e+002	0.000000e+000
17.399	-2.000000e+002	0.000000e+000	-4.878050e-002	-5.498417e-001	-2.000000e+002	0.000000e+000	-2.000000e+002	0.000000e+000
17.615	-2.000000e+002	0.000000e+000	-4.882700e-002	-5.543716e-001	-2.000000e+002	0.000000e+000	-2.000000e+002	0.000000e+000
17.830	-2.000000e+002	0.000000e+000	-4.882713e-002	-5.595486e-001	-2.000000e+002	0.000000e+000	-2.000000e+002	0.000000e+000
18.045	-2.000000e+002	0.000000e+000	-4.883908e-002	-5.641877e-001	-2.000000e+002	0.000000e+000	-2.000000e+002	0.000000e+000
18.299	-2.000000e+002	0.000000e+000	-4.893136e-002	-5.700993e-001	-2.000000e+002	0.000000e+000	-2.000000e+002	0.000000e+000
18.598	-2.000000e+002	0.000000e+000	-4.889519e-002	-5.762996e-001	-2.000000e+002	0.000000e+000	-2.000000e+002	0.000000e+000
18.897	-2.000000e+002	0.000000e+000	-4.888509e-002	-5.831083e-001	-2.000000e+002	0.000000e+000	-2.000000e+002	0.000000e+000
19.195	-2.000000e+002	0.000000e+000	-4.900147e-002	-5.895047e-001	-2.000000e+002	0.000000e+000	-2.000000e+002	0.000000e+000
19.494	-2.000000e+002	0.000000e+000	-4.906887e-002	-5.963735e-001	-2.000000e+002	0.000000e+000	-2.000000e+002	0.000000e+000
19.793	-2.000000e+002	0.000000e+000	-4.904126e-002	-6.032216e-001	-2.000000e+002	0.000000e+000	-2.000000e+002	0.000000e+000
20.092	-2.000000e+002	0.000000e+000	-4.911165e-002	-6.101454e-001	-2.000000e+002	0.000000e+000	-2.000000e+002	0.000000e+000
20.391	-2.000000e+002	0.000000e+000	-4.909113e-002	-6.165883e-001	-2.000000e+002	0.000000e+000	-2.000000e+002	0.000000e+000
20.689	-2.000000e+002	0.000000e+000	-4.914245e-002	-6.233973e-001	-2.000000e+002	0.000000e+000	-2.000000e+002	0.000000e+000
20.988	-2.000000e+002	0.000000e+000	-4.906913e-002	-6.302849e-001	-2.000000e+002	0.000000e+000	-2.000000e+002	0.000000e+000
21.287	-2.000000e+002	0.000000e+000	-4.913022e-002	-6.369260e-001	-2.000000e+002	0.000000e+000	-2.000000e+002	0.000000e+000
21.586	-2.000000e+002	0.000000e+000	-4.910935e-002	-6.439196e-001	-2.000000e+002	0.000000e+000	-2.000000e+002	0.000000e+000
21.885	-2.000000e+002	0.000000e+000	-4.915398e-002	-6.512167e-001	-2.000000e+002	0.000000e+000	-2.000000e+002	0.000000e+000
22.183	-2.000000e+002	0.000000e+000	-4.915141e-002	-6.578677e-001	-2.000000e+002	0.000000e+000	-2.000000e+002	0.000000e+000
22.482	-2.000000e+002	0.000000e+000	-4.917299e-002	-6.646535e-001	-2.000000e+002	0.000000e+000	-2.000000e+002	0.000000e+000
22.781	-2.000000e+002	0.000000e+000	-4.919070e-002	-6.717066e-001	-2.000000e+002	0.000000e+000	-2.000000e+002	0.000000e+000
23.080	-2.000000e+002	0.000000e+000	-4.922056e-002	-6.784321e-001	-2.000000e+002	0.000000e+000	-2.000000e+002	0.000000e+000
23.378	-2.000000e+002	0.000000e+000	-4.927385e-002	-6.848443e-001	-2.000000e+002	0.000000e+000	-2.000000e+002	0.000000e+000
23.677	-2.000000e+002	0.000000e+000	-4.930974e-002	-6.922863e-001	-2.000000e+002	0.000000e+000	-2.000000e+002	0.000000e+000
23.976	-2.000000e+002	0.000000e+000	-4.934020e-002	-6.990540e-001	-2.000000e+002	0.000000e+000	-2.000000e+002	0.000000e+000
24.275	-2.000000e+002	0.000000e+000	-4.940731e-002	-7.065384e-001	-2.000000e+002	0.000000e+000	-2.000000e+002	0.000000e+000
24.574	-2.000000e+002	0.000000e+000	-4.935837e-002	-7.131390e-001	-2.000000e+002	0.000000e+000	-2.000000e+002	0.000000e+000
24.872	-2.000000e+002	0.000000e+000	-4.942140e-002	-7.200474e-001	-2.000000e+002	0.000000e+000	-2.000000e+002	0.000000e+000
25.222	-2.000000e+002	0.000000e+000	-4.953088e-002	-7.280545e-001	-2.000000e+002	0.000000e+000	-2.000000e+002	0.000000e+000
25.634	-2.000000e+002	0.000000e+000	-4.944090e-002	-7.378822e-001	-2.000000e+002	0.000000e+000	-2.000000e+002	0.000000e+000
26.046	-2.000000e+002	0.000000e+000	-4.942492e-002	-7.474685e-001	-2.000000e+002	0.000000e+000	-2.000000e+002	0.000000e+000
26.457	-2.000000e+002	0.000000e+000	-4.957595e-002	-7.569913e-001	-2.000000e+002	0.000000e+000	-2.000000e+002	0.000000e+000
26.869	-2.000000e+002	0.000000e+000	-4.960917e-002	-7.666433e-001	-2.000000e+002	0.000000e+000	-2.000000e+002	0.000000e+000
27.281	-2.000000e+002	0.000000e+000	-4.966087e-002	-7.755936e-001	-2.000000e+002	0.000000e+000	-2.000000e+002	0.000000e+000
27.693	-2.000000e+002	0.000000e+000	-4.958801e-002	-7.860348e-001	-2.000000e+002	0.000000e+000	-2.000000e+002	0.000000e+000
28.105	-2.000000e+002	0.000000e+000	-4.964153e-002	-7.957190e-001	-2.000000e+002	0.000000e+000	-2.000000e+002	0.000000e+000
28.517	-2.000000e+002	0.000000e+000	-4.975424e-002	-8.048662e-001	-2.000000e+002	0.000000e+000	-2.000000e+002	0.000000e+000
28.928	-2.000000e+002	0.000000e+000	-4.983239e-002	-8.149724e-001	-2.000000e+002	0.000000e+000	-2.000000e+002	0.000000e+000
29.340	-2.000000e+002	0.000000e+000	-4.974555e-002	-8.246487e-001	-2.000000e+002	0.000000e+000	-2.000000e+002	0.000000e+000
29.752	-2.000000e+002	0.000000e+000	-4.971994e-002	-8.345135e-001	-2.000000e+002	0.000000e+000	-2.000000e+002	0.000000e+000
30.164	-2.000000e+002	0.000000e+000	-4.984811e-002	-8.434458e-001	-2.000000e+002	0.000000e+000	-2.000000e+002	0.000000e+000
30.576	-2.000000e+002	0.000000e+000	-4.984690e-002	-8.521074e-001	-2.000000e+002	0.000000e+000	-2.000000e+002	0.000000e+000
30.988	-2.000000e+002	0.000000e+000	-4.993592e-002	-8.617936e-001	-2.000000e+002	0.000000e+000	-2.000000e+002	0.000000e+000
31.399	-2.000000e+002	0.000000e+000	-4.998237e-002	-8.710806e-001	-2.000000e+002	0.000000e+000	-2.000000e+002	0.000000e+000
31.811	-2.000000e+002	0.000000e+000	-5.010540e-002	-8.795509e-001	-2.000000e+002	0.000000e+000	-2.000000e+002	0.000000e+000
32.223	-2.000000e+002	0.000000e+000	-5.009261e-002	-8.881955e-001	-2.000000e+002	0.000000e+000	-2.000000e+002	0.000000e+000
32.635	-2.000000e+002	0.000000e+000	-5.018573e-002	-8.971170e-001	-2.000000e+002	0.000000e+000	-2.000000e+002	0.000000e+000
33.047	-2.000000e+002	0.000000e+000	-5.021855e-002	-9.058207e-001	-2.000000e+002	0.000000e+000	-2.000000e+002	0.000000e+000
33.458	-2.000000e+002	0.000000e+000	-5.035674e-002	-9.150039e-001	-2.000000e+002	0.000000e+000	-2.000000e+002	0.000000e+000
33.870	-2.000000e+002	0.000000e+000	-5.041970e-002	-9.237240e-001	-2.000000e+002	0.000000e+000	-2.000000e+002	0.000000e+000
34.282	-2.000000e+002	0.000000e+000	-5.040032e-002	-9.329988e-001	-2.000000e+002	0.000000e+000	-2.000000e+002	0.000000e+000
34.764	-2.000000e+002	0.000000e+000	-5.040594e-002	-9.431152e-001	-2.000000e+002	0.000000e+000	-2.000000e+002	0.000000e+000
35.331	-2.000000e+002	0.000000e+000	-5.048289e-002	-9.559571e-001	-2.000000e+002	0.000000e+000	-2.000000e+002	0.000000e+000
35.899	-2.000000e+002	0.000000e+000	-5.060724e-002	-9.683050e-001	-2.000000e+002	0.000000e+000	-2.000000e+002	0.000000e+000
36.467	-2.000000e+002	0.000000e+000	-5.065872e-002	-9.803148e-001	-2.000000e+002	0.000000e+000	-2.000000e+002	0.000000e+000
37.034	-2.000000e+002	0.000000e+000	-5.067848e-002	-9.922049e-001	-2.000000e+002	0.000000e+000	-2.000000e+002	0.000000e+000
37.602	-2.000000e+002	0.000000e+000	-5.084548e-002	-1.004387e+000	-2.000000e+002	0.000000e+000	-2.000000e+002	0.000000e+000
38.170	-2.000000e+002	0.000000e+000	-5.088012e-002	-1.016956e+000	-2.000000e+002	0.000000e+000	-2.000000e+002	0.000000e+000
38.737	-2.000000e+002	0.000000e+000	-5.086403e-002	-1.029153e+000	-2.000000e+002	0.000000e+000	-2.000000e+002	0.000000e+000
39.305	-2.000000e+002	0.000000e+000	-5.097117e-002	-1.041483e+000	-2.000000e+002	0.000000e+000	-2.000000e+002	0.000000e+000
39.872	-2.000000e+002	0.000000e+000	-5.108107e-002	-1.053989e+000	-2.000000e+002	0.000000e+000	-2.000000e+002	0.000000e+000
40.440	-2.000000e+002	0.000000e+000	-5.121754e-002	-1.066835e+000	-2.000000e+002	0.000000e+000	-2.000000e+002	0.000000e+000
41.008	-2.000000e+002	0.000000e+000	-5.146247e-002	-1.079173e+000	-2.000000e+002	0.000000e+000	-2.000000e+002	0.000000e+000
41.575	-2.000000e+002	0.000000e+000	-5.141755e-002	-1.092021e+000	-2.000000e+002	0.000000e+000	-2.000000e+002	0.000000e+000
42.143	-2.000000e+002	0.000000e+000	-5.151008e-002	-1.103825e+000	-2.000000e+002	0.000000e+000	-2.000000e+002	0.000000e+000
42.711	-2.000000e+002	0.000000e+000	-5.170581e-002	-1.116126e+000	-2.000000e+002	0.000000e+000	-2.000000e+002	0.000000e+000
43.278	-2.000000e+002	0.000000e+000	-5.170752e-002	-1.128506e+000	-2.000000e+002	0.000000e+000	-2.000000e+002	0.000000e+000
43.846	-2.000000e+002	0.000000e+000	-5.174265e-002	-1.141571e+000	-2.000000e+002	0.000000e+000	-2.000000e+002	0.000000e+000
44.414	-2.000000e+002	0.000000e+000	-5.185015e-002	-1.153701e+000	-2.000000e+002	0.000000e+000	-2.000000e+002	0.000000e+000
44.981	-2.000000e+002	0.000000e+000	-5.196085e-002	-1.165850e+000	-2.000000e+002	0.000000e+000	-2.000000e+002	0.000000e+000
