!Agilent Technologies,E5061B,MY49204007,A.02.12
!Date: Fri Sep 12 09:48:42 2025
!Data & Calibration Information:
!Freq	S11:SOLT2(OFF)	S21:SOLT2(OFF)	S12:SOLT2(OFF)	S22:SOLT2(OFF)
# Hz S dB R 50
5.000	-2.000000e+002	0.000000e+000	-3.785903e-002	-3.288912e-001	-2.000000e+002	0.000000e+000	-2.000000e+002	0.000000e+000
5.082	-2.000000e+002	0.000000e+000	-3.805196e-002	-3.307960e-001	-2.000000e+002	0.000000e+000	-2.000000e+002	0.000000e+000
5.163	-2.000000e+002	0.000000e+000	-3.798247e-002	-3.324281e-001	-2.000000e+002	0.000000e+000	-2.000000e+002	0.000000e+000
5.245	-2.000000e+002	0.000000e+000	-3.807061e-002	-3.340239e-001	-2.000000e+002	0.000000e+000	-2.000000e+002	0.000000e+000
5.327	-2.000000e+002	0.000000e+000	-3.820178e-002	-3.361619e-001	-2.000000e+002	0.000000e+000	-2.000000e+002	0.000000e+000
5.408	-2.000000e+002	0.000000e+000	-3.828964e-002	-3.378368e-001	-2.000000e+002	0.000000e+000	-2.000000e+002	0.000000e+000
5.490	-2.000000e+002	0.000000e+000	-3.837193e-002	-3.404232e-001	-2.000000e+002	0.000000e+000	-2.000000e+002	0.000000e+000
5.571	-2.000000e+002	0.000000e+000	-3.843046e-002	-3.415905e-001	-2.000000e+002	0.000000e+000	-2.000000e+002	0.000000e+000
5.653	-2.000000e+002	0.000000e+000	-3.843338e-002	-3.431817e-001	-2.000000e+002	0.000000e+000	-2.000000e+002	0.000000e+000
5.735	-2.000000e+002	0.000000e+000	-3.847434e-002	-3.452619e-001	-2.000000e+002	0.000000e+000	-2.000000e+002	0.000000e+000
5.816	-2.000000e+002	0.000000e+000	-3.858482e-002	-3.470568e-001	-2.000000e+002	0.000000e+000	-2.000000e+002	0.000000e+000
5.898	-2.000000e+002	0.000000e+000	-3.865055e-002	-3.494550e-001	-2.000000e+002	0.000000e+000	-2.000000e+002	0.000000e+000
5.980	-2.000000e+002	0.000000e+000	-3.875655e-002	-3.509446e-001	-2.000000e+002	0.000000e+000	-2.000000e+002	0.000000e+000
6.061	-2.000000e+002	0.000000e+000	-3.869838e-002	-3.537167e-001	-2.000000e+002	0.000000e+000	-2.000000e+002	0.000000e+000
6.143	-2.000000e+002	0.000000e+000	-3.881647e-002	-3.562281e-001	-2.000000e+002	0.000000e+000	-2.000000e+002	0.000000e+000
6.225	-2.000000e+002	0.000000e+000	-3.893440e-002	-3.573413e-001	-2.000000e+002	0.000000e+000	-2.000000e+002	0.000000e+000
6.306	-2.000000e+002	0.000000e+000	-3.895371e-002	-3.594983e-001	-2.000000e+002	0.000000e+000	-2.000000e+002	0.000000e+000
6.388	-2.000000e+002	0.000000e+000	-3.890329e-002	-3.622456e-001	-2.000000e+002	0.000000e+000	-2.000000e+002	0.000000e+000
6.470	-2.000000e+002	0.000000e+000	-3.891048e-002	-3.641932e-001	-2.000000e+002	0.000000e+000	-2.000000e+002	0.000000e+000
6.551	-2.000000e+002	0.000000e+000	-3.895994e-002	-3.664797e-001	-2.000000e+002	0.000000e+000	-2.000000e+002	0.000000e+000
6.633	-2.000000e+002	0.000000e+000	-3.893307e-002	-3.687354e-001	-2.000000e+002	0.000000e+000	-2.000000e+002	0.000000e+000
6.714	-2.000000e+002	0.000000e+000	-3.895750e-002	-3.711849e-001	-2.000000e+002	0.000000e+000	-2.000000e+002	0.000000e+000
6.796	-2.000000e+002	0.000000e+000	-3.897380e-002	-3.732048e-001	-2.000000e+002	0.000000e+000	-2.000000e+002	0.000000e+000
6.892	-2.000000e+002	0.000000e+000	-3.894296e-002	-3.756240e-001	-2.000000e+002	0.000000e+000	-2.000000e+002	0.000000e+000
7.004	-2.000000e+002	0.000000e+000	-3.895876e-002	-3.797025e-001	-2.000000e+002	0.000000e+000	-2.000000e+002	0.000000e+000
7.117	-2.000000e+002	0.000000e+000	-3.894150e-002	-3.824048e-001	-2.000000e+002	0.000000e+000	-2.000000e+002	0.000000e+000
7.229	-2.000000e+002	0.000000e+000	-3.902257e-002	-3.856677e-001	-2.000000e+002	0.000000e+000	-2.000000e+002	0.000000e+000
7.342	-2.000000e+002	0.000000e+000	-3.908889e-002	-3.891063e-001	-2.000000e+002	0.000000e+000	-2.000000e+002	0.000000e+000
7.454	-2.000000e+002	0.000000e+000	-3.901533e-002	-3.924263e-001	-2.000000e+002	0.000000e+000	-2.000000e+002	0.000000e+000
7.567	-2.000000e+002	0.000000e+000	-3.907148e-002	-3.961873e-001	-2.000000e+002	0.000000e+000	-2.000000e+002	0.000000e+000
7.679	-2.000000e+002	0.000000e+000	-3.898623e-002	-3.997455e-001	-2.000000e+002	0.000000e+000	-2.000000e+002	0.000000e+000
7.792	-2.000000e+002	0.000000e+000	-3.900512e-002	-4.028260e-001	-2.000000e+002	0.000000e+000	-2.000000e+002	0.000000e+000
7.904	-2.000000e+002	0.000000e+000	-3.901393e-002	-4.065051e-001	-2.000000e+002	0.000000e+000	-2.000000e+002	0.000000e+000
8.017	-2.000000e+002	0.000000e+000	-3.896614e-002	-4.103613e-001	-2.000000e+002	0.000000e+000	-2.000000e+002	0.000000e+000
8.129	-2.000000e+002	0.000000e+000	-3.887306e-002	-4.133193e-001	-2.000000e+002	0.000000e+000	-2.000000e+002	0.000000e+000
8.242	-2.000000e+002	0.000000e+000	-3.886920e-002	-4.170261e-001	-2.000000e+002	0.000000e+000	-2.000000e+002	0.000000e+000
8.354	-2.000000e+002	0.000000e+000	-3.879129e-002	-4.209296e-001	-2.000000e+002	0.000000e+000	-2.000000e+002	0.000000e+000
8.467	-2.000000e+002	0.000000e+000	-3.877586e-002	-4.249884e-001	-2.000000e+002	0.000000e+000	-2.000000e+002	0.000000e+000
8.580	-2.000000e+002	0.000000e+000	-3.869413e-002	-4.283043e-001	-2.000000e+002	0.000000e+000	-2.000000e+002	0.000000e+000
8.692	-2.000000e+002	0.000000e+000	-3.866237e-002	-4.322478e-001	-2.000000e+002	0.000000e+000	-2.000000e+002	0.000000e+000
8.805	-2.000000e+002	0.000000e+000	-3.860878e-002	-4.362194e-001	-2.000000e+002	0.000000e+000	-2.000000e+002	0.000000e+000
8.917	-2.000000e+002	0.000000e+000	-3.854026e-002	-4.397768e-001	-2.000000e+002	0.000000e+000	-2.000000e+002	0.000000e+000
9.030	-2.000000e+002	0.000000e+000	-3.859110e-002	-4.432570e-001	-2.000000e+002	0.000000e+000	-2.000000e+002	0.000000e+000
9.142	-2.000000e+002	0.000000e+000	-3.846475e-002	-4.476088e-001	-2.000000e+002	0.000000e+000	-2.000000e+002	0.000000e+000
9.255	-2.000000e+002	0.000000e+000	-3.848348e-002	-4.513255e-001	-2.000000e+002	0.000000e+000	-2.000000e+002	0.000000e+000
9.367	-2.000000e+002	0.000000e+000	-3.840944e-002	-4.545428e-001	-2.000000e+002	0.000000e+000	-2.000000e+002	0.000000e+000
9.499	-2.000000e+002	0.000000e+000	-3.835379e-002	-4.593336e-001	-2.000000e+002	0.000000e+000	-2.000000e+002	0.000000e+000
9.654	-2.000000e+002	0.000000e+000	-3.838193e-002	-4.644416e-001	-2.000000e+002	0.000000e+000	-2.000000e+002	0.000000e+000
9.809	-2.000000e+002	0.000000e+000	-3.813237e-002	-4.701690e-001	-2.000000e+002	0.000000e+000	-2.000000e+002	0.000000e+000
9.964	-2.000000e+002	0.000000e+000	-3.812562e-002	-4.753723e-001	-2.000000e+002	0.000000e+000	-2.000000e+002	0.000000e+000
10.119	-2.000000e+002	0.000000e+000	-3.811966e-002	-4.796692e-001	-2.000000e+002	0.000000e+000	-2.000000e+002	0.000000e+000
10.274	-2.000000e+002	0.000000e+000	-3.827420e-002	-4.834648e-001	-2.000000e+002	0.000000e+000	-2.000000e+002	0.000000e+000
10.429	-2.000000e+002	0.000000e+000	-3.833682e-002	-4.872072e-001	-2.000000e+002	0.000000e+000	-2.000000e+002	0.000000e+000
10.585	-2.000000e+002	0.000000e+000	-3.838385e-002	-4.914442e-001	-2.000000e+002	0.000000e+000	-2.000000e+002	0.000000e+000
10.740	-2.000000e+002	0.000000e+000	-3.852030e-002	-4.948323e-001	-2.000000e+002	0.000000e+000	-2.000000e+002	0.000000e+000
10.895	-2.000000e+002	0.000000e+000	-3.846439e-002	-4.991701e-001	-2.000000e+002	0.000000e+000	-2.000000e+002	0.000000e+000
11.050	-2.000000e+002	0.000000e+000	-3.853063e-002	-5.030420e-001	-2.000000e+002	0.000000e+000	-2.000000e+002	0.000000e+000
11.205	-2.000000e+002	0.000000e+000	-3.855601e-002	-5.071440e-001	-2.000000e+002	0.000000e+000	-2.000000e+002	0.000000e+000
11.360	-2.000000e+002	0.000000e+000	-3.858682e-002	-5.114879e-001	-2.000000e+002	0.000000e+000	-2.000000e+002	0.000000e+000
11.515	-2.000000e+002	0.000000e+000	-3.862925e-002	-5.150484e-001	-2.000000e+002	0.000000e+000	-2.000000e+002	0.000000e+000
11.670	-2.000000e+002	0.000000e+000	-3.857550e-002	-5.196233e-001	-2.000000e+002	0.000000e+000	-2.000000e+002	0.000000e+000
11.825	-2.000000e+002	0.000000e+000	-3.857508e-002	-5.235517e-001	-2.000000e+002	0.000000e+000	-2.000000e+002	0.000000e+000
11.980	-2.000000e+002	0.000000e+000	-3.869139e-002	-5.276436e-001	-2.000000e+002	0.000000e+000	-2.000000e+002	0.000000e+000
12.136	-2.000000e+002	0.000000e+000	-3.873972e-002	-5.321872e-001	-2.000000e+002	0.000000e+000	-2.000000e+002	0.000000e+000
12.291	-2.000000e+002	0.000000e+000	-3.882274e-002	-5.362686e-001	-2.000000e+002	0.000000e+000	-2.000000e+002	0.000000e+000
12.446	-2.000000e+002	0.000000e+000	-3.873446e-002	-5.402045e-001	-2.000000e+002	0.000000e+000	-2.000000e+002	0.000000e+000
12.601	-2.000000e+002	0.000000e+000	-3.879637e-002	-5.443839e-001	-2.000000e+002	0.000000e+000	-2.000000e+002	0.000000e+000
12.756	-2.000000e+002	0.000000e+000	-3.880780e-002	-5.488242e-001	-2.000000e+002	0.000000e+000	-2.000000e+002	0.000000e+000
12.911	-2.000000e+002	0.000000e+000	-3.889718e-002	-5.530091e-001	-2.000000e+002	0.000000e+000	-2.000000e+002	0.000000e+000
13.092	-2.000000e+002	0.000000e+000	-3.896106e-002	-5.579798e-001	-2.000000e+002	0.000000e+000	-2.000000e+002	0.000000e+000
13.308	-2.000000e+002	0.000000e+000	-3.892249e-002	-5.633142e-001	-2.000000e+002	0.000000e+000	-2.000000e+002	0.000000e+000
13.523	-2.000000e+002	0.000000e+000	-3.894012e-002	-5.701034e-001	-2.000000e+002	0.000000e+000	-2.000000e+002	0.000000e+000
13.738	-2.000000e+002	0.000000e+000	-3.898663e-002	-5.762687e-001	-2.000000e+002	0.000000e+000	-2.000000e+002	0.000000e+000
13.954	-2.000000e+002	0.000000e+000	-3.898782e-002	-5.815205e-001	-2.000000e+002	0.000000e+000	-2.000000e+002	0.000000e+000
14.169	-2.000000e+002	0.000000e+000	-3.916031e-002	-5.877460e-001	-2.000000e+002	0.000000e+000	-2.000000e+002	0.000000e+000
14.385	-2.000000e+002	0.000000e+000	-3.906396e-002	-5.936940e-001	-2.000000e+002	0.000000e+000	-2.000000e+002	0.000000e+000
14.600	-2.000000e+002	0.000000e+000	-3.912899e-002	-5.993965e-001	-2.000000e+002	0.000000e+000	-2.000000e+002	0.000000e+000
14.815	-2.000000e+002	0.000000e+000	-3.919977e-002	-6.057219e-001	-2.000000e+002	0.000000e+000	-2.000000e+002	0.000000e+000
15.031	-2.000000e+002	0.000000e+000	-3.930096e-002	-6.116892e-001	-2.000000e+002	0.000000e+000	-2.000000e+002	0.000000e+000
15.246	-2.000000e+002	0.000000e+000	-3.929657e-002	-6.181013e-001	-2.000000e+002	0.000000e+000	-2.000000e+002	0.000000e+000
15.461	-2.000000e+002	0.000000e+000	-3.934276e-002	-6.242326e-001	-2.000000e+002	0.000000e+000	-2.000000e+002	0.000000e+000
15.677	-2.000000e+002	0.000000e+000	-3.930165e-002	-6.301921e-001	-2.000000e+002	0.000000e+000	-2.000000e+002	0.000000e+000
15.892	-2.000000e+002	0.000000e+000	-3.937114e-002	-6.362058e-001	-2.000000e+002	0.000000e+000	-2.000000e+002	0.000000e+000
16.107	-2.000000e+002	0.000000e+000	-3.945444e-002	-6.427211e-001	-2.000000e+002	0.000000e+000	-2.000000e+002	0.000000e+000
16.323	-2.000000e+002	0.000000e+000	-3.938819e-002	-6.488816e-001	-2.000000e+002	0.000000e+000	-2.000000e+002	0.000000e+000
16.538	-2.000000e+002	0.000000e+000	-3.943825e-002	-6.553398e-001	-2.000000e+002	0.000000e+000	-2.000000e+002	0.000000e+000
16.753	-2.000000e+002	0.000000e+000	-3.947472e-002	-6.614625e-001	-2.000000e+002	0.000000e+000	-2.000000e+002	0.000000e+000
16.969	-2.000000e+002	0.000000e+000	-3.945380e-002	-6.676399e-001	-2.000000e+002	0.000000e+000	-2.000000e+002	0.000000e+000
17.184	-2.000000e+002	0.000000e+000	-3.942879e-002	-6.735136e-001	-2.000000e+002	0.000000e+000	-2.000000e+002	0.000000e+000
17.399	-2.000000e+002	0.000000e+000	-3.952013e-002	-6.803588e-001	-2.000000e+002	0.000000e+000	-2.000000e+002	0.000000e+000
17.615	-2.000000e+002	0.000000e+000	-3.952390e-002	-6.858807e-001	-2.000000e+002	0.000000e+000	-2.000000e+002	0.000000e+000
17.830	-2.000000e+002	0.000000e+000	-3.955871e-002	-6.924653e-001	-2.000000e+002	0.000000e+000	-2.000000e+002	0.000000e+000
18.045	-2.000000e+002	0.000000e+000	-3.966765e-002	-6.989841e-001	-2.000000e+002	0.000000e+000	-2.000000e+002	0.000000e+000
18.299	-2.000000e+002	0.000000e+000	-3.967485e-002	-7.056239e-001	-2.000000e+002	0.000000e+000	-2.000000e+002	0.000000e+000
18.598	-2.000000e+002	0.000000e+000	-3.968616e-002	-7.148347e-001	-2.000000e+002	0.000000e+000	-2.000000e+002	0.000000e+000
18.897	-2.000000e+002	0.000000e+000	-3.968741e-002	-7.236379e-001	-2.000000e+002	0.000000e+000	-2.000000e+002	0.000000e+000
19.195	-2.000000e+002	0.000000e+000	-3.975363e-002	-7.326976e-001	-2.000000e+002	0.000000e+000	-2.000000e+002	0.000000e+000
19.494	-2.000000e+002	0.000000e+000	-3.990483e-002	-7.411026e-001	-2.000000e+002	0.000000e+000	-2.000000e+002	0.000000e+000
19.793	-2.000000e+002	0.000000e+000	-3.978269e-002	-7.501953e-001	-2.000000e+002	0.000000e+000	-2.000000e+002	0.000000e+000
20.092	-2.000000e+002	0.000000e+000	-3.981507e-002	-7.589645e-001	-2.000000e+002	0.000000e+000	-2.000000e+002	0.000000e+000
20.391	-2.000000e+002	0.000000e+000	-3.989631e-002	-7.675658e-001	-2.000000e+002	0.000000e+000	-2.000000e+002	0.000000e+000
20.689	-2.000000e+002	0.000000e+000	-3.990410e-002	-7.762395e-001	-2.000000e+002	0.000000e+000	-2.000000e+002	0.000000e+000
20.988	-2.000000e+002	0.000000e+000	-3.987918e-002	-7.854675e-001	-2.000000e+002	0.000000e+000	-2.000000e+002	0.000000e+000
21.287	-2.000000e+002	0.000000e+000	-4.005023e-002	-7.940185e-001	-2.000000e+002	0.000000e+000	-2.000000e+002	0.000000e+000
21.586	-2.000000e+002	0.000000e+000	-3.993400e-002	-8.031412e-001	-2.000000e+002	0.000000e+000	-2.000000e+002	0.000000e+000
21.885	-2.000000e+002	0.000000e+000	-3.994767e-002	-8.120777e-001	-2.000000e+002	0.000000e+000	-2.000000e+002	0.000000e+000
22.183	-2.000000e+002	0.000000e+000	-4.001740e-002	-8.207211e-001	-2.000000e+002	0.000000e+000	-2.000000e+002	0.000000e+000
22.482	-2.000000e+002	0.000000e+000	-4.006366e-002	-8.302855e-001	-2.000000e+002	0.000000e+000	-2.000000e+002	0.000000e+000
22.781	-2.000000e+002	0.000000e+000	-4.018483e-002	-8.392226e-001	-2.000000e+002	0.000000e+000	-2.000000e+002	0.000000e+000
23.080	-2.000000e+002	0.000000e+000	-4.017660e-002	-8.480279e-001	-2.000000e+002	0.000000e+000	-2.000000e+002	0.000000e+000
23.378	-2.000000e+002	0.000000e+000	-4.015295e-002	-8.568881e-001	-2.000000e+002	0.000000e+000	-2.000000e+002	0.000000e+000
23.677	-2.000000e+002	0.000000e+000	-4.015454e-002	-8.657688e-001	-2.000000e+002	0.000000e+000	-2.000000e+002	0.000000e+000
23.976	-2.000000e+002	0.000000e+000	-4.026696e-002	-8.746802e-001	-2.000000e+002	0.000000e+000	-2.000000e+002	0.000000e+000
24.275	-2.000000e+002	0.000000e+000	-4.031877e-002	-8.832269e-001	-2.000000e+002	0.000000e+000	-2.000000e+002	0.000000e+000
24.574	-2.000000e+002	0.000000e+000	-4.026229e-002	-8.922979e-001	-2.000000e+002	0.000000e+000	-2.000000e+002	0.000000e+000
24.872	-2.000000e+002	0.000000e+000	-4.027313e-002	-9.013846e-001	-2.000000e+002	0.000000e+000	-2.000000e+002	0.000000e+000
25.222	-2.000000e+002	0.000000e+000	-4.043888e-002	-9.124366e-001	-2.000000e+002	0.000000e+000	-2.000000e+002	0.000000e+000
25.634	-2.000000e+002	0.000000e+000	-4.039604e-002	-9.238686e-001	-2.000000e+002	0.000000e+000	-2.000000e+002	0.000000e+000
26.046	-2.000000e+002	0.000000e+000	-4.039884e-002	-9.362829e-001	-2.000000e+002	0.000000e+000	-2.000000e+002	0.000000e+000
26.457	-2.000000e+002	0.000000e+000	-4.046884e-002	-9.491200e-001	-2.000000e+002	0.000000e+000	-2.000000e+002	0.000000e+000
26.869	-2.000000e+002	0.000000e+000	-4.057271e-002	-9.613169e-001	-2.000000e+002	0.000000e+000	-2.000000e+002	0.000000e+000
27.281	-2.000000e+002	0.000000e+000	-4.064781e-002	-9.746748e-001	-2.000000e+002	0.000000e+000	-2.000000e+002	0.000000e+000
27.693	-2.000000e+002	0.000000e+000	-4.062854e-002	-9.866375e-001	-2.000000e+002	0.000000e+000	-2.000000e+002	0.000000e+000
28.105	-2.000000e+002	0.000000e+000	-4.058164e-002	-9.994987e-001	-2.000000e+002	0.000000e+000	-2.000000e+002	0.000000e+000
28.517	-2.000000e+002	0.000000e+000	-4.077026e-002	-1.011682e+000	-2.000000e+002	0.000000e+000	-2.000000e+002	0.000000e+000
28.928	-2.000000e+002	0.000000e+000	-4.079533e-002	-1.023936e+000	-2.000000e+002	0.000000e+000	-2.000000e+002	0.000000e+000
29.340	-2.000000e+002	0.000000e+000	-4.084768e-002	-1.036706e+000	-2.000000e+002	0.000000e+000	-2.000000e+002	0.000000e+000
29.752	-2.000000e+002	0.000000e+000	-4.079706e-002	-1.048807e+000	-2.000000e+002	0.000000e+000	-2.000000e+002	0.000000e+000
30.164	-2.000000e+002	0.000000e+000	-4.098323e-002	-1.061108e+000	-2.000000e+002	0.000000e+000	-2.000000e+002	0.000000e+000
30.576	-2.000000e+002	0.000000e+000	-4.098082e-002	-1.072982e+000	-2.000000e+002	0.000000e+000	-2.000000e+002	0.000000e+000
30.988	-2.000000e+002	0.000000e+000	-4.098170e-002	-1.085470e+000	-2.000000e+002	0.000000e+000	-2.000000e+002	0.000000e+000
31.399	-2.000000e+002	0.000000e+000	-4.114344e-002	-1.096927e+000	-2.000000e+002	0.000000e+000	-2.000000e+002	0.000000e+000
31.811	-2.000000e+002	0.000000e+000	-4.117519e-002	-1.108781e+000	-2.000000e+002	0.000000e+000	-2.000000e+002	0.000000e+000
32.223	-2.000000e+002	0.000000e+000	-4.119570e-002	-1.119388e+000	-2.000000e+002	0.000000e+000	-2.000000e+002	0.000000e+000
32.635	-2.000000e+002	0.000000e+000	-4.136933e-002	-1.131425e+000	-2.000000e+002	0.000000e+000	-2.000000e+002	0.000000e+000
33.047	-2.000000e+002	0.000000e+000	-4.138556e-002	-1.143098e+000	-2.000000e+002	0.000000e+000	-2.000000e+002	0.000000e+000
33.458	-2.000000e+002	0.000000e+000	-4.150971e-002	-1.155130e+000	-2.000000e+002	0.000000e+000	-2.000000e+002	0.000000e+000
33.870	-2.000000e+002	0.000000e+000	-4.157366e-002	-1.166347e+000	-2.000000e+002	0.000000e+000	-2.000000e+002	0.000000e+000
34.282	-2.000000e+002	0.000000e+000	-4.172120e-002	-1.178260e+000	-2.000000e+002	0.000000e+000	-2.000000e+002	0.000000e+000
34.764	-2.000000e+002	0.000000e+000	-4.179854e-002	-1.191730e+000	-2.000000e+002	0.000000e+000	-2.000000e+002	0.000000e+000
35.331	-2.000000e+002	0.000000e+000	-4.186842e-002	-1.208587e+000	-2.000000e+002	0.000000e+000	-2.000000e+002	0.000000e+000
35.899	-2.000000e+002	0.000000e+000	-4.190103e-002	-1.224181e+000	-2.000000e+002	0.000000e+000	-2.000000e+002	0.000000e+000
36.467	-2.000000e+002	0.000000e+000	-4.202579e-002	-1.240706e+000	-2.000000e+002	0.000000e+000	-2.000000e+002	0.000000e+000
37.034	-2.000000e+002	0.000000e+000	-4.213485e-002	-1.256807e+000	-2.000000e+002	0.000000e+000	-2.000000e+002	0.000000e+000
37.602	-2.000000e+002	0.000000e+000	-4.231790e-002	-1.273534e+000	-2.000000e+002	0.000000e+000	-2.000000e+002	0.000000e+000
38.170	-2.000000e+002	0.000000e+000	-4.233927e-002	-1.289486e+000	-2.000000e+002	0.000000e+000	-2.000000e+002	0.000000e+000
38.737	-2.000000e+002	0.000000e+000	-4.249908e-002	-1.305678e+000	-2.000000e+002	0.000000e+000	-2.000000e+002	0.000000e+000
39.305	-2.000000e+002	0.000000e+000	-4.262193e-002	-1.322036e+000	-2.000000e+002	0.000000e+000	-2.000000e+002	0.000000e+000
39.872	-2.000000e+002	0.000000e+000	-4.265399e-002	-1.338292e+000	-2.000000e+002	0.000000e+000	-2.000000e+002	0.000000e+000
40.440	-2.000000e+002	0.000000e+000	-4.283211e-002	-1.354878e+000	-2.000000e+002	0.000000e+000	-2.000000e+002	0.000000e+000
41.008	-2.000000e+002	0.000000e+000	-4.298511e-002	-1.370641e+000	-2.000000e+002	0.000000e+000	-2.000000e+002	0.000000e+000
41.575	-2.000000e+002	0.000000e+000	-4.303084e-002	-1.387550e+000	-2.000000e+002	0.000000e+000	-2.000000e+002	0.000000e+000
42.143	-2.000000e+002	0.000000e+000	-4.310864e-002	-1.403756e+000	-2.000000e+002	0.000000e+000	-2.000000e+002	0.000000e+000
42.711	-2.000000e+002	0.000000e+000	-4.327997e-002	-1.419502e+000	-2.000000e+002	0.000000e+000	-2.000000e+002	0.000000e+000
43.278	-2.000000e+002	0.000000e+000	-4.351927e-002	-1.435891e+000	-2.000000e+002	0.000000e+000	-2.000000e+002	0.000000e+000
43.846	-2.000000e+002	0.000000e+000	-4.352827e-002	-1.451911e+000	-2.000000e+002	0.000000e+000	-2.000000e+002	0.000000e+000
44.414	-2.000000e+002	0.000000e+000	-4.365410e-002	-1.468264e+000	-2.000000e+002	0.000000e+000	-2.000000e+002	0.000000e+000
44.981	-2.000000e+002	0.000000e+000	-4.379299e-002	-1.484794e+000	-2.000000e+002	0.000000e+000	-2.000000e+002	0.000000e+000
