!Agilent Technologies,E5061B,MY49204007,A.02.12
!Date: Wed Jul 23 11:33:28 2025
!Data & Calibration Information:
!Freq	S11:SOLT2(ON)	S21:SOLT2(ON)	S12:SOLT2(ON)	S22:SOLT2(ON)
# Hz S dB R 50
10.000	-9.267889e-002	3.212433e+000	-2.491119e+001	-7.804220e+001	-2.491783e+001	-7.793473e+001	-7.603108e-002	3.406510e+000
10.137	-9.136088e-002	3.169265e+000	-2.502951e+001	-7.806992e+001	-2.503468e+001	-7.794975e+001	-7.488447e-002	3.362953e+000
10.275	-9.038860e-002	3.129655e+000	-2.513805e+001	-7.807471e+001	-2.514186e+001	-7.795724e+001	-7.387279e-002	3.323487e+000
10.412	-8.924326e-002	3.091038e+000	-2.524366e+001	-7.808426e+001	-2.524703e+001	-7.796425e+001	-7.292206e-002	3.284297e+000
10.550	-8.835577e-002	3.055063e+000	-2.534683e+001	-7.809134e+001	-2.535016e+001	-7.797159e+001	-7.194993e-002	3.247933e+000
10.687	-8.745741e-002	3.018796e+000	-2.544803e+001	-7.810045e+001	-2.545105e+001	-7.798222e+001	-7.090493e-002	3.212481e+000
10.824	-8.663568e-002	2.984413e+000	-2.554723e+001	-7.811109e+001	-2.555076e+001	-7.799425e+001	-6.997664e-002	3.177177e+000
10.962	-8.563153e-002	2.950183e+000	-2.564636e+001	-7.811675e+001	-2.564973e+001	-7.799345e+001	-6.921873e-002	3.143425e+000
11.099	-8.492685e-002	2.917850e+000	-2.574193e+001	-7.812082e+001	-2.574544e+001	-7.800264e+001	-6.832202e-002	3.110844e+000
11.237	-8.408345e-002	2.884669e+000	-2.583825e+001	-7.812227e+001	-2.584128e+001	-7.800099e+001	-6.758057e-002	3.078796e+000
11.374	-8.326060e-002	2.853584e+000	-2.593277e+001	-7.813018e+001	-2.593634e+001	-7.800686e+001	-6.671385e-002	3.047208e+000
11.511	-8.249630e-002	2.822956e+000	-2.602579e+001	-7.813253e+001	-2.602947e+001	-7.801281e+001	-6.596766e-002	3.015772e+000
11.649	-8.174375e-002	2.793306e+000	-2.611802e+001	-7.813693e+001	-2.612150e+001	-7.801363e+001	-6.521733e-002	2.986554e+000
11.786	-8.102049e-002	2.763706e+000	-2.620885e+001	-7.813764e+001	-2.621217e+001	-7.801475e+001	-6.447483e-002	2.957251e+000
11.924	-8.032994e-002	2.735756e+000	-2.629830e+001	-7.813775e+001	-2.630139e+001	-7.801820e+001	-6.367411e-002	2.928070e+000
12.061	-7.953771e-002	2.707437e+000	-2.638750e+001	-7.814345e+001	-2.639098e+001	-7.801933e+001	-6.302260e-002	2.900451e+000
12.198	-7.910533e-002	2.679703e+000	-2.647452e+001	-7.813926e+001	-2.647809e+001	-7.802321e+001	-6.222878e-002	2.872885e+000
12.336	-7.819957e-002	2.652694e+000	-2.656176e+001	-7.814167e+001	-2.656530e+001	-7.801905e+001	-6.158418e-002	2.846013e+000
12.473	-7.751904e-002	2.626049e+000	-2.664791e+001	-7.814295e+001	-2.665161e+001	-7.802127e+001	-6.083132e-002	2.819348e+000
12.611	-7.693251e-002	2.600610e+000	-2.673297e+001	-7.814403e+001	-2.673663e+001	-7.802304e+001	-6.023735e-002	2.793449e+000
12.748	-7.634270e-002	2.574992e+000	-2.681690e+001	-7.814260e+001	-2.682027e+001	-7.802264e+001	-5.956586e-002	2.767817e+000
12.885	-7.577094e-002	2.550905e+000	-2.689982e+001	-7.814132e+001	-2.690298e+001	-7.802245e+001	-5.882627e-002	2.743198e+000
13.023	-7.503715e-002	2.526067e+000	-2.698156e+001	-7.814598e+001	-2.698589e+001	-7.802605e+001	-5.828378e-002	2.719152e+000
13.160	-7.450916e-002	2.502457e+000	-2.706370e+001	-7.813934e+001	-2.706744e+001	-7.801989e+001	-5.779392e-002	2.694959e+000
13.298	-7.394564e-002	2.478932e+000	-2.714411e+001	-7.814117e+001	-2.714868e+001	-7.802108e+001	-5.726858e-002	2.672365e+000
13.435	-7.329239e-002	2.456766e+000	-2.722349e+001	-7.813891e+001	-2.722781e+001	-7.802146e+001	-5.670793e-002	2.649485e+000
13.572	-7.283680e-002	2.434484e+000	-2.730269e+001	-7.813504e+001	-2.730687e+001	-7.801863e+001	-5.615802e-002	2.627027e+000
13.733	-7.300127e-002	2.407980e+000	-2.739224e+001	-7.800917e+001	-2.739947e+001	-7.808959e+001	-5.515648e-002	2.601489e+000
13.923	-7.150113e-002	2.379160e+000	-2.750080e+001	-7.812959e+001	-2.750567e+001	-7.801507e+001	-5.489872e-002	2.571747e+000
14.112	-7.075519e-002	2.349536e+000	-2.760704e+001	-7.812367e+001	-2.761129e+001	-7.800533e+001	-5.419847e-002	2.542109e+000
14.302	-7.014265e-002	2.321864e+000	-2.771051e+001	-7.812226e+001	-2.771486e+001	-7.800445e+001	-5.346131e-002	2.513828e+000
14.492	-6.937572e-002	2.293948e+000	-2.781295e+001	-7.811303e+001	-2.781720e+001	-7.799477e+001	-5.284519e-002	2.486621e+000
14.682	-6.876820e-002	2.267018e+000	-2.791428e+001	-7.810776e+001	-2.791880e+001	-7.798925e+001	-5.223387e-002	2.459772e+000
14.872	-6.800582e-002	2.240423e+000	-2.801427e+001	-7.810091e+001	-2.801893e+001	-7.798180e+001	-5.171794e-002	2.433250e+000
15.062	-6.738169e-002	2.215645e+000	-2.811309e+001	-7.809849e+001	-2.811807e+001	-7.797823e+001	-5.097915e-002	2.407765e+000
15.251	-6.673066e-002	2.190368e+000	-2.821120e+001	-7.808703e+001	-2.821582e+001	-7.796845e+001	-5.042195e-002	2.382934e+000
15.441	-6.612970e-002	2.165644e+000	-2.830787e+001	-7.808311e+001	-2.831252e+001	-7.796392e+001	-4.975479e-002	2.358170e+000
15.631	-6.557555e-002	2.142258e+000	-2.840294e+001	-7.807302e+001	-2.840756e+001	-7.795392e+001	-4.912470e-002	2.334897e+000
15.821	-6.499932e-002	2.118556e+000	-2.849703e+001	-7.806473e+001	-2.850189e+001	-7.794588e+001	-4.862436e-002	2.310855e+000
16.011	-6.445515e-002	2.096319e+000	-2.859055e+001	-7.805553e+001	-2.859549e+001	-7.793566e+001	-4.807348e-002	2.288051e+000
16.201	-6.395386e-002	2.073628e+000	-2.868280e+001	-7.804219e+001	-2.868788e+001	-7.792436e+001	-4.749709e-002	2.266164e+000
16.391	-6.331847e-002	2.051762e+000	-2.877368e+001	-7.803620e+001	-2.877860e+001	-7.791531e+001	-4.689862e-002	2.244176e+000
16.580	-6.295501e-002	2.030718e+000	-2.886357e+001	-7.802100e+001	-2.886863e+001	-7.790388e+001	-4.643229e-002	2.222653e+000
16.770	-6.244701e-002	2.009963e+000	-2.895295e+001	-7.801138e+001	-2.895791e+001	-7.789197e+001	-4.596715e-002	2.202021e+000
16.960	-6.187575e-002	1.988802e+000	-2.904120e+001	-7.799875e+001	-2.904633e+001	-7.788168e+001	-4.548033e-002	2.181612e+000
17.150	-6.128052e-002	1.969499e+000	-2.912645e+001	-7.801557e+001	-2.913125e+001	-7.790432e+001	-4.483876e-002	2.162681e+000
17.340	-6.095009e-002	1.949684e+000	-2.921333e+001	-7.797514e+001	-2.921766e+001	-7.785715e+001	-4.459382e-002	2.142207e+000
17.530	-6.045257e-002	1.930067e+000	-2.929822e+001	-7.796185e+001	-2.930373e+001	-7.784397e+001	-4.408020e-002	2.123148e+000
17.720	-5.998073e-002	1.910847e+000	-2.938326e+001	-7.794709e+001	-2.938846e+001	-7.783100e+001	-4.358023e-002	2.104118e+000
17.909	-5.959468e-002	1.892700e+000	-2.946724e+001	-7.793474e+001	-2.947222e+001	-7.781654e+001	-4.307216e-002	2.085375e+000
18.099	-5.910425e-002	1.874561e+000	-2.954989e+001	-7.792072e+001	-2.955485e+001	-7.780554e+001	-4.264037e-002	2.067107e+000
18.289	-5.866594e-002	1.856242e+000	-2.963252e+001	-7.790663e+001	-2.963795e+001	-7.779065e+001	-4.219021e-002	2.049426e+000
18.479	-5.831886e-002	1.839310e+000	-2.971362e+001	-7.789202e+001	-2.971863e+001	-7.777476e+001	-4.170945e-002	2.031889e+000
18.669	-5.787635e-002	1.821767e+000	-2.979432e+001	-7.787573e+001	-2.979925e+001	-7.775719e+001	-4.139206e-002	2.015099e+000
18.859	-5.750262e-002	1.805443e+000	-2.987384e+001	-7.786152e+001	-2.987875e+001	-7.774315e+001	-4.102045e-002	1.997651e+000
19.082	-5.883204e-002	1.785166e+000	-2.996059e+001	-7.750051e+001	-2.996843e+001	-7.740360e+001	-4.219702e-002	1.976782e+000
19.344	-5.657904e-002	1.763154e+000	-3.007666e+001	-7.783221e+001	-3.008134e+001	-7.771219e+001	-3.993795e-002	1.955371e+000
19.606	-5.609884e-002	1.742031e+000	-3.018094e+001	-7.779599e+001	-3.018660e+001	-7.767615e+001	-3.959917e-002	1.934074e+000
19.868	-5.574994e-002	1.720740e+000	-3.028537e+001	-7.777688e+001	-3.029076e+001	-7.765742e+001	-3.908192e-002	1.913095e+000
20.130	-5.534406e-002	1.699648e+000	-3.038826e+001	-7.774845e+001	-3.039376e+001	-7.763100e+001	-3.867557e-002	1.892780e+000
20.392	-5.488042e-002	1.679832e+000	-3.049082e+001	-7.772236e+001	-3.049663e+001	-7.760219e+001	-3.824398e-002	1.872408e+000
20.655	-5.440597e-002	1.660471e+000	-3.059187e+001	-7.769480e+001	-3.059720e+001	-7.757759e+001	-3.779092e-002	1.853362e+000
20.917	-5.402032e-002	1.640852e+000	-3.069142e+001	-7.767097e+001	-3.069627e+001	-7.755293e+001	-3.733359e-002	1.833343e+000
21.179	-5.348276e-002	1.622048e+000	-3.079006e+001	-7.764144e+001	-3.079555e+001	-7.752708e+001	-3.697240e-002	1.814254e+000
21.441	-5.316372e-002	1.603574e+000	-3.088649e+001	-7.761553e+001	-3.089206e+001	-7.749817e+001	-3.663936e-002	1.796595e+000
21.703	-5.269629e-002	1.585614e+000	-3.098308e+001	-7.758380e+001	-3.098829e+001	-7.746795e+001	-3.618597e-002	1.778432e+000
21.965	-5.235445e-002	1.568056e+000	-3.107823e+001	-7.755481e+001	-3.108359e+001	-7.743851e+001	-3.578415e-002	1.760843e+000
22.228	-5.192780e-002	1.550872e+000	-3.117173e+001	-7.753074e+001	-3.117752e+001	-7.740988e+001	-3.537997e-002	1.743759e+000
22.490	-5.168334e-002	1.534671e+000	-3.126390e+001	-7.749612e+001	-3.127013e+001	-7.738119e+001	-3.510282e-002	1.726883e+000
22.752	-5.122433e-002	1.518284e+000	-3.135603e+001	-7.746954e+001	-3.136196e+001	-7.735355e+001	-3.461686e-002	1.710492e+000
23.014	-5.097283e-002	1.502228e+000	-3.144686e+001	-7.743558e+001	-3.145272e+001	-7.731846e+001	-3.430902e-002	1.694709e+000
23.276	-5.063307e-002	1.486081e+000	-3.153680e+001	-7.740212e+001	-3.154242e+001	-7.728516e+001	-3.394740e-002	1.678773e+000
23.538	-5.019053e-002	1.471159e+000	-3.162555e+001	-7.737697e+001	-3.163117e+001	-7.725783e+001	-3.369222e-002	1.663741e+000
23.801	-4.998204e-002	1.456228e+000	-3.171303e+001	-7.734007e+001	-3.171888e+001	-7.722365e+001	-3.329101e-002	1.648506e+000
24.063	-4.957888e-002	1.441363e+000	-3.179961e+001	-7.730574e+001	-3.180511e+001	-7.719031e+001	-3.295560e-002	1.634151e+000
24.325	-4.927344e-002	1.427013e+000	-3.188508e+001	-7.727528e+001	-3.189118e+001	-7.715790e+001	-3.266367e-002	1.619912e+000
24.587	-4.898975e-002	1.412783e+000	-3.197033e+001	-7.724035e+001	-3.197627e+001	-7.712270e+001	-3.230697e-002	1.605344e+000
24.849	-4.869779e-002	1.398670e+000	-3.205490e+001	-7.720642e+001	-3.206031e+001	-7.708879e+001	-3.199027e-002	1.591417e+000
25.111	-4.841031e-002	1.385193e+000	-3.213796e+001	-7.717468e+001	-3.214319e+001	-7.705570e+001	-3.175538e-002	1.577601e+000
25.374	-4.816708e-002	1.372109e+000	-3.221939e+001	-7.713667e+001	-3.222618e+001	-7.702163e+001	-3.152579e-002	1.564665e+000
25.636	-4.788071e-002	1.358869e+000	-3.230093e+001	-7.709996e+001	-3.230699e+001	-7.698469e+001	-3.121536e-002	1.551527e+000
25.898	-4.758426e-002	1.346114e+000	-3.238134e+001	-7.706449e+001	-3.238766e+001	-7.694818e+001	-3.094958e-002	1.538965e+000
26.204	-4.623333e-002	1.330895e+000	-3.248788e+001	-7.728007e+001	-3.249163e+001	-7.714484e+001	-2.966477e-002	1.524082e+000
26.564	-4.709064e-002	1.314494e+000	-3.258449e+001	-7.696830e+001	-3.259081e+001	-7.685860e+001	-3.042177e-002	1.507280e+000
26.924	-4.669404e-002	1.298181e+000	-3.269046e+001	-7.691900e+001	-3.269650e+001	-7.679884e+001	-3.004511e-002	1.491326e+000
27.284	-4.629774e-002	1.283000e+000	-3.279599e+001	-7.686710e+001	-3.280176e+001	-7.674756e+001	-2.965727e-002	1.475269e+000
27.644	-4.610977e-002	1.267276e+000	-3.290015e+001	-7.681804e+001	-3.290610e+001	-7.670089e+001	-2.933563e-002	1.459410e+000
28.004	-4.576650e-002	1.251856e+000	-3.300250e+001	-7.675789e+001	-3.300911e+001	-7.664449e+001	-2.903204e-002	1.444254e+000
28.364	-4.547255e-002	1.237549e+000	-3.310465e+001	-7.670753e+001	-3.311060e+001	-7.659175e+001	-2.878712e-002	1.428869e+000
28.724	-4.521964e-002	1.221945e+000	-3.320438e+001	-7.665508e+001	-3.321049e+001	-7.653586e+001	-2.847919e-002	1.414818e+000
29.084	-4.481911e-002	1.208702e+000	-3.330387e+001	-7.659773e+001	-3.330892e+001	-7.648296e+001	-2.811883e-002	1.400683e+000
29.444	-4.466183e-002	1.195036e+000	-3.340094e+001	-7.654116e+001	-3.340661e+001	-7.642630e+001	-2.794694e-002	1.387749e+000
29.804	-4.441615e-002	1.181758e+000	-3.349626e+001	-7.648306e+001	-3.350186e+001	-7.636585e+001	-2.762961e-002	1.374339e+000
30.164	-4.401313e-002	1.168884e+000	-3.359182e+001	-7.643366e+001	-3.359789e+001	-7.631278e+001	-2.732146e-002	1.361198e+000
30.524	-4.398030e-002	1.155312e+000	-3.368559e+001	-7.637289e+001	-3.369150e+001	-7.625771e+001	-2.700390e-002	1.347885e+000
30.884	-4.365030e-002	1.142796e+000	-3.377832e+001	-7.631225e+001	-3.378446e+001	-7.619560e+001	-2.683172e-002	1.335078e+000
31.244	-4.347409e-002	1.129577e+000	-3.387101e+001	-7.625295e+001	-3.387668e+001	-7.613804e+001	-2.658562e-002	1.322472e+000
31.605	-4.322451e-002	1.117982e+000	-3.396211e+001	-7.619981e+001	-3.396706e+001	-7.607976e+001	-2.634704e-002	1.310898e+000
31.965	-4.299679e-002	1.106157e+000	-3.405032e+001	-7.613029e+001	-3.405641e+001	-7.602210e+001	-2.614177e-002	1.298238e+000
32.325	-4.276045e-002	1.094348e+000	-3.413791e+001	-7.607506e+001	-3.414554e+001	-7.595450e+001	-2.598963e-002	1.286614e+000
32.685	-4.244851e-002	1.083099e+000	-3.422788e+001	-7.601549e+001	-3.423286e+001	-7.590283e+001	-2.570663e-002	1.275464e+000
33.045	-4.228480e-002	1.071961e+000	-3.431324e+001	-7.595074e+001	-3.431981e+001	-7.584283e+001	-2.549303e-002	1.264342e+000
33.405	-4.201740e-002	1.061219e+000	-3.440003e+001	-7.589712e+001	-3.440466e+001	-7.577962e+001	-2.522915e-002	1.253821e+000
33.765	-4.178055e-002	1.050803e+000	-3.448372e+001	-7.583406e+001	-3.449004e+001	-7.572086e+001	-2.510602e-002	1.243458e+000
34.125	-4.165983e-002	1.040181e+000	-3.456759e+001	-7.576528e+001	-3.457390e+001	-7.566342e+001	-2.483485e-002	1.232615e+000
34.485	-4.140171e-002	1.029371e+000	-3.465150e+001	-7.570317e+001	-3.465567e+001	-7.559033e+001	-2.464409e-002	1.222001e+000
34.845	-4.125763e-002	1.020580e+000	-3.473171e+001	-7.565024e+001	-3.473678e+001	-7.552531e+001	-2.445973e-002	1.212319e+000
35.205	-4.100546e-002	1.010919e+000	-3.481254e+001	-7.558509e+001	-3.481885e+001	-7.546747e+001	-2.437189e-002	1.202638e+000
35.565	-4.088228e-002	1.001231e+000	-3.489285e+001	-7.551831e+001	-3.490007e+001	-7.539617e+001	-2.411049e-002	1.192715e+000
35.985	-4.002588e-002	9.902902e-001	-3.499094e+001	-7.563241e+001	-3.499772e+001	-7.550324e+001	-2.338550e-002	1.182440e+000
36.483	-4.040461e-002	9.766480e-001	-3.509596e+001	-7.536679e+001	-3.510300e+001	-7.525632e+001	-2.380321e-002	1.169423e+000
36.980	-4.024358e-002	9.645225e-001	-3.519968e+001	-7.527367e+001	-3.520599e+001	-7.514511e+001	-2.362862e-002	1.156596e+000
37.478	-4.007662e-002	9.534029e-001	-3.530489e+001	-7.519115e+001	-3.530983e+001	-7.506367e+001	-2.342185e-002	1.145327e+000
37.975	-3.989944e-002	9.414781e-001	-3.540799e+001	-7.509281e+001	-3.541462e+001	-7.497890e+001	-2.328291e-002	1.133607e+000
38.473	-3.965541e-002	9.300036e-001	-3.550906e+001	-7.499155e+001	-3.551828e+001	-7.486719e+001	-2.306336e-002	1.121620e+000
38.970	-3.936816e-002	9.185339e-001	-3.561226e+001	-7.490562e+001	-3.561824e+001	-7.478620e+001	-2.294441e-002	1.111707e+000
39.468	-3.927932e-002	9.081975e-001	-3.571024e+001	-7.481537e+001	-3.571693e+001	-7.469832e+001	-2.280336e-002	1.099913e+000
39.965	-3.907580e-002	8.968839e-001	-3.580962e+001	-7.473530e+001	-3.581480e+001	-7.461398e+001	-2.254895e-002	1.090127e+000
40.463	-3.906447e-002	8.868459e-001	-3.590675e+001	-7.464503e+001	-3.591287e+001	-7.452688e+001	-2.234017e-002	1.079234e+000
40.960	-3.888070e-002	8.761994e-001	-3.600262e+001	-7.453394e+001	-3.600875e+001	-7.441733e+001	-2.204656e-002	1.068460e+000
41.458	-3.855293e-002	8.666794e-001	-3.609540e+001	-7.444423e+001	-3.610128e+001	-7.433254e+001	-2.191440e-002	1.059177e+000
41.955	-3.851135e-002	8.561998e-001	-3.618990e+001	-7.436110e+001	-3.619533e+001	-7.424519e+001	-2.175734e-002	1.049240e+000
42.452	-3.842104e-002	8.483435e-001	-3.628116e+001	-7.426144e+001	-3.628546e+001	-7.414524e+001	-2.162532e-002	1.040019e+000
42.950	-3.830902e-002	8.388931e-001	-3.637229e+001	-7.416792e+001	-3.637720e+001	-7.404785e+001	-2.149853e-002	1.030630e+000
43.447	-3.818379e-002	8.292846e-001	-3.646206e+001	-7.407065e+001	-3.646737e+001	-7.395285e+001	-2.139582e-002	1.021443e+000
43.945	-3.799598e-002	8.201092e-001	-3.655082e+001	-7.398254e+001	-3.655626e+001	-7.387318e+001	-2.126648e-002	1.013175e+000
44.442	-3.776253e-002	8.121295e-001	-3.663690e+001	-7.389486e+001	-3.664108e+001	-7.377730e+001	-2.099682e-002	1.004165e+000
44.940	-3.771512e-002	8.032982e-001	-3.672127e+001	-7.379805e+001	-3.672593e+001	-7.367790e+001	-2.090831e-002	9.958864e-001
45.437	-3.764411e-002	7.954576e-001	-3.680523e+001	-7.369666e+001	-3.681151e+001	-7.357863e+001	-2.097124e-002	9.875617e-001
45.935	-3.756462e-002	7.872173e-001	-3.688918e+001	-7.359853e+001	-3.689452e+001	-7.347940e+001	-2.071839e-002	9.790852e-001
46.432	-3.739553e-002	7.791046e-001	-3.697244e+001	-7.351690e+001	-3.697755e+001	-7.339672e+001	-2.060825e-002	9.715663e-001
46.930	-3.724574e-002	7.711109e-001	-3.705545e+001	-7.344527e+001	-3.706010e+001	-7.331887e+001	-2.043939e-002	9.632022e-001
47.427	-3.712515e-002	7.642743e-001	-3.714278e+001	-7.333280e+001	-3.714813e+001	-7.322207e+001	-2.035509e-002	9.557731e-001
47.925	-3.716270e-002	7.561789e-001	-3.722232e+001	-7.319617e+001	-3.722713e+001	-7.308239e+001	-2.023386e-002	9.477239e-001
48.422	-3.698589e-002	7.493197e-001	-3.729382e+001	-7.312616e+001	-3.729886e+001	-7.301084e+001	-2.014151e-002	9.417962e-001
48.920	-3.674243e-002	7.420067e-001	-3.738121e+001	-7.304301e+001	-3.738751e+001	-7.292493e+001	-1.996840e-002	9.340443e-001
49.417	-3.667594e-002	7.349577e-001	-3.745032e+001	-7.290947e+001	-3.745532e+001	-7.280320e+001	-1.998983e-002	9.278800e-001
50.001	-3.639927e-002	7.263767e-001	-3.755166e+001	-7.282377e+001	-3.755528e+001	-7.270802e+001	-1.969937e-002	9.183250e-001
50.688	-3.640650e-002	7.188351e-001	-3.764301e+001	-7.263388e+001	-3.764754e+001	-7.253233e+001	-1.972813e-002	9.096040e-001
51.375	-3.619019e-002	7.094869e-001	-3.774020e+001	-7.254051e+001	-3.774531e+001	-7.244040e+001	-1.945966e-002	9.011751e-001
52.062	-3.606573e-002	7.011701e-001	-3.784657e+001	-7.249685e+001	-3.785402e+001	-7.239158e+001	-1.905102e-002	8.926670e-001
52.749	-3.597205e-002	6.899582e-001	-3.796621e+001	-7.232978e+001	-3.797106e+001	-7.219376e+001	-1.906004e-002	8.818620e-001
53.436	-3.612628e-002	6.828322e-001	-3.804743e+001	-7.204534e+001	-3.804864e+001	-7.194453e+001	-1.922320e-002	8.752122e-001
54.123	-3.542673e-002	6.765337e-001	-3.813759e+001	-7.213004e+001	-3.814771e+001	-7.203035e+001	-1.865572e-002	8.675774e-001
54.810	-3.573687e-002	6.663749e-001	-3.825431e+001	-7.178138e+001	-3.825439e+001	-7.165212e+001	-1.887462e-002	8.578665e-001
55.497	-3.529444e-002	6.605912e-001	-3.832388e+001	-7.189474e+001	-3.833758e+001	-7.179033e+001	-1.837573e-002	8.524440e-001
56.184	-3.565693e-002	6.516716e-001	-3.842282e+001	-7.146768e+001	-3.842101e+001	-7.136609e+001	-1.875685e-002	8.442379e-001
56.871	-3.512803e-002	6.436235e-001	-3.854305e+001	-7.154180e+001	-3.854883e+001	-7.137187e+001	-1.844106e-002	8.347504e-001
57.558	-3.494973e-002	6.392482e-001	-3.859538e+001	-7.151071e+001	-3.861161e+001	-7.141338e+001	-1.804591e-002	8.305151e-001
58.245	-3.519055e-002	6.327759e-001	-3.866830e+001	-7.119393e+001	-3.867352e+001	-7.115277e+001	-1.829374e-002	8.242602e-001
58.932	-3.529741e-002	6.234099e-001	-3.876893e+001	-7.092608e+001	-3.876434e+001	-7.086481e+001	-1.847569e-002	8.171324e-001
59.619	-3.516550e-002	6.163512e-001	-3.886523e+001	-7.074514e+001	-3.885961e+001	-7.067572e+001	-1.835358e-002	8.099672e-001
60.306	-3.511211e-002	6.094534e-001	-3.895092e+001	-7.062035e+001	-3.894364e+001	-7.053881e+001	-1.821742e-002	8.029507e-001
60.993	-3.500980e-002	6.044646e-001	-3.902529e+001	-7.050264e+001	-3.901985e+001	-7.046163e+001	-1.815677e-002	7.976348e-001
61.680	-3.475257e-002	5.996387e-001	-3.909145e+001	-7.049897e+001	-3.909671e+001	-7.049493e+001	-1.790756e-002	7.919140e-001
62.367	-3.438735e-002	5.929140e-001	-3.918512e+001	-7.057968e+001	-3.920350e+001	-7.049551e+001	-1.743663e-002	7.842352e-001
63.054	-3.439132e-002	5.848745e-001	-3.930626e+001	-7.041571e+001	-3.931700e+001	-7.018452e+001	-1.759404e-002	7.756581e-001
