!Agilent Technologies,E5061B,MY49204007,A.02.12
!Date: Wed Jul 23 11:35:48 2025
!Data & Calibration Information:
!Freq	S11:SOLT2(ON)	S21:SOLT2(ON)	S12:SOLT2(ON)	S22:SOLT2(ON)
# Hz S dB R 50
10.000	-9.401644e-002	3.211159e+000	-2.491068e+001	-7.788235e+001	-2.491709e+001	-7.777280e+001	-7.715087e-002	3.404024e+000
10.137	-9.274959e-002	3.168203e+000	-2.502926e+001	-7.790758e+001	-2.503423e+001	-7.778582e+001	-7.604601e-002	3.360510e+000
10.275	-9.166503e-002	3.128554e+000	-2.513751e+001	-7.791091e+001	-2.514123e+001	-7.778985e+001	-7.494303e-002	3.320997e+000
10.412	-9.063442e-002	3.090585e+000	-2.524319e+001	-7.791712e+001	-2.524652e+001	-7.779630e+001	-7.394449e-002	3.282238e+000
10.550	-8.975372e-002	3.053700e+000	-2.534607e+001	-7.792458e+001	-2.534905e+001	-7.780353e+001	-7.299225e-002	3.245306e+000
10.687	-8.889518e-002	3.017944e+000	-2.544719e+001	-7.793060e+001	-2.545040e+001	-7.781064e+001	-7.212048e-002	3.209306e+000
10.824	-8.803269e-002	2.983437e+000	-2.554633e+001	-7.793706e+001	-2.555008e+001	-7.782029e+001	-7.104656e-002	3.174344e+000
10.962	-8.706604e-002	2.949409e+000	-2.564574e+001	-7.794125e+001	-2.564883e+001	-7.781723e+001	-7.036520e-002	3.140914e+000
11.099	-8.636552e-002	2.916795e+000	-2.574104e+001	-7.794270e+001	-2.574473e+001	-7.782205e+001	-6.946508e-002	3.108352e+000
11.237	-8.552672e-002	2.884006e+000	-2.583752e+001	-7.794342e+001	-2.584044e+001	-7.782030e+001	-6.872543e-002	3.075933e+000
11.374	-8.461113e-002	2.853036e+000	-2.593207e+001	-7.794878e+001	-2.593536e+001	-7.782487e+001	-6.783520e-002	3.044259e+000
11.511	-8.388222e-002	2.822601e+000	-2.602498e+001	-7.795181e+001	-2.602829e+001	-7.782579e+001	-6.699064e-002	3.013154e+000
11.649	-8.304539e-002	2.792166e+000	-2.611702e+001	-7.795356e+001	-2.612068e+001	-7.782736e+001	-6.629269e-002	2.983854e+000
11.786	-8.245586e-002	2.762514e+000	-2.620815e+001	-7.795110e+001	-2.621121e+001	-7.782511e+001	-6.567064e-002	2.954717e+000
11.924	-8.171147e-002	2.734288e+000	-2.629716e+001	-7.794907e+001	-2.630027e+001	-7.782740e+001	-6.490849e-002	2.925622e+000
12.061	-8.087051e-002	2.706108e+000	-2.638629e+001	-7.795401e+001	-2.638985e+001	-7.782806e+001	-6.413330e-002	2.898206e+000
12.198	-8.028054e-002	2.678553e+000	-2.647338e+001	-7.794709e+001	-2.647692e+001	-7.782809e+001	-6.337975e-002	2.870083e+000
12.336	-7.960777e-002	2.651151e+000	-2.656102e+001	-7.794645e+001	-2.656407e+001	-7.782322e+001	-6.264734e-002	2.843420e+000
12.473	-7.895426e-002	2.625011e+000	-2.664684e+001	-7.794808e+001	-2.665024e+001	-7.782172e+001	-6.199269e-002	2.817375e+000
12.611	-7.839550e-002	2.599386e+000	-2.673176e+001	-7.794744e+001	-2.673527e+001	-7.782055e+001	-6.130759e-002	2.791560e+000
12.748	-7.783115e-002	2.574350e+000	-2.681602e+001	-7.794247e+001	-2.681903e+001	-7.781733e+001	-6.067910e-002	2.765976e+000
12.885	-7.723102e-002	2.549386e+000	-2.689860e+001	-7.793823e+001	-2.690167e+001	-7.781606e+001	-6.008540e-002	2.741264e+000
13.023	-7.650628e-002	2.525603e+000	-2.698056e+001	-7.793960e+001	-2.698465e+001	-7.781712e+001	-5.952297e-002	2.716838e+000
13.160	-7.602239e-002	2.501357e+000	-2.706263e+001	-7.793177e+001	-2.706563e+001	-7.780886e+001	-5.892853e-002	2.692898e+000
13.298	-7.543475e-002	2.477994e+000	-2.714308e+001	-7.793292e+001	-2.714702e+001	-7.780948e+001	-5.838657e-002	2.669895e+000
13.435	-7.479971e-002	2.455472e+000	-2.722256e+001	-7.792774e+001	-2.722629e+001	-7.780668e+001	-5.777073e-002	2.647244e+000
13.572	-7.428471e-002	2.432897e+000	-2.730143e+001	-7.792269e+001	-2.730555e+001	-7.780175e+001	-5.730259e-002	2.624673e+000
13.733	-7.444550e-002	2.406717e+000	-2.739058e+001	-7.779366e+001	-2.739793e+001	-7.786994e+001	-5.631712e-002	2.599542e+000
13.923	-7.291945e-002	2.378116e+000	-2.749952e+001	-7.791048e+001	-2.750438e+001	-7.779292e+001	-5.605436e-002	2.569471e+000
14.112	-7.221323e-002	2.348878e+000	-2.760561e+001	-7.790177e+001	-2.760966e+001	-7.777893e+001	-5.539304e-002	2.540285e+000
14.302	-7.158687e-002	2.320899e+000	-2.770900e+001	-7.789700e+001	-2.771332e+001	-7.777667e+001	-5.475230e-002	2.512339e+000
14.492	-7.084856e-002	2.292739e+000	-2.781130e+001	-7.788487e+001	-2.781583e+001	-7.776386e+001	-5.413482e-002	2.484740e+000
14.682	-7.015286e-002	2.266006e+000	-2.791273e+001	-7.787699e+001	-2.791725e+001	-7.775393e+001	-5.343989e-002	2.458064e+000
14.872	-6.950902e-002	2.240038e+000	-2.801293e+001	-7.786989e+001	-2.801715e+001	-7.774648e+001	-5.272271e-002	2.431393e+000
15.062	-6.892187e-002	2.214232e+000	-2.811169e+001	-7.786218e+001	-2.811609e+001	-7.774109e+001	-5.214694e-002	2.405666e+000
15.251	-6.817736e-002	2.189289e+000	-2.820981e+001	-7.784748e+001	-2.821440e+001	-7.772655e+001	-5.148555e-002	2.381002e+000
15.441	-6.762598e-002	2.164614e+000	-2.830621e+001	-7.784245e+001	-2.831080e+001	-7.771831e+001	-5.090420e-002	2.356554e+000
15.631	-6.708473e-002	2.141527e+000	-2.840097e+001	-7.783095e+001	-2.840561e+001	-7.770673e+001	-5.026783e-002	2.332902e+000
15.821	-6.654908e-002	2.117756e+000	-2.849554e+001	-7.781830e+001	-2.850017e+001	-7.769382e+001	-4.976150e-002	2.309507e+000
16.011	-6.594232e-002	2.094928e+000	-2.858912e+001	-7.780584e+001	-2.859374e+001	-7.768335e+001	-4.923512e-002	2.286256e+000
16.201	-6.544192e-002	2.072579e+000	-2.868114e+001	-7.779059e+001	-2.868587e+001	-7.766752e+001	-4.869667e-002	2.264404e+000
16.391	-6.483261e-002	2.050629e+000	-2.877181e+001	-7.777898e+001	-2.877663e+001	-7.765892e+001	-4.816054e-002	2.242121e+000
16.580	-6.446356e-002	2.029277e+000	-2.886172e+001	-7.776347e+001	-2.886646e+001	-7.764118e+001	-4.766940e-002	2.221032e+000
16.770	-6.389768e-002	2.008801e+000	-2.895116e+001	-7.774788e+001	-2.895560e+001	-7.762639e+001	-4.725091e-002	2.200140e+000
16.960	-6.343375e-002	1.987436e+000	-2.903934e+001	-7.773313e+001	-2.904374e+001	-7.761173e+001	-4.666146e-002	2.179869e+000
17.150	-6.270728e-002	1.968370e+000	-2.912439e+001	-7.774746e+001	-2.912925e+001	-7.763216e+001	-4.609403e-002	2.160437e+000
17.340	-6.243816e-002	1.948404e+000	-2.921137e+001	-7.770422e+001	-2.921569e+001	-7.758196e+001	-4.566430e-002	2.140590e+000
17.530	-6.195288e-002	1.928745e+000	-2.929648e+001	-7.768889e+001	-2.930128e+001	-7.756585e+001	-4.519847e-002	2.121202e+000
17.720	-6.151398e-002	1.910141e+000	-2.938123e+001	-7.767212e+001	-2.938606e+001	-7.754984e+001	-4.473509e-002	2.102177e+000
17.909	-6.104758e-002	1.891451e+000	-2.946502e+001	-7.765591e+001	-2.947009e+001	-7.753393e+001	-4.430698e-002	2.083778e+000
18.099	-6.059396e-002	1.873160e+000	-2.954785e+001	-7.764013e+001	-2.955296e+001	-7.751805e+001	-4.384235e-002	2.065265e+000
18.289	-6.014934e-002	1.855127e+000	-2.963039e+001	-7.762177e+001	-2.963536e+001	-7.750081e+001	-4.342681e-002	2.047529e+000
18.479	-5.970179e-002	1.837784e+000	-2.971079e+001	-7.760414e+001	-2.971614e+001	-7.748233e+001	-4.296636e-002	2.030012e+000
18.669	-5.937198e-002	1.820509e+000	-2.979160e+001	-7.758473e+001	-2.979686e+001	-7.746283e+001	-4.267246e-002	2.012548e+000
18.859	-5.902945e-002	1.804060e+000	-2.987105e+001	-7.756710e+001	-2.987652e+001	-7.744423e+001	-4.220707e-002	1.995536e+000
19.082	-6.032428e-002	1.783345e+000	-2.995791e+001	-7.720463e+001	-2.996553e+001	-7.710075e+001	-4.354554e-002	1.975386e+000
19.344	-5.811304e-002	1.762057e+000	-3.007398e+001	-7.752955e+001	-3.007818e+001	-7.740866e+001	-4.122641e-002	1.953649e+000
19.606	-5.759703e-002	1.740913e+000	-3.017812e+001	-7.748957e+001	-3.018341e+001	-7.736888e+001	-4.082032e-002	1.931743e+000
19.868	-5.725057e-002	1.719669e+000	-3.028274e+001	-7.746817e+001	-3.028739e+001	-7.734752e+001	-4.032544e-002	1.910544e+000
20.130	-5.679243e-002	1.698802e+000	-3.038577e+001	-7.743536e+001	-3.039066e+001	-7.731188e+001	-3.992537e-002	1.890470e+000
20.392	-5.627422e-002	1.678819e+000	-3.048760e+001	-7.740451e+001	-3.049324e+001	-7.728371e+001	-3.944479e-002	1.870666e+000
20.655	-5.583190e-002	1.658845e+000	-3.058848e+001	-7.737442e+001	-3.059420e+001	-7.725374e+001	-3.906574e-002	1.850908e+000
20.917	-5.547340e-002	1.640150e+000	-3.068775e+001	-7.734707e+001	-3.069330e+001	-7.722354e+001	-3.864194e-002	1.831543e+000
21.179	-5.499436e-002	1.621058e+000	-3.078682e+001	-7.731708e+001	-3.079231e+001	-7.719259e+001	-3.814482e-002	1.812272e+000
21.441	-5.467008e-002	1.602573e+000	-3.088312e+001	-7.728428e+001	-3.088890e+001	-7.716307e+001	-3.774975e-002	1.794172e+000
21.703	-5.428195e-002	1.584187e+000	-3.097926e+001	-7.724815e+001	-3.098507e+001	-7.712745e+001	-3.727398e-002	1.776256e+000
21.965	-5.389240e-002	1.566833e+000	-3.107459e+001	-7.721676e+001	-3.108019e+001	-7.709293e+001	-3.693092e-002	1.759018e+000
22.228	-5.349798e-002	1.549794e+000	-3.116823e+001	-7.718164e+001	-3.117398e+001	-7.706078e+001	-3.657939e-002	1.741820e+000
22.490	-5.323358e-002	1.533600e+000	-3.126068e+001	-7.714938e+001	-3.126609e+001	-7.702981e+001	-3.619423e-002	1.724822e+000
22.752	-5.276835e-002	1.516879e+000	-3.135199e+001	-7.711955e+001	-3.135790e+001	-7.699497e+001	-3.587359e-002	1.708238e+000
23.014	-5.253980e-002	1.501173e+000	-3.144271e+001	-7.707903e+001	-3.144848e+001	-7.695619e+001	-3.553354e-002	1.692476e+000
23.276	-5.207514e-002	1.485030e+000	-3.153240e+001	-7.704518e+001	-3.153833e+001	-7.692242e+001	-3.520184e-002	1.676879e+000
23.538	-5.177809e-002	1.469338e+000	-3.162152e+001	-7.700744e+001	-3.162684e+001	-7.688696e+001	-3.484903e-002	1.661623e+000
23.801	-5.143598e-002	1.454170e+000	-3.170879e+001	-7.697124e+001	-3.171500e+001	-7.685129e+001	-3.453967e-002	1.646901e+000
24.063	-5.116031e-002	1.439705e+000	-3.179551e+001	-7.693274e+001	-3.180113e+001	-7.681253e+001	-3.416429e-002	1.632373e+000
24.325	-5.075662e-002	1.425421e+000	-3.188090e+001	-7.689958e+001	-3.188639e+001	-7.677974e+001	-3.386451e-002	1.617817e+000
24.587	-5.046670e-002	1.411294e+000	-3.196605e+001	-7.686161e+001	-3.197170e+001	-7.673690e+001	-3.351520e-002	1.603847e+000
24.849	-5.015812e-002	1.397215e+000	-3.205002e+001	-7.682370e+001	-3.205567e+001	-7.670302e+001	-3.326600e-002	1.589616e+000
25.111	-4.988587e-002	1.383789e+000	-3.213289e+001	-7.678371e+001	-3.213872e+001	-7.666292e+001	-3.306494e-002	1.576571e+000
25.374	-4.967727e-002	1.370877e+000	-3.221522e+001	-7.674400e+001	-3.222062e+001	-7.662567e+001	-3.280521e-002	1.563036e+000
25.636	-4.934524e-002	1.357647e+000	-3.229587e+001	-7.670595e+001	-3.230170e+001	-7.658361e+001	-3.257841e-002	1.550275e+000
25.898	-4.905579e-002	1.345249e+000	-3.237687e+001	-7.666554e+001	-3.238236e+001	-7.654368e+001	-3.238941e-002	1.537505e+000
26.204	-4.773275e-002	1.330355e+000	-3.248256e+001	-7.687347e+001	-3.248635e+001	-7.673971e+001	-3.105264e-002	1.522428e+000
26.564	-4.857305e-002	1.313575e+000	-3.257885e+001	-7.655758e+001	-3.258546e+001	-7.644265e+001	-3.168760e-002	1.505962e+000
26.924	-4.820819e-002	1.297244e+000	-3.268481e+001	-7.650451e+001	-3.269084e+001	-7.638217e+001	-3.136649e-002	1.488900e+000
27.284	-4.786547e-002	1.281164e+000	-3.279045e+001	-7.644627e+001	-3.279651e+001	-7.632674e+001	-3.103356e-002	1.473537e+000
27.644	-4.757541e-002	1.265465e+000	-3.289391e+001	-7.638817e+001	-3.290034e+001	-7.627656e+001	-3.065649e-002	1.457354e+000
28.004	-4.722663e-002	1.250138e+000	-3.299673e+001	-7.632658e+001	-3.300244e+001	-7.620852e+001	-3.036081e-002	1.442107e+000
28.364	-4.683606e-002	1.234919e+000	-3.309916e+001	-7.627155e+001	-3.310477e+001	-7.615012e+001	-3.007467e-002	1.427598e+000
28.724	-4.664990e-002	1.220562e+000	-3.319851e+001	-7.621259e+001	-3.320452e+001	-7.609231e+001	-2.973894e-002	1.412843e+000
29.084	-4.631306e-002	1.206802e+000	-3.329734e+001	-7.615076e+001	-3.330296e+001	-7.603103e+001	-2.954823e-002	1.399214e+000
29.444	-4.610496e-002	1.193706e+000	-3.339418e+001	-7.608820e+001	-3.340023e+001	-7.596851e+001	-2.935926e-002	1.385922e+000
29.804	-4.594211e-002	1.180605e+000	-3.348985e+001	-7.602489e+001	-3.349598e+001	-7.590474e+001	-2.899222e-002	1.372842e+000
30.164	-4.563777e-002	1.166936e+000	-3.358581e+001	-7.596681e+001	-3.359153e+001	-7.584816e+001	-2.870167e-002	1.359719e+000
30.524	-4.556537e-002	1.154271e+000	-3.367895e+001	-7.590504e+001	-3.368454e+001	-7.577488e+001	-2.851999e-002	1.346226e+000
30.884	-4.516248e-002	1.141264e+000	-3.377269e+001	-7.583802e+001	-3.377765e+001	-7.571750e+001	-2.809830e-002	1.333781e+000
31.244	-4.485488e-002	1.128726e+000	-3.386401e+001	-7.577509e+001	-3.386992e+001	-7.565297e+001	-2.789733e-002	1.321217e+000
31.605	-4.468642e-002	1.116527e+000	-3.395450e+001	-7.570834e+001	-3.395991e+001	-7.558905e+001	-2.759759e-002	1.309055e+000
31.965	-4.442694e-002	1.104591e+000	-3.404338e+001	-7.564194e+001	-3.404877e+001	-7.552870e+001	-2.741832e-002	1.296724e+000
32.325	-4.422032e-002	1.092968e+000	-3.413126e+001	-7.558755e+001	-3.413725e+001	-7.545983e+001	-2.711098e-002	1.284974e+000
32.685	-4.386117e-002	1.081825e+000	-3.421875e+001	-7.551664e+001	-3.422541e+001	-7.539260e+001	-2.701560e-002	1.273321e+000
33.045	-4.376981e-002	1.070205e+000	-3.430501e+001	-7.544216e+001	-3.431172e+001	-7.533286e+001	-2.674481e-002	1.262325e+000
33.405	-4.358406e-002	1.059354e+000	-3.439183e+001	-7.538089e+001	-3.439703e+001	-7.525849e+001	-2.659271e-002	1.252184e+000
33.765	-4.330964e-002	1.048935e+000	-3.447503e+001	-7.531328e+001	-3.448238e+001	-7.519818e+001	-2.642360e-002	1.241356e+000
34.125	-4.305130e-002	1.038078e+000	-3.455926e+001	-7.524071e+001	-3.456448e+001	-7.512984e+001	-2.619812e-002	1.230797e+000
34.485	-4.284417e-002	1.028508e+000	-3.464246e+001	-7.518221e+001	-3.464690e+001	-7.506033e+001	-2.597134e-002	1.220175e+000
34.845	-4.269620e-002	1.018773e+000	-3.472442e+001	-7.512294e+001	-3.472930e+001	-7.499481e+001	-2.580984e-002	1.210540e+000
35.205	-4.239060e-002	1.009014e+000	-3.480342e+001	-7.504543e+001	-3.481116e+001	-7.493092e+001	-2.559554e-002	1.200935e+000
35.565	-4.230812e-002	9.989899e-001	-3.488416e+001	-7.497972e+001	-3.489083e+001	-7.485815e+001	-2.547255e-002	1.190919e+000
35.985	-4.153467e-002	9.886451e-001	-3.498228e+001	-7.509361e+001	-3.498936e+001	-7.496494e+001	-2.483971e-002	1.181008e+000
36.483	-4.193971e-002	9.755075e-001	-3.508554e+001	-7.480319e+001	-3.509264e+001	-7.470708e+001	-2.513316e-002	1.167554e+000
36.980	-4.169689e-002	9.632581e-001	-3.519176e+001	-7.470906e+001	-3.519604e+001	-7.457618e+001	-2.490126e-002	1.155595e+000
37.478	-4.139072e-002	9.512293e-001	-3.529675e+001	-7.461811e+001	-3.530168e+001	-7.447044e+001	-2.488955e-002	1.143606e+000
37.975	-4.137027e-002	9.397426e-001	-3.540015e+001	-7.452216e+001	-3.540438e+001	-7.439226e+001	-2.458870e-002	1.131230e+000
38.473	-4.112038e-002	9.283139e-001	-3.549953e+001	-7.442415e+001	-3.550832e+001	-7.428849e+001	-2.444654e-002	1.120741e+000
38.970	-4.097108e-002	9.175136e-001	-3.560220e+001	-7.432390e+001	-3.560942e+001	-7.418018e+001	-2.426836e-002	1.109390e+000
39.468	-4.076477e-002	9.062461e-001	-3.570268e+001	-7.422681e+001	-3.570730e+001	-7.409382e+001	-2.390717e-002	1.098422e+000
39.965	-4.067233e-002	8.958236e-001	-3.580126e+001	-7.412198e+001	-3.580367e+001	-7.399303e+001	-2.389298e-002	1.088422e+000
40.463	-4.049825e-002	8.850130e-001	-3.589509e+001	-7.401018e+001	-3.590056e+001	-7.390151e+001	-2.371271e-002	1.077696e+000
40.960	-4.042017e-002	8.747706e-001	-3.598882e+001	-7.391707e+001	-3.599651e+001	-7.380699e+001	-2.349517e-002	1.066955e+000
41.458	-4.009534e-002	8.644438e-001	-3.608548e+001	-7.381857e+001	-3.609036e+001	-7.369561e+001	-2.326285e-002	1.057811e+000
41.955	-3.998421e-002	8.543389e-001	-3.617629e+001	-7.371956e+001	-3.618231e+001	-7.360765e+001	-2.317986e-002	1.047770e+000
42.452	-3.988963e-002	8.458658e-001	-3.626810e+001	-7.362100e+001	-3.627428e+001	-7.349967e+001	-2.313182e-002	1.038541e+000
42.950	-3.979516e-002	8.361099e-001	-3.635942e+001	-7.352089e+001	-3.636428e+001	-7.339635e+001	-2.283236e-002	1.029220e+000
43.447	-3.965151e-002	8.273197e-001	-3.644728e+001	-7.341964e+001	-3.645392e+001	-7.330054e+001	-2.281532e-002	1.020177e+000
43.945	-3.960887e-002	8.183399e-001	-3.653648e+001	-7.330950e+001	-3.654066e+001	-7.320610e+001	-2.263988e-002	1.011245e+000
44.442	-3.944808e-002	8.096430e-001	-3.662523e+001	-7.321132e+001	-3.662738e+001	-7.309010e+001	-2.255377e-002	1.003132e+000
44.940	-3.924008e-002	8.014268e-001	-3.671167e+001	-7.311550e+001	-3.671486e+001	-7.297190e+001	-2.236563e-002	9.941228e-001
45.437	-3.905166e-002	7.933500e-001	-3.679633e+001	-7.302759e+001	-3.680034e+001	-7.287679e+001	-2.222242e-002	9.855807e-001
45.935	-3.900231e-002	7.848051e-001	-3.688028e+001	-7.292797e+001	-3.688472e+001	-7.276963e+001	-2.216028e-002	9.775896e-001
46.432	-3.893685e-002	7.765382e-001	-3.696447e+001	-7.281522e+001	-3.696554e+001	-7.266004e+001	-2.212262e-002	9.694614e-001
46.930	-3.888367e-002	7.690377e-001	-3.704682e+001	-7.268659e+001	-3.704414e+001	-7.256991e+001	-2.192913e-002	9.613227e-001
47.427	-3.874750e-002	7.623370e-001	-3.712097e+001	-7.257202e+001	-3.712505e+001	-7.250417e+001	-2.179647e-002	9.542237e-001
47.925	-3.856861e-002	7.556013e-001	-3.719951e+001	-7.251323e+001	-3.721203e+001	-7.240691e+001	-2.157260e-002	9.465183e-001
48.422	-3.836153e-002	7.473414e-001	-3.728711e+001	-7.241715e+001	-3.728883e+001	-7.224060e+001	-2.159110e-002	9.390702e-001
48.920	-3.835922e-002	7.409171e-001	-3.735776e+001	-7.226951e+001	-3.736270e+001	-7.220428e+001	-2.137420e-002	9.324800e-001
49.417	-3.814795e-002	7.340288e-001	-3.744063e+001	-7.221291e+001	-3.744589e+001	-7.205224e+001	-2.127101e-002	9.251129e-001
50.001	-3.779453e-002	7.250796e-001	-3.753238e+001	-7.215949e+001	-3.754737e+001	-7.200281e+001	-2.101273e-002	9.168967e-001
50.688	-3.773801e-002	7.159954e-001	-3.763142e+001	-7.198792e+001	-3.764408e+001	-7.180529e+001	-2.094507e-002	9.076519e-001
51.375	-3.766992e-002	7.063225e-001	-3.774301e+001	-7.182028e+001	-3.774386e+001	-7.160067e+001	-2.100249e-002	8.982982e-001
52.062	-3.768047e-002	6.975514e-001	-3.784214e+001	-7.157735e+001	-3.783004e+001	-7.146791e+001	-2.084523e-002	8.912084e-001
52.749	-3.768457e-002	6.907594e-001	-3.792104e+001	-7.144887e+001	-3.792986e+001	-7.146519e+001	-2.037396e-002	8.827506e-001
53.436	-3.712103e-002	6.811392e-001	-3.803054e+001	-7.147223e+001	-3.805358e+001	-7.124428e+001	-2.038415e-002	8.722729e-001
54.123	-3.728928e-002	6.721326e-001	-3.813825e+001	-7.110182e+001	-3.811739e+001	-7.101606e+001	-2.061558e-002	8.665161e-001
54.810	-3.693833e-002	6.671986e-001	-3.820557e+001	-7.117854e+001	-3.823988e+001	-7.105483e+001	-1.999012e-002	8.574492e-001
55.497	-3.724694e-002	6.570436e-001	-3.832652e+001	-7.079447e+001	-3.830165e+001	-7.072269e+001	-2.030865e-002	8.504043e-001
56.184	-3.665070e-002	6.500541e-001	-3.840917e+001	-7.095620e+001	-3.843747e+001	-7.066292e+001	-1.997972e-002	8.403192e-001
56.871	-3.716067e-002	6.442759e-001	-3.847247e+001	-7.057063e+001	-3.848831e+001	-7.066862e+001	-1.967794e-002	8.370389e-001
57.558	-3.689660e-002	6.341082e-001	-3.859975e+001	-7.032866e+001	-3.857023e+001	-7.026388e+001	-1.986751e-002	8.300214e-001
58.245	-3.646764e-002	6.266490e-001	-3.870356e+001	-7.038719e+001	-3.869110e+001	-7.005760e+001	-1.989096e-002	8.196367e-001
58.932	-3.624143e-002	6.206325e-001	-3.877783e+001	-7.038502e+001	-3.879305e+001	-7.001451e+001	-1.957759e-002	8.122816e-001
59.619	-3.595904e-002	6.153564e-001	-3.885364e+001	-7.027562e+001	-3.888247e+001	-6.995628e+001	-1.931551e-002	8.057064e-001
60.306	-3.598482e-002	6.085003e-001	-3.893614e+001	-7.013439e+001	-3.896859e+001	-6.982221e+001	-1.922050e-002	7.989536e-001
60.993	-3.597193e-002	6.012041e-001	-3.903230e+001	-6.996115e+001	-3.904956e+001	-6.960230e+001	-1.922843e-002	7.924462e-001
61.680	-3.591108e-002	5.936382e-001	-3.912798e+001	-6.967652e+001	-3.911599e+001	-6.934564e+001	-1.942791e-002	7.871586e-001
62.367	-3.637283e-002	5.882495e-001	-3.919241e+001	-6.934544e+001	-3.916160e+001	-6.924540e+001	-1.940509e-002	7.830290e-001
63.054	-3.623873e-002	5.847841e-001	-3.923074e+001	-6.928497e+001	-3.924228e+001	-6.938799e+001	-1.883153e-002	7.785486e-001
