!Agilent Technologies,E5061B,MY49204007,A.02.12
!Date: Wed Jul 23 11:40:30 2025
!Data & Calibration Information:
!Freq	S11:SOLT2(ON)	S21:SOLT2(ON)	S12:SOLT2(ON)	S22:SOLT2(ON)
# Hz S dB R 50
10.000	-9.526953e-002	3.209832e+000	-2.490947e+001	-7.774292e+001	-2.491578e+001	-7.762871e+001	-7.816704e-002	3.405746e+000
10.137	-9.402744e-002	3.167003e+000	-2.502798e+001	-7.776434e+001	-2.503317e+001	-7.764059e+001	-7.702802e-002	3.361437e+000
10.275	-9.301679e-002	3.127188e+000	-2.513633e+001	-7.776721e+001	-2.513995e+001	-7.764163e+001	-7.597256e-002	3.322190e+000
10.412	-9.197046e-002	3.088881e+000	-2.524186e+001	-7.777117e+001	-2.524497e+001	-7.764646e+001	-7.502034e-002	3.283313e+000
10.550	-9.111545e-002	3.052118e+000	-2.534468e+001	-7.777673e+001	-2.534782e+001	-7.765026e+001	-7.406580e-002	3.246901e+000
10.687	-9.021586e-002	3.016190e+000	-2.544577e+001	-7.778063e+001	-2.544906e+001	-7.765674e+001	-7.310377e-002	3.210915e+000
10.824	-8.938724e-002	2.981654e+000	-2.554473e+001	-7.778702e+001	-2.554884e+001	-7.766357e+001	-7.218965e-002	3.176086e+000
10.962	-8.835342e-002	2.947807e+000	-2.564370e+001	-7.778791e+001	-2.564736e+001	-7.765935e+001	-7.135433e-002	3.142156e+000
11.099	-8.766757e-002	2.915246e+000	-2.573964e+001	-7.778756e+001	-2.574312e+001	-7.766472e+001	-7.053757e-002	3.109833e+000
11.237	-8.676888e-002	2.882364e+000	-2.583579e+001	-7.778482e+001	-2.583877e+001	-7.765857e+001	-6.979674e-002	3.077446e+000
11.374	-8.587727e-002	2.850711e+000	-2.593045e+001	-7.779135e+001	-2.593374e+001	-7.766006e+001	-6.888645e-002	3.045913e+000
11.511	-8.512299e-002	2.820665e+000	-2.602339e+001	-7.779051e+001	-2.602697e+001	-7.766080e+001	-6.813072e-002	3.015459e+000
11.649	-8.432937e-002	2.790672e+000	-2.611509e+001	-7.778763e+001	-2.611909e+001	-7.766063e+001	-6.745293e-002	2.985198e+000
11.786	-8.370951e-002	2.761419e+000	-2.620620e+001	-7.778564e+001	-2.620973e+001	-7.765747e+001	-6.667556e-002	2.956019e+000
11.924	-8.296216e-002	2.733226e+000	-2.629529e+001	-7.778165e+001	-2.629866e+001	-7.765765e+001	-6.588624e-002	2.927433e+000
12.061	-8.213889e-002	2.704822e+000	-2.638457e+001	-7.778462e+001	-2.638838e+001	-7.765484e+001	-6.515917e-002	2.899204e+000
12.198	-8.156519e-002	2.677588e+000	-2.647159e+001	-7.777662e+001	-2.647538e+001	-7.765383e+001	-6.445374e-002	2.871947e+000
12.336	-8.088949e-002	2.650148e+000	-2.655921e+001	-7.777354e+001	-2.656264e+001	-7.764604e+001	-6.380597e-002	2.844666e+000
12.473	-8.015398e-002	2.623628e+000	-2.664511e+001	-7.777162e+001	-2.664853e+001	-7.764372e+001	-6.307192e-002	2.818116e+000
12.611	-7.956169e-002	2.598025e+000	-2.672994e+001	-7.776866e+001	-2.673352e+001	-7.764070e+001	-6.238628e-002	2.792820e+000
12.748	-7.901417e-002	2.572796e+000	-2.681389e+001	-7.776256e+001	-2.681737e+001	-7.763469e+001	-6.175044e-002	2.767425e+000
12.885	-7.845018e-002	2.548025e+000	-2.689674e+001	-7.775888e+001	-2.690019e+001	-7.763159e+001	-6.114422e-002	2.742659e+000
13.023	-7.770340e-002	2.524438e+000	-2.697887e+001	-7.775666e+001	-2.698288e+001	-7.763034e+001	-6.060278e-002	2.718376e+000
13.160	-7.720708e-002	2.500197e+000	-2.706082e+001	-7.774816e+001	-2.706425e+001	-7.762116e+001	-5.994353e-002	2.694410e+000
13.298	-7.654100e-002	2.477326e+000	-2.714091e+001	-7.774626e+001	-2.714515e+001	-7.761899e+001	-5.935740e-002	2.671273e+000
13.435	-7.597191e-002	2.454621e+000	-2.722018e+001	-7.773913e+001	-2.722454e+001	-7.761422e+001	-5.886613e-002	2.648550e+000
13.572	-7.554927e-002	2.431854e+000	-2.729925e+001	-7.773290e+001	-2.730339e+001	-7.760755e+001	-5.830892e-002	2.625961e+000
13.733	-7.573483e-002	2.405888e+000	-2.738863e+001	-7.760222e+001	-2.739583e+001	-7.767509e+001	-5.736938e-002	2.600757e+000
13.923	-7.416385e-002	2.376518e+000	-2.749727e+001	-7.771758e+001	-2.750233e+001	-7.759404e+001	-5.710258e-002	2.571181e+000
14.112	-7.340025e-002	2.347400e+000	-2.760325e+001	-7.770559e+001	-2.760798e+001	-7.758054e+001	-5.641279e-002	2.541578e+000
14.302	-7.273089e-002	2.319226e+000	-2.770669e+001	-7.769880e+001	-2.771116e+001	-7.757288e+001	-5.571065e-002	2.513502e+000
14.492	-7.207652e-002	2.291733e+000	-2.780908e+001	-7.768406e+001	-2.781374e+001	-7.755764e+001	-5.503121e-002	2.486047e+000
14.682	-7.139990e-002	2.264768e+000	-2.791061e+001	-7.767214e+001	-2.791529e+001	-7.754520e+001	-5.443461e-002	2.459024e+000
14.872	-7.070332e-002	2.238435e+000	-2.801078e+001	-7.766141e+001	-2.801540e+001	-7.753538e+001	-5.384089e-002	2.433068e+000
15.062	-7.007536e-002	2.212920e+000	-2.810951e+001	-7.765139e+001	-2.811423e+001	-7.752696e+001	-5.318557e-002	2.407577e+000
15.251	-6.942632e-002	2.187528e+000	-2.820755e+001	-7.763437e+001	-2.821226e+001	-7.750868e+001	-5.254223e-002	2.382331e+000
15.441	-6.886326e-002	2.162964e+000	-2.830373e+001	-7.762671e+001	-2.830836e+001	-7.750086e+001	-5.193147e-002	2.357412e+000
15.631	-6.833542e-002	2.139521e+000	-2.839892e+001	-7.761030e+001	-2.840342e+001	-7.748643e+001	-5.139512e-002	2.333819e+000
15.821	-6.774788e-002	2.115811e+000	-2.849308e+001	-7.759659e+001	-2.849797e+001	-7.747006e+001	-5.079920e-002	2.310343e+000
16.011	-6.719475e-002	2.093503e+000	-2.858644e+001	-7.758127e+001	-2.859140e+001	-7.745691e+001	-5.022908e-002	2.287009e+000
16.201	-6.666719e-002	2.071167e+000	-2.867867e+001	-7.756422e+001	-2.868344e+001	-7.743952e+001	-4.962995e-002	2.265009e+000
16.391	-6.616080e-002	2.049395e+000	-2.876931e+001	-7.755063e+001	-2.877427e+001	-7.742458e+001	-4.910683e-002	2.243461e+000
16.580	-6.572930e-002	2.027993e+000	-2.885924e+001	-7.753326e+001	-2.886427e+001	-7.740876e+001	-4.861218e-002	2.222167e+000
16.770	-6.522960e-002	2.007280e+000	-2.894849e+001	-7.751499e+001	-2.895332e+001	-7.739109e+001	-4.817283e-002	2.201373e+000
16.960	-6.471815e-002	1.986363e+000	-2.903646e+001	-7.749763e+001	-2.904156e+001	-7.737398e+001	-4.765954e-002	2.181227e+000
17.150	-6.404094e-002	1.966609e+000	-2.912157e+001	-7.751059e+001	-2.912660e+001	-7.739290e+001	-4.704176e-002	2.161523e+000
17.340	-6.362525e-002	1.946902e+000	-2.920825e+001	-7.746421e+001	-2.921321e+001	-7.734062e+001	-4.668414e-002	2.141515e+000
17.530	-6.326371e-002	1.928112e+000	-2.929360e+001	-7.744681e+001	-2.929873e+001	-7.732112e+001	-4.624676e-002	2.122264e+000
17.720	-6.276563e-002	1.908500e+000	-2.937855e+001	-7.742688e+001	-2.938354e+001	-7.730264e+001	-4.574127e-002	2.103563e+000
17.909	-6.227050e-002	1.890163e+000	-2.946241e+001	-7.740610e+001	-2.946714e+001	-7.728156e+001	-4.527204e-002	2.084372e+000
18.099	-6.190298e-002	1.871412e+000	-2.954486e+001	-7.738928e+001	-2.955019e+001	-7.726127e+001	-4.484035e-002	2.066273e+000
18.289	-6.137310e-002	1.853479e+000	-2.962731e+001	-7.736875e+001	-2.963261e+001	-7.724323e+001	-4.446075e-002	2.048274e+000
18.479	-6.104400e-002	1.836713e+000	-2.970824e+001	-7.734862e+001	-2.971329e+001	-7.722180e+001	-4.403898e-002	2.031126e+000
18.669	-6.061631e-002	1.819448e+000	-2.978855e+001	-7.732426e+001	-2.979362e+001	-7.720102e+001	-4.368348e-002	2.013698e+000
18.859	-6.021914e-002	1.802546e+000	-2.986794e+001	-7.730641e+001	-2.987348e+001	-7.718288e+001	-4.333146e-002	1.996803e+000
19.082	-6.156390e-002	1.782227e+000	-2.995411e+001	-7.693975e+001	-2.996224e+001	-7.683402e+001	-4.453526e-002	1.976380e+000
19.344	-5.939328e-002	1.760670e+000	-3.007063e+001	-7.726339e+001	-3.007542e+001	-7.713958e+001	-4.233842e-002	1.954494e+000
19.606	-5.895013e-002	1.739251e+000	-3.017452e+001	-7.721689e+001	-3.018027e+001	-7.709025e+001	-4.194184e-002	1.933468e+000
19.868	-5.847628e-002	1.718235e+000	-3.027922e+001	-7.719290e+001	-3.028462e+001	-7.706595e+001	-4.146029e-002	1.912197e+000
20.130	-5.799636e-002	1.697620e+000	-3.038196e+001	-7.715675e+001	-3.038744e+001	-7.702902e+001	-4.097605e-002	1.891662e+000
20.392	-5.752760e-002	1.677361e+000	-3.048459e+001	-7.712203e+001	-3.049012e+001	-7.699888e+001	-4.048763e-002	1.871475e+000
20.655	-5.714233e-002	1.658174e+000	-3.058503e+001	-7.709113e+001	-3.059098e+001	-7.696372e+001	-4.020400e-002	1.851927e+000
20.917	-5.672026e-002	1.638632e+000	-3.068441e+001	-7.705458e+001	-3.068963e+001	-7.693473e+001	-3.971886e-002	1.832788e+000
21.179	-5.618479e-002	1.619619e+000	-3.078337e+001	-7.702317e+001	-3.078915e+001	-7.689730e+001	-3.937347e-002	1.814030e+000
21.441	-5.585170e-002	1.601366e+000	-3.087958e+001	-7.698400e+001	-3.088525e+001	-7.686228e+001	-3.893161e-002	1.795882e+000
21.703	-5.547123e-002	1.582796e+000	-3.097572e+001	-7.694775e+001	-3.098154e+001	-7.682342e+001	-3.854676e-002	1.778386e+000
21.965	-5.507711e-002	1.565131e+000	-3.107088e+001	-7.691357e+001	-3.107620e+001	-7.678718e+001	-3.818845e-002	1.760514e+000
22.228	-5.469058e-002	1.547907e+000	-3.116432e+001	-7.687279e+001	-3.117029e+001	-7.674987e+001	-3.781209e-002	1.742887e+000
22.490	-5.441417e-002	1.531659e+000	-3.125640e+001	-7.683847e+001	-3.126232e+001	-7.671391e+001	-3.746464e-002	1.726395e+000
22.752	-5.399526e-002	1.515577e+000	-3.134821e+001	-7.680184e+001	-3.135428e+001	-7.667948e+001	-3.702373e-002	1.709632e+000
23.014	-5.376188e-002	1.499587e+000	-3.143835e+001	-7.675971e+001	-3.144435e+001	-7.663504e+001	-3.667276e-002	1.694148e+000
23.276	-5.331679e-002	1.483690e+000	-3.152813e+001	-7.672002e+001	-3.153423e+001	-7.659836e+001	-3.636442e-002	1.678265e+000
23.538	-5.298834e-002	1.468287e+000	-3.161708e+001	-7.668538e+001	-3.162304e+001	-7.655997e+001	-3.604826e-002	1.662434e+000
23.801	-5.274657e-002	1.452668e+000	-3.170437e+001	-7.664567e+001	-3.171059e+001	-7.651966e+001	-3.566733e-002	1.648034e+000
24.063	-5.238178e-002	1.438403e+000	-3.179082e+001	-7.660283e+001	-3.179652e+001	-7.647823e+001	-3.543968e-002	1.633472e+000
24.325	-5.200333e-002	1.423868e+000	-3.187650e+001	-7.656713e+001	-3.188251e+001	-7.644124e+001	-3.508709e-002	1.619260e+000
24.587	-5.178175e-002	1.410067e+000	-3.196125e+001	-7.652087e+001	-3.196705e+001	-7.639696e+001	-3.481648e-002	1.604721e+000
24.849	-5.149699e-002	1.395887e+000	-3.204510e+001	-7.648046e+001	-3.205118e+001	-7.635609e+001	-3.452101e-002	1.591283e+000
25.111	-5.115880e-002	1.382451e+000	-3.212843e+001	-7.643705e+001	-3.213386e+001	-7.631351e+001	-3.424360e-002	1.577639e+000
25.374	-5.087187e-002	1.369010e+000	-3.221011e+001	-7.639702e+001	-3.221593e+001	-7.627237e+001	-3.398352e-002	1.563965e+000
25.636	-5.054872e-002	1.355959e+000	-3.229173e+001	-7.635082e+001	-3.229738e+001	-7.622752e+001	-3.372638e-002	1.551383e+000
25.898	-5.026119e-002	1.343885e+000	-3.237162e+001	-7.630920e+001	-3.237739e+001	-7.618868e+001	-3.348862e-002	1.538450e+000
26.204	-4.900978e-002	1.328601e+000	-3.247809e+001	-7.651290e+001	-3.248170e+001	-7.637903e+001	-3.210080e-002	1.523779e+000
26.564	-4.978409e-002	1.312139e+000	-3.257434e+001	-7.619416e+001	-3.258046e+001	-7.607621e+001	-3.283748e-002	1.506763e+000
26.924	-4.949031e-002	1.295530e+000	-3.267921e+001	-7.613285e+001	-3.268596e+001	-7.600796e+001	-3.255855e-002	1.489740e+000
27.284	-4.890294e-002	1.279498e+000	-3.278480e+001	-7.607568e+001	-3.279146e+001	-7.594873e+001	-3.214019e-002	1.473827e+000
27.644	-4.882969e-002	1.264093e+000	-3.288922e+001	-7.600980e+001	-3.289504e+001	-7.588958e+001	-3.185628e-002	1.458642e+000
28.004	-4.842384e-002	1.248743e+000	-3.299094e+001	-7.594449e+001	-3.299737e+001	-7.582167e+001	-3.151648e-002	1.443396e+000
28.364	-4.807777e-002	1.233652e+000	-3.309295e+001	-7.588281e+001	-3.309912e+001	-7.575729e+001	-3.119787e-002	1.428551e+000
28.724	-4.784041e-002	1.218750e+000	-3.319227e+001	-7.581769e+001	-3.319841e+001	-7.569357e+001	-3.081749e-002	1.413342e+000
29.084	-4.755460e-002	1.205530e+000	-3.329161e+001	-7.575104e+001	-3.329709e+001	-7.563282e+001	-3.053329e-002	1.399944e+000
29.444	-4.736145e-002	1.191787e+000	-3.338837e+001	-7.568244e+001	-3.339465e+001	-7.556237e+001	-3.029206e-002	1.386572e+000
29.804	-4.715793e-002	1.178244e+000	-3.348329e+001	-7.562112e+001	-3.348994e+001	-7.548999e+001	-3.007915e-002	1.374018e+000
30.164	-4.675919e-002	1.165608e+000	-3.357926e+001	-7.555116e+001	-3.358499e+001	-7.542812e+001	-2.977294e-002	1.360290e+000
30.524	-4.661918e-002	1.152514e+000	-3.367192e+001	-7.548812e+001	-3.367839e+001	-7.536181e+001	-2.946201e-002	1.347442e+000
30.884	-4.634746e-002	1.139755e+000	-3.376554e+001	-7.541733e+001	-3.377114e+001	-7.529267e+001	-2.931923e-002	1.334008e+000
31.244	-4.610760e-002	1.127529e+000	-3.385659e+001	-7.535023e+001	-3.386340e+001	-7.523059e+001	-2.908440e-002	1.321587e+000
31.605	-4.589956e-002	1.114896e+000	-3.394815e+001	-7.527910e+001	-3.395326e+001	-7.515377e+001	-2.878279e-002	1.309269e+000
31.965	-4.561930e-002	1.103317e+000	-3.403670e+001	-7.520940e+001	-3.404178e+001	-7.508458e+001	-2.854601e-002	1.297882e+000
32.325	-4.542380e-002	1.091379e+000	-3.412299e+001	-7.513763e+001	-3.412985e+001	-7.501431e+001	-2.828518e-002	1.285790e+000
32.685	-4.511251e-002	1.080038e+000	-3.421223e+001	-7.506834e+001	-3.421863e+001	-7.495114e+001	-2.815287e-002	1.274625e+000
33.045	-4.493687e-002	1.068647e+000	-3.429748e+001	-7.499482e+001	-3.430403e+001	-7.487776e+001	-2.790704e-002	1.263375e+000
33.405	-4.475992e-002	1.058242e+000	-3.438437e+001	-7.492826e+001	-3.438965e+001	-7.480635e+001	-2.767876e-002	1.252346e+000
33.765	-4.450806e-002	1.047350e+000	-3.446673e+001	-7.485914e+001	-3.447349e+001	-7.474467e+001	-2.743749e-002	1.242587e+000
34.125	-4.437456e-002	1.036993e+000	-3.455132e+001	-7.478456e+001	-3.455749e+001	-7.466267e+001	-2.729150e-002	1.231681e+000
34.485	-4.411603e-002	1.026679e+000	-3.463425e+001	-7.472084e+001	-3.464088e+001	-7.459118e+001	-2.712776e-002	1.221485e+000
34.845	-4.396089e-002	1.016699e+000	-3.471511e+001	-7.464900e+001	-3.472141e+001	-7.451843e+001	-2.685527e-002	1.211131e+000
35.205	-4.357623e-002	1.007322e+000	-3.479500e+001	-7.456759e+001	-3.480139e+001	-7.445729e+001	-2.661741e-002	1.201585e+000
35.565	-4.355975e-002	9.982692e-001	-3.487469e+001	-7.449381e+001	-3.488118e+001	-7.437512e+001	-2.657555e-002	1.191445e+000
35.985	-4.272481e-002	9.870807e-001	-3.497509e+001	-7.459330e+001	-3.497849e+001	-7.446106e+001	-2.578528e-002	1.181855e+000
36.483	-4.314348e-002	9.740239e-001	-3.507774e+001	-7.431483e+001	-3.508302e+001	-7.420575e+001	-2.613677e-002	1.168613e+000
36.980	-4.294290e-002	9.615809e-001	-3.518039e+001	-7.420958e+001	-3.518740e+001	-7.408720e+001	-2.601931e-002	1.156520e+000
37.478	-4.269794e-002	9.500577e-001	-3.528565e+001	-7.410183e+001	-3.529137e+001	-7.398240e+001	-2.587065e-002	1.144868e+000
37.975	-4.256756e-002	9.378838e-001	-3.539015e+001	-7.399304e+001	-3.539606e+001	-7.386763e+001	-2.572355e-002	1.132746e+000
38.473	-4.238757e-002	9.266235e-001	-3.549040e+001	-7.388212e+001	-3.549679e+001	-7.376635e+001	-2.559139e-002	1.121249e+000
38.970	-4.214737e-002	9.151326e-001	-3.559203e+001	-7.377964e+001	-3.559781e+001	-7.366487e+001	-2.536510e-002	1.110217e+000
39.468	-4.206984e-002	9.042108e-001	-3.568964e+001	-7.367930e+001	-3.569519e+001	-7.356293e+001	-2.512801e-002	1.098947e+000
39.965	-4.185752e-002	8.938473e-001	-3.578799e+001	-7.358338e+001	-3.579417e+001	-7.345709e+001	-2.494642e-002	1.088356e+000
40.463	-4.171425e-002	8.829017e-001	-3.588448e+001	-7.348932e+001	-3.589052e+001	-7.336417e+001	-2.478753e-002	1.078430e+000
40.960	-4.161524e-002	8.729883e-001	-3.598077e+001	-7.336250e+001	-3.598553e+001	-7.323773e+001	-2.459102e-002	1.067645e+000
41.458	-4.147400e-002	8.635257e-001	-3.607374e+001	-7.325274e+001	-3.607859e+001	-7.313959e+001	-2.442163e-002	1.058022e+000
41.955	-4.128718e-002	8.522932e-001	-3.616695e+001	-7.316195e+001	-3.617263e+001	-7.303709e+001	-2.425239e-002	1.047623e+000
42.452	-4.120405e-002	8.442688e-001	-3.625712e+001	-7.304889e+001	-3.626247e+001	-7.292677e+001	-2.411685e-002	1.038731e+000
42.950	-4.101470e-002	8.349186e-001	-3.634751e+001	-7.294373e+001	-3.635280e+001	-7.282072e+001	-2.397941e-002	1.029986e+000
43.447	-4.095900e-002	8.255672e-001	-3.643772e+001	-7.282976e+001	-3.644219e+001	-7.270789e+001	-2.392899e-002	1.020464e+000
43.945	-4.082120e-002	8.160371e-001	-3.652478e+001	-7.273212e+001	-3.652993e+001	-7.261030e+001	-2.377694e-002	1.012377e+000
44.442	-4.066288e-002	8.085760e-001	-3.660977e+001	-7.262701e+001	-3.661554e+001	-7.250901e+001	-2.360356e-002	1.003480e+000
44.940	-4.062341e-002	8.000165e-001	-3.669430e+001	-7.250937e+001	-3.670001e+001	-7.239577e+001	-2.345561e-002	9.956884e-001
45.437	-4.048677e-002	7.918835e-001	-3.677879e+001	-7.239349e+001	-3.678361e+001	-7.227878e+001	-2.331474e-002	9.870701e-001
45.935	-4.036036e-002	7.835202e-001	-3.686228e+001	-7.228055e+001	-3.686741e+001	-7.217208e+001	-2.323856e-002	9.783011e-001
46.432	-4.020915e-002	7.752450e-001	-3.694483e+001	-7.217767e+001	-3.694946e+001	-7.207049e+001	-2.305912e-002	9.704300e-001
46.930	-3.994047e-002	7.680154e-001	-3.702494e+001	-7.208654e+001	-3.703339e+001	-7.198138e+001	-2.289729e-002	9.625009e-001
47.427	-3.987893e-002	7.606542e-001	-3.711081e+001	-7.199133e+001	-3.711942e+001	-7.186205e+001	-2.277646e-002	9.549380e-001
47.925	-3.981937e-002	7.531008e-001	-3.719399e+001	-7.184637e+001	-3.719602e+001	-7.171389e+001	-2.276167e-002	9.474221e-001
48.422	-3.973130e-002	7.458512e-001	-3.726399e+001	-7.173438e+001	-3.726922e+001	-7.163807e+001	-2.257853e-002	9.405117e-001
48.920	-3.955500e-002	7.389576e-001	-3.734888e+001	-7.166577e+001	-3.735505e+001	-7.153221e+001	-2.239385e-002	9.326571e-001
49.417	-3.939434e-002	7.314056e-001	-3.742125e+001	-7.150495e+001	-3.742458e+001	-7.140370e+001	-2.240563e-002	9.263626e-001
50.001	-3.915194e-002	7.229319e-001	-3.752272e+001	-7.140877e+001	-3.752299e+001	-7.128050e+001	-2.199796e-002	9.177154e-001
50.688	-3.913117e-002	7.141065e-001	-3.761485e+001	-7.120852e+001	-3.761462e+001	-7.110231e+001	-2.222130e-002	9.095565e-001
51.375	-3.906954e-002	7.050265e-001	-3.771101e+001	-7.105945e+001	-3.771178e+001	-7.098321e+001	-2.190070e-002	9.006012e-001
52.062	-3.876263e-002	6.972344e-001	-3.780843e+001	-7.098655e+001	-3.782204e+001	-7.091306e+001	-2.160426e-002	8.914186e-001
52.749	-3.845886e-002	6.869604e-001	-3.792440e+001	-7.087243e+001	-3.793550e+001	-7.068443e+001	-2.156650e-002	8.812622e-001
53.436	-3.860012e-002	6.784969e-001	-3.802006e+001	-7.055990e+001	-3.801077e+001	-7.044150e+001	-2.172292e-002	8.739837e-001
54.123	-3.830798e-002	6.721152e-001	-3.809484e+001	-7.056184e+001	-3.811361e+001	-7.049595e+001	-2.116489e-002	8.666176e-001
54.810	-3.848856e-002	6.624461e-001	-3.822056e+001	-7.029848e+001	-3.821301e+001	-7.010026e+001	-2.144559e-002	8.578154e-001
55.497	-3.816693e-002	6.579727e-001	-3.828083e+001	-7.027021e+001	-3.830176e+001	-7.021819e+001	-2.096967e-002	8.513747e-001
56.184	-3.843414e-002	6.472165e-001	-3.839436e+001	-6.990541e+001	-3.837914e+001	-6.980868e+001	-2.134906e-002	8.432278e-001
56.871	-3.783596e-002	6.401584e-001	-3.849466e+001	-7.001876e+001	-3.850633e+001	-6.974628e+001	-2.085566e-002	8.338822e-001
57.558	-3.789698e-002	6.357354e-001	-3.854743e+001	-6.982390e+001	-3.857376e+001	-6.977747e+001	-2.063835e-002	8.290941e-001
58.245	-3.817821e-002	6.277054e-001	-3.863401e+001	-6.949135e+001	-3.863669e+001	-6.953871e+001	-2.090814e-002	8.239187e-001
58.932	-3.810267e-002	6.192065e-001	-3.874104e+001	-6.926686e+001	-3.872434e+001	-6.923761e+001	-2.092394e-002	8.163270e-001
59.619	-3.783080e-002	6.125369e-001	-3.883719e+001	-6.911920e+001	-3.881539e+001	-6.902538e+001	-2.096344e-002	8.093466e-001
60.306	-3.784209e-002	6.052094e-001	-3.892257e+001	-6.896174e+001	-3.889763e+001	-6.888016e+001	-2.085198e-002	8.023898e-001
60.993	-3.767635e-002	5.992824e-001	-3.899409e+001	-6.879917e+001	-3.897451e+001	-6.878414e+001	-2.075261e-002	7.965584e-001
61.680	-3.757321e-002	5.946883e-001	-3.905442e+001	-6.870617e+001	-3.905531e+001	-6.878117e+001	-2.051220e-002	7.907507e-001
62.367	-3.729256e-002	5.891272e-001	-3.913107e+001	-6.877313e+001	-3.916152e+001	-6.875446e+001	-2.004708e-002	7.829787e-001
63.054	-3.692656e-002	5.809411e-001	-3.924931e+001	-6.869734e+001	-3.926724e+001	-6.840463e+001	-2.022659e-002	7.747169e-001
