!Agilent Technologies,E5061B,MY49204007,A.02.12
!Date: Wed Jul 23 11:42:46 2025
!Data & Calibration Information:
!Freq	S11:SOLT2(ON)	S21:SOLT2(ON)	S12:SOLT2(ON)	S22:SOLT2(ON)
# Hz S dB R 50
10.000	-9.633342e-002	3.209248e+000	-2.490838e+001	-7.760950e+001	-2.491495e+001	-7.749573e+001	-7.925900e-002	3.406286e+000
10.137	-9.506971e-002	3.166633e+000	-2.502673e+001	-7.762877e+001	-2.503178e+001	-7.750556e+001	-7.805438e-002	3.362905e+000
10.275	-9.406903e-002	3.126503e+000	-2.513501e+001	-7.762836e+001	-2.513867e+001	-7.750576e+001	-7.703348e-002	3.323368e+000
10.412	-9.305509e-002	3.088363e+000	-2.524064e+001	-7.763200e+001	-2.524355e+001	-7.750806e+001	-7.606451e-002	3.284576e+000
10.550	-9.210760e-002	3.051401e+000	-2.534351e+001	-7.763572e+001	-2.534697e+001	-7.751235e+001	-7.507013e-002	3.248102e+000
10.687	-9.118952e-002	3.016311e+000	-2.544438e+001	-7.763835e+001	-2.544758e+001	-7.751334e+001	-7.407896e-002	3.212206e+000
10.824	-9.031275e-002	2.981692e+000	-2.554366e+001	-7.764247e+001	-2.554773e+001	-7.752090e+001	-7.317385e-002	3.177160e+000
10.962	-8.943226e-002	2.947260e+000	-2.564266e+001	-7.764180e+001	-2.564611e+001	-7.751468e+001	-7.237086e-002	3.143338e+000
11.099	-8.869314e-002	2.914850e+000	-2.573810e+001	-7.763910e+001	-2.574172e+001	-7.751972e+001	-7.140489e-002	3.110823e+000
11.237	-8.775420e-002	2.881691e+000	-2.583464e+001	-7.763712e+001	-2.583736e+001	-7.751232e+001	-7.070995e-002	3.078607e+000
11.374	-8.688074e-002	2.850337e+000	-2.592912e+001	-7.764020e+001	-2.593263e+001	-7.751156e+001	-6.980255e-002	3.047004e+000
11.511	-8.612366e-002	2.819858e+000	-2.602184e+001	-7.763869e+001	-2.602551e+001	-7.751071e+001	-6.903151e-002	3.015880e+000
11.649	-8.541817e-002	2.789982e+000	-2.611412e+001	-7.763476e+001	-2.611767e+001	-7.750674e+001	-6.827785e-002	2.985943e+000
11.786	-8.468475e-002	2.760553e+000	-2.620462e+001	-7.762898e+001	-2.620816e+001	-7.750175e+001	-6.767361e-002	2.956823e+000
11.924	-8.410848e-002	2.732685e+000	-2.629417e+001	-7.762443e+001	-2.629725e+001	-7.750003e+001	-6.686736e-002	2.928388e+000
12.061	-8.320809e-002	2.704433e+000	-2.638339e+001	-7.762444e+001	-2.638701e+001	-7.749752e+001	-6.608101e-002	2.900542e+000
12.198	-8.270745e-002	2.677078e+000	-2.647036e+001	-7.761571e+001	-2.647370e+001	-7.749341e+001	-6.547890e-002	2.873247e+000
12.336	-8.202453e-002	2.649314e+000	-2.655760e+001	-7.761103e+001	-2.656085e+001	-7.748474e+001	-6.477881e-002	2.846248e+000
12.473	-8.129562e-002	2.623110e+000	-2.664353e+001	-7.760938e+001	-2.664719e+001	-7.748121e+001	-6.407657e-002	2.819407e+000
12.611	-8.065526e-002	2.597500e+000	-2.672850e+001	-7.760420e+001	-2.673204e+001	-7.747677e+001	-6.344215e-002	2.793423e+000
12.748	-8.006661e-002	2.572449e+000	-2.681228e+001	-7.759632e+001	-2.681561e+001	-7.746988e+001	-6.271597e-002	2.767964e+000
12.885	-7.951864e-002	2.547652e+000	-2.689524e+001	-7.758762e+001	-2.689848e+001	-7.746589e+001	-6.215444e-002	2.743458e+000
13.023	-7.883569e-002	2.523413e+000	-2.697697e+001	-7.758611e+001	-2.698104e+001	-7.746274e+001	-6.152905e-002	2.719391e+000
13.160	-7.836019e-002	2.499392e+000	-2.705918e+001	-7.757598e+001	-2.706237e+001	-7.745142e+001	-6.101619e-002	2.695121e+000
13.298	-7.773098e-002	2.476232e+000	-2.713925e+001	-7.757181e+001	-2.714355e+001	-7.744703e+001	-6.041753e-002	2.672334e+000
13.435	-7.714988e-002	2.453646e+000	-2.721844e+001	-7.756503e+001	-2.722263e+001	-7.744087e+001	-5.980824e-002	2.649472e+000
13.572	-7.658186e-002	2.431193e+000	-2.729776e+001	-7.755397e+001	-2.730179e+001	-7.743309e+001	-5.936462e-002	2.626435e+000
13.733	-7.677841e-002	2.404905e+000	-2.738674e+001	-7.742369e+001	-2.739434e+001	-7.749688e+001	-5.829920e-002	2.601541e+000
13.923	-7.531620e-002	2.375858e+000	-2.749549e+001	-7.753489e+001	-2.750031e+001	-7.741305e+001	-5.808915e-002	2.571674e+000
14.112	-7.443220e-002	2.346605e+000	-2.760146e+001	-7.752163e+001	-2.760593e+001	-7.739711e+001	-5.743666e-002	2.542664e+000
14.302	-7.379369e-002	2.318489e+000	-2.770490e+001	-7.751206e+001	-2.770927e+001	-7.738812e+001	-5.680645e-002	2.514833e+000
14.492	-7.313212e-002	2.290539e+000	-2.780744e+001	-7.749460e+001	-2.781181e+001	-7.736970e+001	-5.615316e-002	2.487476e+000
14.682	-7.246134e-002	2.264127e+000	-2.790866e+001	-7.748044e+001	-2.791317e+001	-7.735560e+001	-5.544840e-002	2.460262e+000
14.872	-7.182070e-002	2.238014e+000	-2.800866e+001	-7.746729e+001	-2.801313e+001	-7.734272e+001	-5.484521e-002	2.434348e+000
15.062	-7.120190e-002	2.212029e+000	-2.810734e+001	-7.745655e+001	-2.811216e+001	-7.733239e+001	-5.421265e-002	2.408567e+000
15.251	-7.059312e-002	2.187528e+000	-2.820542e+001	-7.743728e+001	-2.821020e+001	-7.731345e+001	-5.359472e-002	2.383184e+000
15.441	-6.999681e-002	2.162313e+000	-2.830169e+001	-7.742576e+001	-2.830659e+001	-7.730183e+001	-5.297938e-002	2.358835e+000
15.631	-6.943997e-002	2.138763e+000	-2.839678e+001	-7.740999e+001	-2.840161e+001	-7.728440e+001	-5.237478e-002	2.335010e+000
15.821	-6.885956e-002	2.115373e+000	-2.849082e+001	-7.739303e+001	-2.849592e+001	-7.726702e+001	-5.182561e-002	2.311593e+000
16.011	-6.832297e-002	2.092838e+000	-2.858424e+001	-7.737385e+001	-2.858904e+001	-7.725158e+001	-5.126864e-002	2.289019e+000
16.201	-6.775563e-002	2.070511e+000	-2.867637e+001	-7.735436e+001	-2.868112e+001	-7.722976e+001	-5.082410e-002	2.266837e+000
16.391	-6.723932e-002	2.048647e+000	-2.876713e+001	-7.733887e+001	-2.877192e+001	-7.721563e+001	-5.025997e-002	2.244361e+000
16.580	-6.677095e-002	2.027329e+000	-2.885715e+001	-7.731799e+001	-2.886162e+001	-7.719469e+001	-4.978160e-002	2.223598e+000
16.770	-6.622375e-002	2.006236e+000	-2.894595e+001	-7.729929e+001	-2.895089e+001	-7.717415e+001	-4.925171e-002	2.203123e+000
16.960	-6.573312e-002	1.985449e+000	-2.903441e+001	-7.728158e+001	-2.903898e+001	-7.715619e+001	-4.873979e-002	2.182289e+000
17.150	-6.514916e-002	1.965902e+000	-2.911945e+001	-7.728906e+001	-2.912419e+001	-7.717075e+001	-4.809193e-002	2.163088e+000
17.340	-6.484750e-002	1.946189e+000	-2.920600e+001	-7.724064e+001	-2.921069e+001	-7.711729e+001	-4.781909e-002	2.143055e+000
17.530	-6.437594e-002	1.926780e+000	-2.929138e+001	-7.722106e+001	-2.929590e+001	-7.709528e+001	-4.728739e-002	2.123668e+000
17.720	-6.386346e-002	1.907835e+000	-2.937593e+001	-7.719693e+001	-2.938074e+001	-7.707438e+001	-4.678809e-002	2.104802e+000
17.909	-6.342979e-002	1.889215e+000	-2.945975e+001	-7.717587e+001	-2.946439e+001	-7.705235e+001	-4.636502e-002	2.086388e+000
18.099	-6.295799e-002	1.871161e+000	-2.954225e+001	-7.715561e+001	-2.954706e+001	-7.703104e+001	-4.583903e-002	2.067702e+000
18.289	-6.249954e-002	1.852891e+000	-2.962455e+001	-7.713335e+001	-2.962962e+001	-7.700964e+001	-4.553962e-002	2.049749e+000
18.479	-6.203855e-002	1.835597e+000	-2.970529e+001	-7.711314e+001	-2.971052e+001	-7.698665e+001	-4.510391e-002	2.032535e+000
18.669	-6.169005e-002	1.818451e+000	-2.978568e+001	-7.708746e+001	-2.979101e+001	-7.696100e+001	-4.476834e-002	2.015240e+000
18.859	-6.135533e-002	1.801729e+000	-2.986561e+001	-7.706418e+001	-2.987046e+001	-7.694042e+001	-4.428432e-002	1.997941e+000
19.082	-6.268390e-002	1.781539e+000	-2.995127e+001	-7.669758e+001	-2.995918e+001	-7.659084e+001	-4.558247e-002	1.977555e+000
19.344	-6.042609e-002	1.759989e+000	-3.006743e+001	-7.701293e+001	-3.007246e+001	-7.689034e+001	-4.335030e-002	1.956030e+000
19.606	-5.994530e-002	1.738439e+000	-3.017142e+001	-7.696712e+001	-3.017732e+001	-7.684406e+001	-4.294267e-002	1.934622e+000
19.868	-5.961003e-002	1.717635e+000	-3.027611e+001	-7.693884e+001	-3.028145e+001	-7.681455e+001	-4.253266e-002	1.914017e+000
20.130	-5.907971e-002	1.696723e+000	-3.037896e+001	-7.689810e+001	-3.038455e+001	-7.677503e+001	-4.208442e-002	1.892803e+000
20.392	-5.868141e-002	1.676478e+000	-3.048108e+001	-7.686134e+001	-3.048669e+001	-7.673971e+001	-4.156943e-002	1.872685e+000
20.655	-5.824122e-002	1.657095e+000	-3.058152e+001	-7.682661e+001	-3.058743e+001	-7.670028e+001	-4.112895e-002	1.853407e+000
20.917	-5.788419e-002	1.637782e+000	-3.068120e+001	-7.678871e+001	-3.068642e+001	-7.666748e+001	-4.067282e-002	1.833957e+000
21.179	-5.737827e-002	1.619045e+000	-3.077978e+001	-7.675185e+001	-3.078513e+001	-7.662970e+001	-4.030540e-002	1.814930e+000
21.441	-5.708559e-002	1.600379e+000	-3.087595e+001	-7.671490e+001	-3.088174e+001	-7.659017e+001	-3.988441e-002	1.796777e+000
21.703	-5.662388e-002	1.582436e+000	-3.097225e+001	-7.666949e+001	-3.097763e+001	-7.654819e+001	-3.956821e-002	1.779407e+000
21.965	-5.630268e-002	1.564957e+000	-3.106697e+001	-7.663168e+001	-3.107301e+001	-7.651140e+001	-3.923524e-002	1.762100e+000
22.228	-5.603375e-002	1.547702e+000	-3.116033e+001	-7.659284e+001	-3.116606e+001	-7.646925e+001	-3.887736e-002	1.744279e+000
22.490	-5.563547e-002	1.531411e+000	-3.125291e+001	-7.655362e+001	-3.125835e+001	-7.642846e+001	-3.838461e-002	1.727546e+000
22.752	-5.514375e-002	1.514927e+000	-3.134462e+001	-7.651298e+001	-3.135020e+001	-7.639235e+001	-3.804299e-002	1.710847e+000
23.014	-5.494967e-002	1.498835e+000	-3.143509e+001	-7.646957e+001	-3.144064e+001	-7.634545e+001	-3.759283e-002	1.694866e+000
23.276	-5.453355e-002	1.483028e+000	-3.152446e+001	-7.642680e+001	-3.153029e+001	-7.630531e+001	-3.734932e-002	1.679263e+000
23.538	-5.418909e-002	1.467199e+000	-3.161323e+001	-7.638547e+001	-3.161874e+001	-7.626519e+001	-3.705001e-002	1.664060e+000
23.801	-5.379110e-002	1.452514e+000	-3.170028e+001	-7.634120e+001	-3.170615e+001	-7.622037e+001	-3.671992e-002	1.648867e+000
24.063	-5.349776e-002	1.437622e+000	-3.178707e+001	-7.629535e+001	-3.179237e+001	-7.617573e+001	-3.639159e-002	1.634815e+000
24.325	-5.308775e-002	1.423142e+000	-3.187184e+001	-7.625779e+001	-3.187777e+001	-7.613334e+001	-3.603536e-002	1.620135e+000
24.587	-5.282327e-002	1.408956e+000	-3.195704e+001	-7.621069e+001	-3.196315e+001	-7.608780e+001	-3.578942e-002	1.606151e+000
24.849	-5.257799e-002	1.394970e+000	-3.204085e+001	-7.616738e+001	-3.204651e+001	-7.604385e+001	-3.552032e-002	1.591979e+000
25.111	-5.226794e-002	1.381600e+000	-3.212352e+001	-7.612243e+001	-3.212962e+001	-7.599666e+001	-3.523104e-002	1.578335e+000
25.374	-5.200564e-002	1.368549e+000	-3.220578e+001	-7.607671e+001	-3.221158e+001	-7.595248e+001	-3.487711e-002	1.564760e+000
25.636	-5.174587e-002	1.355578e+000	-3.228660e+001	-7.603047e+001	-3.229196e+001	-7.590462e+001	-3.461237e-002	1.551662e+000
25.898	-5.151471e-002	1.342622e+000	-3.236722e+001	-7.598387e+001	-3.237254e+001	-7.586224e+001	-3.438307e-002	1.538767e+000
26.204	-5.021046e-002	1.327625e+000	-3.247315e+001	-7.618182e+001	-3.247747e+001	-7.604409e+001	-3.306372e-002	1.524184e+000
26.564	-5.089727e-002	1.310884e+000	-3.256965e+001	-7.586007e+001	-3.257535e+001	-7.574061e+001	-3.369043e-002	1.507991e+000
26.924	-5.053310e-002	1.294733e+000	-3.267437e+001	-7.579343e+001	-3.267993e+001	-7.566934e+001	-3.341861e-002	1.490814e+000
27.284	-5.016966e-002	1.279193e+000	-3.278026e+001	-7.572709e+001	-3.278632e+001	-7.560720e+001	-3.312533e-002	1.475964e+000
27.644	-4.990991e-002	1.262952e+000	-3.288328e+001	-7.566469e+001	-3.288963e+001	-7.554596e+001	-3.288540e-002	1.459658e+000
28.004	-4.955279e-002	1.247842e+000	-3.298631e+001	-7.559120e+001	-3.299198e+001	-7.547061e+001	-3.251846e-002	1.444680e+000
28.364	-4.918697e-002	1.232883e+000	-3.308755e+001	-7.552411e+001	-3.309333e+001	-7.540475e+001	-3.215329e-002	1.428970e+000
28.724	-4.899345e-002	1.217776e+000	-3.318669e+001	-7.545832e+001	-3.319269e+001	-7.533930e+001	-3.193354e-002	1.414731e+000
29.084	-4.871962e-002	1.204571e+000	-3.328515e+001	-7.538638e+001	-3.329111e+001	-7.526226e+001	-3.167016e-002	1.401413e+000
29.444	-4.843829e-002	1.191043e+000	-3.338238e+001	-7.531847e+001	-3.338823e+001	-7.519175e+001	-3.144933e-002	1.387946e+000
29.804	-4.828059e-002	1.178249e+000	-3.347768e+001	-7.524470e+001	-3.348337e+001	-7.512122e+001	-3.115469e-002	1.375073e+000
30.164	-4.796567e-002	1.165334e+000	-3.357275e+001	-7.517729e+001	-3.357873e+001	-7.505454e+001	-3.088270e-002	1.361653e+000
30.524	-4.782435e-002	1.151893e+000	-3.366618e+001	-7.510423e+001	-3.367188e+001	-7.497669e+001	-3.062769e-002	1.349017e+000
30.884	-4.747137e-002	1.138789e+000	-3.375906e+001	-7.502940e+001	-3.376474e+001	-7.491173e+001	-3.038065e-002	1.335990e+000
31.244	-4.723654e-002	1.126492e+000	-3.385030e+001	-7.495955e+001	-3.385599e+001	-7.483325e+001	-3.011243e-002	1.323297e+000
31.605	-4.706337e-002	1.114199e+000	-3.394023e+001	-7.488653e+001	-3.394695e+001	-7.476174e+001	-2.986079e-002	1.310689e+000
31.965	-4.683430e-002	1.101743e+000	-3.403030e+001	-7.480857e+001	-3.403504e+001	-7.468599e+001	-2.963949e-002	1.298770e+000
32.325	-4.665139e-002	1.090636e+000	-3.411731e+001	-7.474335e+001	-3.412252e+001	-7.461048e+001	-2.944773e-002	1.286634e+000
32.685	-4.629333e-002	1.079150e+000	-3.420485e+001	-7.466703e+001	-3.421123e+001	-7.454384e+001	-2.922672e-002	1.276423e+000
33.045	-4.609777e-002	1.067980e+000	-3.428999e+001	-7.458539e+001	-3.429668e+001	-7.446109e+001	-2.906016e-002	1.264294e+000
33.405	-4.598113e-002	1.057217e+000	-3.437617e+001	-7.451107e+001	-3.438270e+001	-7.439723e+001	-2.881622e-002	1.253687e+000
33.765	-4.573201e-002	1.047178e+000	-3.446010e+001	-7.443540e+001	-3.446653e+001	-7.430779e+001	-2.854818e-002	1.243557e+000
34.125	-4.550210e-002	1.036016e+000	-3.454440e+001	-7.436304e+001	-3.455077e+001	-7.423704e+001	-2.844598e-002	1.232718e+000
34.485	-4.533232e-002	1.026252e+000	-3.462620e+001	-7.429461e+001	-3.463100e+001	-7.416586e+001	-2.822327e-002	1.222400e+000
34.845	-4.511810e-002	1.016154e+000	-3.470702e+001	-7.420480e+001	-3.471212e+001	-7.409474e+001	-2.802746e-002	1.212808e+000
35.205	-4.493690e-002	1.007046e+000	-3.478648e+001	-7.413276e+001	-3.479413e+001	-7.400857e+001	-2.792029e-002	1.203212e+000
35.565	-4.488362e-002	9.971662e-001	-3.486749e+001	-7.405457e+001	-3.487316e+001	-7.392687e+001	-2.772644e-002	1.193741e+000
35.985	-4.395001e-002	9.860395e-001	-3.496701e+001	-7.415665e+001	-3.497249e+001	-7.401950e+001	-2.693983e-002	1.182632e+000
36.483	-4.439378e-002	9.727690e-001	-3.506720e+001	-7.386361e+001	-3.507461e+001	-7.374197e+001	-2.729972e-002	1.169739e+000
36.980	-4.421825e-002	9.602245e-001	-3.517350e+001	-7.374233e+001	-3.517880e+001	-7.361852e+001	-2.727005e-002	1.157739e+000
37.478	-4.378927e-002	9.484958e-001	-3.527803e+001	-7.364056e+001	-3.528387e+001	-7.351649e+001	-2.703512e-002	1.146010e+000
37.975	-4.371485e-002	9.368853e-001	-3.538202e+001	-7.353425e+001	-3.538930e+001	-7.341649e+001	-2.681389e-002	1.133977e+000
38.473	-4.347125e-002	9.251268e-001	-3.548322e+001	-7.342129e+001	-3.548958e+001	-7.329376e+001	-2.673773e-002	1.122192e+000
38.970	-4.324098e-002	9.146979e-001	-3.558310e+001	-7.331484e+001	-3.559033e+001	-7.318908e+001	-2.645607e-002	1.111173e+000
39.468	-4.320138e-002	9.032300e-001	-3.568242e+001	-7.319094e+001	-3.568901e+001	-7.306873e+001	-2.624055e-002	1.099695e+000
39.965	-4.301865e-002	8.926554e-001	-3.577984e+001	-7.307937e+001	-3.578499e+001	-7.295674e+001	-2.602787e-002	1.089881e+000
40.463	-4.295141e-002	8.825547e-001	-3.587356e+001	-7.296100e+001	-3.587813e+001	-7.285212e+001	-2.596434e-002	1.079227e+000
40.960	-4.282274e-002	8.723974e-001	-3.596908e+001	-7.286995e+001	-3.597515e+001	-7.274774e+001	-2.577316e-002	1.069167e+000
41.458	-4.266113e-002	8.619550e-001	-3.606423e+001	-7.275299e+001	-3.606902e+001	-7.262974e+001	-2.552214e-002	1.059299e+000
41.955	-4.253342e-002	8.520310e-001	-3.615462e+001	-7.264674e+001	-3.615952e+001	-7.252786e+001	-2.540332e-002	1.048643e+000
42.452	-4.256436e-002	8.425094e-001	-3.624632e+001	-7.253229e+001	-3.625217e+001	-7.240505e+001	-2.528179e-002	1.040344e+000
42.950	-4.231128e-002	8.337990e-001	-3.633742e+001	-7.241626e+001	-3.634147e+001	-7.229194e+001	-2.515519e-002	1.031052e+000
43.447	-4.223391e-002	8.244388e-001	-3.642433e+001	-7.230915e+001	-3.643015e+001	-7.218273e+001	-2.491644e-002	1.021940e+000
43.945	-4.202068e-002	8.156423e-001	-3.651156e+001	-7.218752e+001	-3.651697e+001	-7.206825e+001	-2.486470e-002	1.012700e+000
44.442	-4.187410e-002	8.074653e-001	-3.659982e+001	-7.206927e+001	-3.660502e+001	-7.194353e+001	-2.476490e-002	1.004573e+000
44.940	-4.183829e-002	7.991944e-001	-3.668674e+001	-7.195524e+001	-3.669211e+001	-7.183418e+001	-2.452624e-002	9.955851e-001
45.437	-4.170627e-002	7.901216e-001	-3.677154e+001	-7.184947e+001	-3.677767e+001	-7.172961e+001	-2.439383e-002	9.867186e-001
45.935	-4.152260e-002	7.819925e-001	-3.685484e+001	-7.173971e+001	-3.686056e+001	-7.161672e+001	-2.421545e-002	9.786298e-001
46.432	-4.147837e-002	7.740007e-001	-3.693778e+001	-7.161720e+001	-3.694264e+001	-7.149577e+001	-2.418455e-002	9.704626e-001
46.930	-4.137933e-002	7.665755e-001	-3.701726e+001	-7.148463e+001	-3.702251e+001	-7.136507e+001	-2.412179e-002	9.627897e-001
47.427	-4.125852e-002	7.596500e-001	-3.709391e+001	-7.137276e+001	-3.709853e+001	-7.125544e+001	-2.405187e-002	9.561656e-001
47.925	-4.107753e-002	7.523365e-001	-3.717290e+001	-7.129909e+001	-3.717924e+001	-7.118829e+001	-2.379229e-002	9.487109e-001
48.422	-4.097698e-002	7.439548e-001	-3.725740e+001	-7.115673e+001	-3.726355e+001	-7.103871e+001	-2.369952e-002	9.408132e-001
48.920	-4.093045e-002	7.373271e-001	-3.732872e+001	-7.103780e+001	-3.733363e+001	-7.091179e+001	-2.362498e-002	9.347246e-001
49.417	-4.068494e-002	7.302150e-001	-3.741260e+001	-7.094773e+001	-3.741705e+001	-7.082600e+001	-2.332925e-002	9.265677e-001
50.001	-4.032560e-002	7.222051e-001	-3.750404e+001	-7.088463e+001	-3.751154e+001	-7.076088e+001	-2.312704e-002	9.190200e-001
50.688	-4.029870e-002	7.130448e-001	-3.760344e+001	-7.068830e+001	-3.760781e+001	-7.057376e+001	-2.303881e-002	9.097522e-001
51.375	-4.025767e-002	7.035935e-001	-3.771216e+001	-7.049193e+001	-3.771663e+001	-7.036920e+001	-2.293688e-002	9.002689e-001
52.062	-4.026295e-002	6.945937e-001	-3.780905e+001	-7.026933e+001	-3.781394e+001	-7.014576e+001	-2.295363e-002	8.910434e-001
52.749	-4.018334e-002	6.875055e-001	-3.788872e+001	-7.013359e+001	-3.789360e+001	-7.001235e+001	-2.284567e-002	8.840332e-001
53.436	-3.979487e-002	6.774033e-001	-3.800082e+001	-7.010653e+001	-3.800463e+001	-6.998479e+001	-2.242902e-002	8.754498e-001
54.123	-3.995729e-002	6.695422e-001	-3.810053e+001	-6.974640e+001	-3.810527e+001	-6.962814e+001	-2.267458e-002	8.657752e-001
54.810	-3.962049e-002	6.641995e-001	-3.817617e+001	-6.977715e+001	-3.817939e+001	-6.966509e+001	-2.238371e-002	8.602230e-001
55.497	-3.979056e-002	6.536544e-001	-3.828823e+001	-6.940178e+001	-3.829638e+001	-6.929037e+001	-2.244656e-002	8.503262e-001
56.184	-3.930785e-002	6.465156e-001	-3.837519e+001	-6.951008e+001	-3.837878e+001	-6.938696e+001	-2.199819e-002	8.447278e-001
56.871	-3.949087e-002	6.411226e-001	-3.843836e+001	-6.916445e+001	-3.844413e+001	-6.902360e+001	-2.237140e-002	8.381305e-001
57.558	-3.952552e-002	6.308499e-001	-3.855956e+001	-6.891123e+001	-3.856671e+001	-6.879317e+001	-2.224925e-002	8.281861e-001
58.245	-3.913531e-002	6.241523e-001	-3.866019e+001	-6.892442e+001	-3.866680e+001	-6.881653e+001	-2.182660e-002	8.211324e-001
58.932	-3.877573e-002	6.172952e-001	-3.873650e+001	-6.887484e+001	-3.873912e+001	-6.877608e+001	-2.154571e-002	8.161679e-001
59.619	-3.883325e-002	6.118635e-001	-3.881070e+001	-6.874240e+001	-3.881326e+001	-6.863890e+001	-2.146317e-002	8.104727e-001
60.306	-3.875790e-002	6.053376e-001	-3.889389e+001	-6.858768e+001	-3.889568e+001	-6.848202e+001	-2.146823e-002	8.033954e-001
60.993	-3.858246e-002	5.977412e-001	-3.898709e+001	-6.841690e+001	-3.898732e+001	-6.831219e+001	-2.129596e-002	7.962847e-001
61.680	-3.856601e-002	5.912080e-001	-3.908042e+001	-6.815340e+001	-3.908473e+001	-6.805943e+001	-2.128051e-002	7.888301e-001
62.367	-3.870803e-002	5.842436e-001	-3.914988e+001	-6.780773e+001	-3.915969e+001	-6.770120e+001	-2.156756e-002	7.821077e-001
63.054	-3.887079e-002	5.809540e-001	-3.919235e+001	-6.771140e+001	-3.920021e+001	-6.755991e+001	-2.167076e-002	7.785735e-001
