!Agilent Technologies,E5061B,MY49204007,A.02.12
!Date: Wed Jul 23 11:44:59 2025
!Data & Calibration Information:
!Freq	S11:SOLT2(ON)	S21:SOLT2(ON)	S12:SOLT2(ON)	S22:SOLT2(ON)
# Hz S dB R 50
10.000	-9.735440e-002	3.208898e+000	-2.490787e+001	-7.749368e+001	-2.491389e+001	-7.738353e+001	-7.984971e-002	3.408547e+000
10.137	-9.615869e-002	3.166408e+000	-2.502620e+001	-7.751155e+001	-2.503099e+001	-7.739117e+001	-7.868101e-002	3.365015e+000
10.275	-9.502725e-002	3.126181e+000	-2.513411e+001	-7.750867e+001	-2.513776e+001	-7.739230e+001	-7.761875e-002	3.325425e+000
10.412	-9.396116e-002	3.087743e+000	-2.523976e+001	-7.751188e+001	-2.524298e+001	-7.739171e+001	-7.667187e-002	3.286643e+000
10.550	-9.314230e-002	3.051568e+000	-2.534273e+001	-7.751381e+001	-2.534583e+001	-7.739282e+001	-7.578706e-002	3.249414e+000
10.687	-9.219318e-002	3.015704e+000	-2.544355e+001	-7.751365e+001	-2.544684e+001	-7.739610e+001	-7.480989e-002	3.214154e+000
10.824	-9.130194e-002	2.981291e+000	-2.554249e+001	-7.751881e+001	-2.554642e+001	-7.739893e+001	-7.386426e-002	3.179405e+000
10.962	-9.036885e-002	2.947046e+000	-2.564131e+001	-7.751490e+001	-2.564497e+001	-7.739107e+001	-7.298821e-002	3.145600e+000
11.099	-8.969206e-002	2.914426e+000	-2.573740e+001	-7.751144e+001	-2.574122e+001	-7.739474e+001	-7.222947e-002	3.112539e+000
11.237	-8.886888e-002	2.882148e+000	-2.583367e+001	-7.750601e+001	-2.583670e+001	-7.738673e+001	-7.146945e-002	3.080057e+000
11.374	-8.797459e-002	2.850239e+000	-2.592816e+001	-7.750740e+001	-2.593143e+001	-7.738405e+001	-7.068278e-002	3.048720e+000
11.511	-8.719293e-002	2.819392e+000	-2.602090e+001	-7.750460e+001	-2.602462e+001	-7.738289e+001	-6.987485e-002	3.017854e+000
11.649	-8.632858e-002	2.790085e+000	-2.611287e+001	-7.750034e+001	-2.611657e+001	-7.737627e+001	-6.909751e-002	2.988298e+000
11.786	-8.565369e-002	2.760163e+000	-2.620373e+001	-7.749405e+001	-2.620721e+001	-7.736969e+001	-6.842754e-002	2.959160e+000
11.924	-8.508419e-002	2.732272e+000	-2.629278e+001	-7.748681e+001	-2.629642e+001	-7.736831e+001	-6.765005e-002	2.930395e+000
12.061	-8.420675e-002	2.703580e+000	-2.638189e+001	-7.748631e+001	-2.638598e+001	-7.736203e+001	-6.698693e-002	2.902349e+000
12.198	-8.370270e-002	2.676091e+000	-2.646898e+001	-7.747645e+001	-2.647266e+001	-7.735874e+001	-6.621749e-002	2.874686e+000
12.336	-8.293401e-002	2.648846e+000	-2.655646e+001	-7.747069e+001	-2.655975e+001	-7.734764e+001	-6.545794e-002	2.847443e+000
12.473	-8.224068e-002	2.622327e+000	-2.664247e+001	-7.746499e+001	-2.664602e+001	-7.734303e+001	-6.483524e-002	2.821265e+000
12.611	-8.170737e-002	2.597042e+000	-2.672711e+001	-7.745892e+001	-2.673061e+001	-7.733583e+001	-6.408239e-002	2.794977e+000
12.748	-8.119881e-002	2.571411e+000	-2.681107e+001	-7.744923e+001	-2.681449e+001	-7.732704e+001	-6.342125e-002	2.769851e+000
12.885	-8.047976e-002	2.547040e+000	-2.689385e+001	-7.743969e+001	-2.689691e+001	-7.732276e+001	-6.275258e-002	2.745260e+000
13.023	-7.980497e-002	2.522558e+000	-2.697562e+001	-7.743841e+001	-2.697980e+001	-7.731851e+001	-6.222595e-002	2.721214e+000
13.160	-7.934525e-002	2.498735e+000	-2.705754e+001	-7.742449e+001	-2.706104e+001	-7.730321e+001	-6.172927e-002	2.697124e+000
13.298	-7.869151e-002	2.475350e+000	-2.713805e+001	-7.741962e+001	-2.714192e+001	-7.729832e+001	-6.111574e-002	2.674272e+000
13.435	-7.811712e-002	2.452726e+000	-2.721707e+001	-7.741203e+001	-2.722127e+001	-7.729194e+001	-6.053450e-002	2.651429e+000
13.572	-7.758779e-002	2.430153e+000	-2.729618e+001	-7.739967e+001	-2.730025e+001	-7.728094e+001	-6.009909e-002	2.628867e+000
13.733	-7.780072e-002	2.404020e+000	-2.738523e+001	-7.726571e+001	-2.739300e+001	-7.734445e+001	-5.898199e-002	2.603468e+000
13.923	-7.626150e-002	2.375206e+000	-2.749413e+001	-7.737588e+001	-2.749903e+001	-7.725897e+001	-5.879957e-002	2.573664e+000
14.112	-7.549863e-002	2.345566e+000	-2.759991e+001	-7.736003e+001	-2.760461e+001	-7.723992e+001	-5.816007e-002	2.544311e+000
14.302	-7.486364e-002	2.317521e+000	-2.770341e+001	-7.734891e+001	-2.770779e+001	-7.722945e+001	-5.748246e-002	2.515999e+000
14.492	-7.418758e-002	2.290080e+000	-2.780563e+001	-7.733049e+001	-2.781009e+001	-7.720885e+001	-5.685372e-002	2.488643e+000
14.682	-7.351040e-002	2.262729e+000	-2.790710e+001	-7.731425e+001	-2.791184e+001	-7.719434e+001	-5.618900e-002	2.461496e+000
14.872	-7.292202e-002	2.236684e+000	-2.800681e+001	-7.729770e+001	-2.801162e+001	-7.717814e+001	-5.559604e-002	2.435363e+000
15.062	-7.222346e-002	2.210968e+000	-2.810566e+001	-7.728732e+001	-2.811039e+001	-7.716507e+001	-5.496262e-002	2.409753e+000
15.251	-7.154250e-002	2.186307e+000	-2.820336e+001	-7.726281e+001	-2.820829e+001	-7.714336e+001	-5.427109e-002	2.384653e+000
15.441	-7.098441e-002	2.161252e+000	-2.829985e+001	-7.725069e+001	-2.830478e+001	-7.713242e+001	-5.373121e-002	2.360360e+000
15.631	-7.042352e-002	2.138101e+000	-2.839497e+001	-7.723123e+001	-2.839967e+001	-7.711088e+001	-5.308159e-002	2.336176e+000
15.821	-6.987810e-002	2.114701e+000	-2.848921e+001	-7.721040e+001	-2.849385e+001	-7.709260e+001	-5.257074e-002	2.312580e+000
16.011	-6.930022e-002	2.092071e+000	-2.858224e+001	-7.719378e+001	-2.858737e+001	-7.707478e+001	-5.202487e-002	2.289874e+000
16.201	-6.880133e-002	2.069475e+000	-2.867431e+001	-7.717084e+001	-2.867916e+001	-7.705166e+001	-5.157671e-002	2.267913e+000
16.391	-6.827638e-002	2.047847e+000	-2.876519e+001	-7.715325e+001	-2.877015e+001	-7.703587e+001	-5.098232e-002	2.245915e+000
16.580	-6.780647e-002	2.025962e+000	-2.885496e+001	-7.713073e+001	-2.885980e+001	-7.701273e+001	-5.039000e-002	2.224754e+000
16.770	-6.724919e-002	2.005542e+000	-2.894388e+001	-7.711043e+001	-2.894912e+001	-7.698948e+001	-4.993789e-002	2.203971e+000
16.960	-6.680723e-002	1.984530e+000	-2.903207e+001	-7.708783e+001	-2.903725e+001	-7.696805e+001	-4.935106e-002	2.183285e+000
17.150	-6.618020e-002	1.965192e+000	-2.911726e+001	-7.709768e+001	-2.912230e+001	-7.698391e+001	-4.879111e-002	2.163948e+000
17.340	-6.587353e-002	1.945225e+000	-2.920393e+001	-7.704502e+001	-2.920837e+001	-7.692574e+001	-4.853755e-002	2.144148e+000
17.530	-6.535301e-002	1.926246e+000	-2.928916e+001	-7.702289e+001	-2.929412e+001	-7.690201e+001	-4.804319e-002	2.124711e+000
17.720	-6.484696e-002	1.907436e+000	-2.937370e+001	-7.699688e+001	-2.937870e+001	-7.688077e+001	-4.755919e-002	2.105561e+000
17.909	-6.442014e-002	1.888862e+000	-2.945747e+001	-7.697364e+001	-2.946227e+001	-7.685738e+001	-4.704845e-002	2.087185e+000
18.099	-6.402684e-002	1.870253e+000	-2.953992e+001	-7.695294e+001	-2.954536e+001	-7.683315e+001	-4.657285e-002	2.068858e+000
18.289	-6.358785e-002	1.852643e+000	-2.962240e+001	-7.692950e+001	-2.962763e+001	-7.680929e+001	-4.612588e-002	2.050535e+000
18.479	-6.313062e-002	1.835063e+000	-2.970298e+001	-7.690478e+001	-2.970809e+001	-7.678377e+001	-4.575361e-002	2.033130e+000
18.669	-6.278810e-002	1.817550e+000	-2.978337e+001	-7.687577e+001	-2.978880e+001	-7.675929e+001	-4.536203e-002	2.016178e+000
18.859	-6.238369e-002	1.800959e+000	-2.986274e+001	-7.685175e+001	-2.986825e+001	-7.673330e+001	-4.505055e-002	1.998538e+000
19.082	-6.368677e-002	1.780677e+000	-2.994862e+001	-7.648235e+001	-2.995649e+001	-7.638353e+001	-4.622865e-002	1.978601e+000
19.344	-6.146977e-002	1.759304e+000	-3.006531e+001	-7.680058e+001	-3.006986e+001	-7.667950e+001	-4.404866e-002	1.957281e+000
19.606	-6.098186e-002	1.737812e+000	-3.016913e+001	-7.674754e+001	-3.017505e+001	-7.662783e+001	-4.369662e-002	1.935519e+000
19.868	-6.066478e-002	1.717492e+000	-3.027387e+001	-7.671545e+001	-3.027888e+001	-7.659686e+001	-4.308360e-002	1.914314e+000
20.130	-6.017687e-002	1.696530e+000	-3.037598e+001	-7.667467e+001	-3.038192e+001	-7.655415e+001	-4.263593e-002	1.893760e+000
20.392	-5.980969e-002	1.675886e+000	-3.047840e+001	-7.663540e+001	-3.048377e+001	-7.651388e+001	-4.223983e-002	1.873820e+000
20.655	-5.926540e-002	1.656253e+000	-3.057890e+001	-7.659505e+001	-3.058447e+001	-7.647621e+001	-4.183696e-002	1.854013e+000
20.917	-5.888457e-002	1.637013e+000	-3.067809e+001	-7.655680e+001	-3.068379e+001	-7.643973e+001	-4.139354e-002	1.834881e+000
21.179	-5.837362e-002	1.618647e+000	-3.077701e+001	-7.651713e+001	-3.078259e+001	-7.639955e+001	-4.095953e-002	1.815716e+000
21.441	-5.803974e-002	1.599938e+000	-3.087329e+001	-7.647579e+001	-3.087858e+001	-7.635485e+001	-4.055878e-002	1.797851e+000
21.703	-5.759948e-002	1.581646e+000	-3.096895e+001	-7.642889e+001	-3.097499e+001	-7.631343e+001	-4.026826e-002	1.779908e+000
21.965	-5.719871e-002	1.564049e+000	-3.106429e+001	-7.638885e+001	-3.106955e+001	-7.627155e+001	-3.976315e-002	1.762551e+000
22.228	-5.690532e-002	1.547365e+000	-3.115747e+001	-7.634551e+001	-3.116340e+001	-7.622877e+001	-3.946340e-002	1.745331e+000
22.490	-5.663726e-002	1.530790e+000	-3.124984e+001	-7.630615e+001	-3.125556e+001	-7.618475e+001	-3.902297e-002	1.728427e+000
22.752	-5.620579e-002	1.514402e+000	-3.134145e+001	-7.626404e+001	-3.134693e+001	-7.614279e+001	-3.870464e-002	1.711854e+000
23.014	-5.592568e-002	1.498233e+000	-3.143156e+001	-7.621395e+001	-3.143724e+001	-7.609634e+001	-3.844095e-002	1.695645e+000
23.276	-5.554402e-002	1.481933e+000	-3.152105e+001	-7.616926e+001	-3.152748e+001	-7.605262e+001	-3.807052e-002	1.680373e+000
23.538	-5.523943e-002	1.466873e+000	-3.160977e+001	-7.612964e+001	-3.161525e+001	-7.600692e+001	-3.778121e-002	1.665091e+000
23.801	-5.494485e-002	1.451928e+000	-3.169707e+001	-7.608024e+001	-3.170282e+001	-7.596015e+001	-3.742705e-002	1.649593e+000
24.063	-5.460443e-002	1.437204e+000	-3.178315e+001	-7.603326e+001	-3.178927e+001	-7.591213e+001	-3.709447e-002	1.635687e+000
24.325	-5.421579e-002	1.422636e+000	-3.186868e+001	-7.599064e+001	-3.187479e+001	-7.586838e+001	-3.679040e-002	1.621327e+000
24.587	-5.402630e-002	1.408744e+000	-3.195351e+001	-7.593787e+001	-3.195916e+001	-7.581940e+001	-3.648240e-002	1.607042e+000
24.849	-5.360009e-002	1.394088e+000	-3.203713e+001	-7.589388e+001	-3.204349e+001	-7.577225e+001	-3.618096e-002	1.593193e+000
25.111	-5.332536e-002	1.381230e+000	-3.212017e+001	-7.584498e+001	-3.212581e+001	-7.572642e+001	-3.587606e-002	1.579328e+000
25.374	-5.310062e-002	1.367979e+000	-3.220189e+001	-7.579678e+001	-3.220783e+001	-7.567757e+001	-3.569598e-002	1.566055e+000
25.636	-5.282318e-002	1.354672e+000	-3.228312e+001	-7.574978e+001	-3.228874e+001	-7.562748e+001	-3.534579e-002	1.552706e+000
25.898	-5.258977e-002	1.342265e+000	-3.236331e+001	-7.570206e+001	-3.236913e+001	-7.557949e+001	-3.511114e-002	1.540233e+000
26.204	-5.122597e-002	1.326600e+000	-3.246924e+001	-7.589684e+001	-3.247363e+001	-7.575921e+001	-3.374260e-002	1.525463e+000
26.564	-5.195052e-002	1.310109e+000	-3.256541e+001	-7.557059e+001	-3.257163e+001	-7.545855e+001	-3.451881e-002	1.508936e+000
26.924	-5.162633e-002	1.294189e+000	-3.266984e+001	-7.549950e+001	-3.267644e+001	-7.537861e+001	-3.417443e-002	1.492461e+000
27.284	-5.123593e-002	1.277933e+000	-3.277650e+001	-7.543356e+001	-3.278170e+001	-7.531186e+001	-3.381164e-002	1.476611e+000
27.644	-5.092927e-002	1.262529e+000	-3.287929e+001	-7.536283e+001	-3.288561e+001	-7.524305e+001	-3.340764e-002	1.460863e+000
28.004	-5.071337e-002	1.247265e+000	-3.298172e+001	-7.528860e+001	-3.298760e+001	-7.516913e+001	-3.311460e-002	1.445348e+000
28.364	-5.032759e-002	1.232541e+000	-3.308310e+001	-7.521717e+001	-3.308960e+001	-7.509966e+001	-3.284461e-002	1.430382e+000
28.724	-4.999119e-002	1.217558e+000	-3.318211e+001	-7.514579e+001	-3.318829e+001	-7.502878e+001	-3.253494e-002	1.415872e+000
29.084	-4.978540e-002	1.203628e+000	-3.328137e+001	-7.507182e+001	-3.328660e+001	-7.495251e+001	-3.229290e-002	1.402246e+000
29.444	-4.957655e-002	1.190183e+000	-3.337748e+001	-7.499633e+001	-3.338293e+001	-7.487786e+001	-3.202338e-002	1.388765e+000
29.804	-4.934046e-002	1.177274e+000	-3.347232e+001	-7.492247e+001	-3.347856e+001	-7.480350e+001	-3.176194e-002	1.376064e+000
30.164	-4.906026e-002	1.163755e+000	-3.356838e+001	-7.485649e+001	-3.357404e+001	-7.472844e+001	-3.146212e-002	1.362354e+000
30.524	-4.886913e-002	1.150826e+000	-3.366093e+001	-7.477016e+001	-3.366632e+001	-7.465428e+001	-3.124689e-002	1.349567e+000
30.884	-4.868489e-002	1.137371e+000	-3.375330e+001	-7.469567e+001	-3.375956e+001	-7.457605e+001	-3.102675e-002	1.336064e+000
31.244	-4.836438e-002	1.124730e+000	-3.384510e+001	-7.462192e+001	-3.385105e+001	-7.450178e+001	-3.068706e-002	1.323974e+000
31.605	-4.809699e-002	1.112926e+000	-3.393572e+001	-7.454138e+001	-3.394153e+001	-7.442051e+001	-3.051837e-002	1.311949e+000
31.965	-4.790798e-002	1.101078e+000	-3.402393e+001	-7.446228e+001	-3.403022e+001	-7.435049e+001	-3.032690e-002	1.299255e+000
32.325	-4.763333e-002	1.089698e+000	-3.411123e+001	-7.438249e+001	-3.411758e+001	-7.426490e+001	-3.007320e-002	1.288284e+000
32.685	-4.734226e-002	1.078056e+000	-3.419973e+001	-7.431517e+001	-3.420383e+001	-7.419363e+001	-2.987420e-002	1.277243e+000
33.045	-4.713361e-002	1.066804e+000	-3.428503e+001	-7.423059e+001	-3.429073e+001	-7.411114e+001	-2.966068e-002	1.265735e+000
33.405	-4.690830e-002	1.055545e+000	-3.437137e+001	-7.416187e+001	-3.437511e+001	-7.403263e+001	-2.945255e-002	1.255157e+000
33.765	-4.667879e-002	1.045377e+000	-3.445457e+001	-7.407535e+001	-3.446039e+001	-7.395380e+001	-2.925796e-002	1.244573e+000
34.125	-4.646888e-002	1.035096e+000	-3.453826e+001	-7.399148e+001	-3.454248e+001	-7.387741e+001	-2.901934e-002	1.234113e+000
34.485	-4.628596e-002	1.024698e+000	-3.461969e+001	-7.391749e+001	-3.462538e+001	-7.379570e+001	-2.887632e-002	1.223586e+000
34.845	-4.615453e-002	1.015075e+000	-3.469984e+001	-7.383653e+001	-3.470681e+001	-7.371197e+001	-2.870151e-002	1.213322e+000
35.205	-4.585275e-002	1.005426e+000	-3.478024e+001	-7.375317e+001	-3.478772e+001	-7.363390e+001	-2.844847e-002	1.203795e+000
35.565	-4.587630e-002	9.955753e-001	-3.486110e+001	-7.366569e+001	-3.486744e+001	-7.355825e+001	-2.838790e-002	1.194002e+000
35.985	-4.505165e-002	9.847849e-001	-3.495942e+001	-7.376073e+001	-3.496621e+001	-7.364842e+001	-2.764781e-002	1.183536e+000
36.483	-4.534686e-002	9.716025e-001	-3.506262e+001	-7.346714e+001	-3.506717e+001	-7.336277e+001	-2.806905e-002	1.170730e+000
36.980	-4.516964e-002	9.592576e-001	-3.516473e+001	-7.335140e+001	-3.517298e+001	-7.322450e+001	-2.784360e-002	1.157762e+000
37.478	-4.492107e-002	9.475330e-001	-3.526911e+001	-7.324357e+001	-3.527707e+001	-7.311120e+001	-2.768446e-002	1.146601e+000
37.975	-4.484631e-002	9.357750e-001	-3.537260e+001	-7.313451e+001	-3.538040e+001	-7.301562e+001	-2.756895e-002	1.134067e+000
38.473	-4.463216e-002	9.241792e-001	-3.547264e+001	-7.299430e+001	-3.548196e+001	-7.289350e+001	-2.728969e-002	1.123342e+000
38.970	-4.434991e-002	9.133283e-001	-3.557279e+001	-7.289024e+001	-3.558191e+001	-7.277271e+001	-2.722046e-002	1.111490e+000
39.468	-4.419769e-002	9.027667e-001	-3.567223e+001	-7.277614e+001	-3.568056e+001	-7.266224e+001	-2.691089e-002	1.100814e+000
39.965	-4.409052e-002	8.916740e-001	-3.576853e+001	-7.267570e+001	-3.577652e+001	-7.253040e+001	-2.678794e-002	1.090080e+000
40.463	-4.396993e-002	8.802963e-001	-3.586668e+001	-7.254993e+001	-3.587187e+001	-7.242526e+001	-2.657884e-002	1.080129e+000
40.960	-4.386854e-002	8.707867e-001	-3.596129e+001	-7.242248e+001	-3.596600e+001	-7.232158e+001	-2.631160e-002	1.069705e+000
41.458	-4.360969e-002	8.607300e-001	-3.605397e+001	-7.231958e+001	-3.606066e+001	-7.218938e+001	-2.634398e-002	1.059876e+000
41.955	-4.360425e-002	8.506298e-001	-3.614724e+001	-7.219751e+001	-3.615215e+001	-7.208782e+001	-2.615383e-002	1.050205e+000
42.452	-4.341448e-002	8.416461e-001	-3.623595e+001	-7.208248e+001	-3.624316e+001	-7.196124e+001	-2.595026e-002	1.040111e+000
42.950	-4.333893e-002	8.323540e-001	-3.632630e+001	-7.195889e+001	-3.633310e+001	-7.184258e+001	-2.581100e-002	1.030906e+000
43.447	-4.313295e-002	8.232726e-001	-3.641573e+001	-7.183813e+001	-3.642072e+001	-7.172689e+001	-2.563506e-002	1.022154e+000
43.945	-4.291189e-002	8.139562e-001	-3.650363e+001	-7.172783e+001	-3.650695e+001	-7.160756e+001	-2.553774e-002	1.013200e+000
44.442	-4.280128e-002	8.057775e-001	-3.658993e+001	-7.161919e+001	-3.659402e+001	-7.147967e+001	-2.554150e-002	1.004135e+000
44.940	-4.284603e-002	7.981334e-001	-3.667321e+001	-7.149942e+001	-3.668092e+001	-7.135870e+001	-2.527793e-002	9.958062e-001
45.437	-4.266850e-002	7.897380e-001	-3.675678e+001	-7.136719e+001	-3.676603e+001	-7.124515e+001	-2.513741e-002	9.880797e-001
45.935	-4.246676e-002	7.812594e-001	-3.683919e+001	-7.125560e+001	-3.685094e+001	-7.112560e+001	-2.497819e-002	9.792909e-001
46.432	-4.241187e-002	7.728997e-001	-3.692148e+001	-7.114876e+001	-3.693055e+001	-7.099364e+001	-2.498882e-002	9.716380e-001
46.930	-4.227310e-002	7.654143e-001	-3.700615e+001	-7.103969e+001	-3.700925e+001	-7.087030e+001	-2.486044e-002	9.637789e-001
47.427	-4.220323e-002	7.582478e-001	-3.708974e+001	-7.089802e+001	-3.708639e+001	-7.077360e+001	-2.472833e-002	9.569450e-001
47.925	-4.217335e-002	7.509071e-001	-3.716571e+001	-7.074596e+001	-3.717175e+001	-7.068434e+001	-2.453498e-002	9.490694e-001
48.422	-4.193576e-002	7.429980e-001	-3.723902e+001	-7.067374e+001	-3.725182e+001	-7.051846e+001	-2.450860e-002	9.408780e-001
48.920	-4.186372e-002	7.354969e-001	-3.732476e+001	-7.053677e+001	-3.732215e+001	-7.042884e+001	-2.434209e-002	9.348401e-001
49.417	-4.163391e-002	7.297450e-001	-3.739257e+001	-7.042112e+001	-3.740579e+001	-7.029615e+001	-2.425166e-002	9.270825e-001
50.001	-4.151740e-002	7.209587e-001	-3.748895e+001	-7.028991e+001	-3.750366e+001	-7.022798e+001	-2.380415e-002	9.188886e-001
50.688	-4.141430e-002	7.128178e-001	-3.757803e+001	-7.009347e+001	-3.760017e+001	-7.001416e+001	-2.374668e-002	9.099286e-001
51.375	-4.123129e-002	7.032835e-001	-3.768019e+001	-6.997822e+001	-3.770218e+001	-6.978538e+001	-2.382758e-002	8.999544e-001
52.062	-4.099510e-002	6.939745e-001	-3.779362e+001	-6.986500e+001	-3.779006e+001	-6.958811e+001	-2.379725e-002	8.927027e-001
52.749	-4.113001e-002	6.838098e-001	-3.790142e+001	-6.958048e+001	-3.788156e+001	-6.954664e+001	-2.341858e-002	8.848171e-001
53.436	-4.115560e-002	6.771032e-001	-3.797031e+001	-6.939039e+001	-3.800429e+001	-6.937967e+001	-2.326444e-002	8.741804e-001
54.123	-4.055520e-002	6.695728e-001	-3.808569e+001	-6.939430e+001	-3.807615e+001	-6.906683e+001	-2.345718e-002	8.680792e-001
54.810	-4.099484e-002	6.617160e-001	-3.816743e+001	-6.898062e+001	-3.818533e+001	-6.912588e+001	-2.297763e-002	8.594290e-001
55.497	-4.026363e-002	6.533186e-001	-3.827413e+001	-6.908521e+001	-3.825894e+001	-6.871905e+001	-2.339827e-002	8.529326e-001
56.184	-4.062803e-002	6.465201e-001	-3.833659e+001	-6.871699e+001	-3.838277e+001	-6.872033e+001	-2.286602e-002	8.429781e-001
56.871	-4.039155e-002	6.360914e-001	-3.846632e+001	-6.854123e+001	-3.843229e+001	-6.861505e+001	-2.280179e-002	8.391691e-001
57.558	-4.015058e-002	6.303101e-001	-3.854615e+001	-6.861369e+001	-3.852310e+001	-6.820448e+001	-2.310666e-002	8.300757e-001
58.245	-4.006469e-002	6.262434e-001	-3.860221e+001	-6.843041e+001	-3.864136e+001	-6.803998e+001	-2.278322e-002	8.214842e-001
58.932	-4.008326e-002	6.178406e-001	-3.867765e+001	-6.813476e+001	-3.873797e+001	-6.798596e+001	-2.252524e-002	8.137228e-001
59.619	-4.017908e-002	6.116057e-001	-3.876584e+001	-6.788491e+001	-3.882283e+001	-6.789639e+001	-2.230836e-002	8.089089e-001
60.306	-4.018914e-002	6.054617e-001	-3.884642e+001	-6.772560e+001	-3.890721e+001	-6.773923e+001	-2.216975e-002	8.015916e-001
60.993	-3.986225e-002	5.983539e-001	-3.892704e+001	-6.764389e+001	-3.899084e+001	-6.750644e+001	-2.232523e-002	7.948459e-001
61.680	-3.953756e-002	5.923229e-001	-3.901654e+001	-6.761393e+001	-3.905915e+001	-6.721604e+001	-2.237539e-002	7.883277e-001
62.367	-3.944070e-002	5.845119e-001	-3.913005e+001	-6.748375e+001	-3.910646e+001	-6.704821e+001	-2.251172e-002	7.839217e-001
63.054	-3.969422e-002	5.770271e-001	-3.921902e+001	-6.705700e+001	-3.918179e+001	-6.715310e+001	-2.206018e-002	7.791606e-001
