!Agilent Technologies,E5061B,MY49204007,A.02.12
!Date: Wed Jul 23 11:47:20 2025
!Data & Calibration Information:
!Freq	S11:SOLT2(ON)	S21:SOLT2(ON)	S12:SOLT2(ON)	S22:SOLT2(ON)
# Hz S dB R 50
10.000	-9.778544e-002	3.206812e+000	-2.490791e+001	-7.743588e+001	-2.491461e+001	-7.732115e+001	-8.039651e-002	3.411574e+000
10.137	-9.658057e-002	3.164458e+000	-2.502630e+001	-7.745385e+001	-2.503125e+001	-7.732887e+001	-7.913225e-002	3.367591e+000
10.275	-9.549190e-002	3.124333e+000	-2.513456e+001	-7.745022e+001	-2.513830e+001	-7.732690e+001	-7.810209e-002	3.328341e+000
10.412	-9.444523e-002	3.086607e+000	-2.524005e+001	-7.745220e+001	-2.524356e+001	-7.732698e+001	-7.717340e-002	3.289425e+000
10.550	-9.350926e-002	3.049375e+000	-2.534290e+001	-7.745275e+001	-2.534622e+001	-7.732752e+001	-7.622390e-002	3.252235e+000
10.687	-9.263750e-002	3.013854e+000	-2.544393e+001	-7.745324e+001	-2.544739e+001	-7.732804e+001	-7.524333e-002	3.216951e+000
10.824	-9.182701e-002	2.979676e+000	-2.554311e+001	-7.745425e+001	-2.554660e+001	-7.733280e+001	-7.426019e-002	3.182022e+000
10.962	-9.088191e-002	2.945223e+000	-2.564228e+001	-7.745078e+001	-2.564548e+001	-7.732405e+001	-7.351054e-002	3.148052e+000
11.099	-9.006921e-002	2.912829e+000	-2.573774e+001	-7.744637e+001	-2.574124e+001	-7.732628e+001	-7.254707e-002	3.115792e+000
11.237	-8.922618e-002	2.880287e+000	-2.583407e+001	-7.744041e+001	-2.583686e+001	-7.731540e+001	-7.176787e-002	3.083788e+000
11.374	-8.841695e-002	2.848899e+000	-2.592852e+001	-7.744092e+001	-2.593175e+001	-7.731155e+001	-7.103574e-002	3.052001e+000
11.511	-8.757587e-002	2.818738e+000	-2.602118e+001	-7.743635e+001	-2.602494e+001	-7.731029e+001	-7.019183e-002	3.020954e+000
11.649	-8.685063e-002	2.788399e+000	-2.611298e+001	-7.743106e+001	-2.611681e+001	-7.730465e+001	-6.951979e-002	2.990782e+000
11.786	-8.625889e-002	2.758907e+000	-2.620426e+001	-7.742219e+001	-2.620713e+001	-7.729679e+001	-6.874998e-002	2.961879e+000
11.924	-8.554213e-002	2.730978e+000	-2.629320e+001	-7.741558e+001	-2.629666e+001	-7.729402e+001	-6.802003e-002	2.933174e+000
12.061	-8.476350e-002	2.702755e+000	-2.638248e+001	-7.741504e+001	-2.638601e+001	-7.728736e+001	-6.733318e-002	2.905126e+000
12.198	-8.420491e-002	2.675027e+000	-2.646958e+001	-7.740225e+001	-2.647299e+001	-7.728187e+001	-6.656275e-002	2.877926e+000
12.336	-8.348585e-002	2.648032e+000	-2.655698e+001	-7.739488e+001	-2.655999e+001	-7.726980e+001	-6.589916e-002	2.850983e+000
12.473	-8.289825e-002	2.621482e+000	-2.664262e+001	-7.739093e+001	-2.664626e+001	-7.726515e+001	-6.525631e-002	2.824212e+000
12.611	-8.226073e-002	2.595791e+000	-2.672754e+001	-7.738293e+001	-2.673104e+001	-7.725622e+001	-6.454423e-002	2.798415e+000
12.748	-8.159620e-002	2.570877e+000	-2.681159e+001	-7.737161e+001	-2.681492e+001	-7.724697e+001	-6.398364e-002	2.773513e+000
12.885	-8.103069e-002	2.545759e+000	-2.689421e+001	-7.736445e+001	-2.689761e+001	-7.724190e+001	-6.327924e-002	2.748373e+000
13.023	-8.032174e-002	2.521725e+000	-2.697631e+001	-7.735999e+001	-2.698024e+001	-7.723573e+001	-6.266111e-002	2.723831e+000
13.160	-7.985152e-002	2.497715e+000	-2.705814e+001	-7.734505e+001	-2.706127e+001	-7.722166e+001	-6.210494e-002	2.700273e+000
13.298	-7.920024e-002	2.474189e+000	-2.713853e+001	-7.734208e+001	-2.714245e+001	-7.721511e+001	-6.158779e-002	2.677062e+000
13.435	-7.859649e-002	2.451722e+000	-2.721769e+001	-7.733087e+001	-2.722186e+001	-7.720903e+001	-6.099331e-002	2.654348e+000
13.572	-7.805980e-002	2.428911e+000	-2.729655e+001	-7.731916e+001	-2.730074e+001	-7.719708e+001	-6.055069e-002	2.632466e+000
13.733	-7.830064e-002	2.402852e+000	-2.738581e+001	-7.718342e+001	-2.739317e+001	-7.725912e+001	-5.946964e-002	2.607198e+000
13.923	-7.671168e-002	2.373953e+000	-2.749423e+001	-7.729373e+001	-2.749951e+001	-7.717223e+001	-5.926964e-002	2.576815e+000
14.112	-7.595972e-002	2.344843e+000	-2.760042e+001	-7.727408e+001	-2.760484e+001	-7.715173e+001	-5.861520e-002	2.547333e+000
14.302	-7.535112e-002	2.317045e+000	-2.770392e+001	-7.726326e+001	-2.770825e+001	-7.713966e+001	-5.788191e-002	2.519805e+000
14.492	-7.467261e-002	2.288974e+000	-2.780616e+001	-7.724305e+001	-2.781052e+001	-7.712020e+001	-5.731576e-002	2.492056e+000
14.682	-7.396905e-002	2.261783e+000	-2.790762e+001	-7.722436e+001	-2.791212e+001	-7.710122e+001	-5.665516e-002	2.465240e+000
14.872	-7.329363e-002	2.236134e+000	-2.800772e+001	-7.720939e+001	-2.801188e+001	-7.708513e+001	-5.598837e-002	2.438971e+000
15.062	-7.266954e-002	2.210088e+000	-2.810662e+001	-7.719397e+001	-2.811093e+001	-7.707080e+001	-5.531448e-002	2.413379e+000
15.251	-7.207841e-002	2.185193e+000	-2.820449e+001	-7.717260e+001	-2.820879e+001	-7.704856e+001	-5.485256e-002	2.388809e+000
15.441	-7.150921e-002	2.160396e+000	-2.830048e+001	-7.715817e+001	-2.830511e+001	-7.703437e+001	-5.414347e-002	2.364002e+000
15.631	-7.092539e-002	2.137030e+000	-2.839567e+001	-7.713732e+001	-2.840011e+001	-7.701583e+001	-5.359679e-002	2.340047e+000
15.821	-7.037424e-002	2.113411e+000	-2.848943e+001	-7.711774e+001	-2.849424e+001	-7.699419e+001	-5.296675e-002	2.316342e+000
16.011	-6.973675e-002	2.090663e+000	-2.858271e+001	-7.709631e+001	-2.858769e+001	-7.697456e+001	-5.244548e-002	2.293919e+000
16.201	-6.921941e-002	2.067789e+000	-2.867486e+001	-7.707517e+001	-2.867945e+001	-7.694851e+001	-5.190756e-002	2.271981e+000
16.391	-6.868854e-002	2.046460e+000	-2.876570e+001	-7.705556e+001	-2.877061e+001	-7.693238e+001	-5.145794e-002	2.249954e+000
16.580	-6.828604e-002	2.025276e+000	-2.885549e+001	-7.703338e+001	-2.886029e+001	-7.690895e+001	-5.096866e-002	2.228709e+000
16.770	-6.772571e-002	2.004270e+000	-2.894462e+001	-7.700876e+001	-2.894959e+001	-7.688727e+001	-5.042405e-002	2.207997e+000
16.960	-6.725107e-002	1.983383e+000	-2.903280e+001	-7.698658e+001	-2.903747e+001	-7.686352e+001	-4.987692e-002	2.187412e+000
17.150	-6.665419e-002	1.964260e+000	-2.911769e+001	-7.699212e+001	-2.912295e+001	-7.687610e+001	-4.922780e-002	2.168096e+000
17.340	-6.633212e-002	1.944308e+000	-2.920432e+001	-7.693939e+001	-2.920904e+001	-7.681757e+001	-4.894188e-002	2.148426e+000
17.530	-6.581588e-002	1.924802e+000	-2.928963e+001	-7.691650e+001	-2.929443e+001	-7.679388e+001	-4.848288e-002	2.128997e+000
17.720	-6.536029e-002	1.905936e+000	-2.937438e+001	-7.688927e+001	-2.937911e+001	-7.676728e+001	-4.793925e-002	2.109836e+000
17.909	-6.481755e-002	1.886931e+000	-2.945781e+001	-7.686634e+001	-2.946266e+001	-7.674448e+001	-4.751334e-002	2.091241e+000
18.099	-6.442510e-002	1.868904e+000	-2.954033e+001	-7.684065e+001	-2.954538e+001	-7.672060e+001	-4.705086e-002	2.072729e+000
18.289	-6.400112e-002	1.850692e+000	-2.962275e+001	-7.681784e+001	-2.962783e+001	-7.669514e+001	-4.668534e-002	2.055087e+000
18.479	-6.358155e-002	1.833560e+000	-2.970342e+001	-7.678803e+001	-2.970837e+001	-7.666946e+001	-4.624849e-002	2.037669e+000
18.669	-6.320527e-002	1.816183e+000	-2.978397e+001	-7.676173e+001	-2.978892e+001	-7.664191e+001	-4.587217e-002	2.021012e+000
18.859	-6.288524e-002	1.799830e+000	-2.986333e+001	-7.673474e+001	-2.986866e+001	-7.661593e+001	-4.553090e-002	2.003715e+000
19.082	-6.417699e-002	1.779792e+000	-2.994901e+001	-7.636381e+001	-2.995685e+001	-7.626495e+001	-4.672899e-002	1.983072e+000
19.344	-6.189538e-002	1.757954e+000	-3.006516e+001	-7.667730e+001	-3.007011e+001	-7.655936e+001	-4.439470e-002	1.961673e+000
19.606	-6.146356e-002	1.736452e+000	-3.016958e+001	-7.662389e+001	-3.017552e+001	-7.650655e+001	-4.411652e-002	1.940189e+000
19.868	-6.108759e-002	1.715209e+000	-3.027386e+001	-7.659231e+001	-3.027924e+001	-7.647520e+001	-4.363016e-002	1.918950e+000
20.130	-6.059176e-002	1.694780e+000	-3.037676e+001	-7.654703e+001	-3.038256e+001	-7.643040e+001	-4.321352e-002	1.898664e+000
20.392	-6.015699e-002	1.674326e+000	-3.047880e+001	-7.650675e+001	-3.048469e+001	-7.639052e+001	-4.278925e-002	1.878394e+000
20.655	-5.976837e-002	1.655311e+000	-3.057934e+001	-7.646517e+001	-3.058469e+001	-7.634788e+001	-4.235279e-002	1.858781e+000
20.917	-5.930813e-002	1.635630e+000	-3.067873e+001	-7.642826e+001	-3.068415e+001	-7.630927e+001	-4.196289e-002	1.839893e+000
21.179	-5.893279e-002	1.616751e+000	-3.077727e+001	-7.638599e+001	-3.078281e+001	-7.626676e+001	-4.153980e-002	1.820365e+000
21.441	-5.854956e-002	1.598576e+000	-3.087329e+001	-7.634260e+001	-3.087896e+001	-7.622394e+001	-4.103874e-002	1.802568e+000
21.703	-5.807585e-002	1.580096e+000	-3.096945e+001	-7.629534e+001	-3.097528e+001	-7.617821e+001	-4.067058e-002	1.785040e+000
21.965	-5.773518e-002	1.562627e+000	-3.106438e+001	-7.625228e+001	-3.106977e+001	-7.613350e+001	-4.022157e-002	1.767439e+000
22.228	-5.736052e-002	1.545720e+000	-3.115784e+001	-7.620748e+001	-3.116350e+001	-7.608776e+001	-3.990920e-002	1.749768e+000
22.490	-5.714381e-002	1.529208e+000	-3.125018e+001	-7.616261e+001	-3.125573e+001	-7.604546e+001	-3.954280e-002	1.733034e+000
22.752	-5.664059e-002	1.512538e+000	-3.134199e+001	-7.612195e+001	-3.134737e+001	-7.600399e+001	-3.918314e-002	1.716578e+000
23.014	-5.640892e-002	1.496301e+000	-3.143178e+001	-7.607470e+001	-3.143728e+001	-7.595222e+001	-3.882668e-002	1.700433e+000
23.276	-5.604840e-002	1.480563e+000	-3.152169e+001	-7.602504e+001	-3.152709e+001	-7.590784e+001	-3.846772e-002	1.684736e+000
23.538	-5.570973e-002	1.465038e+000	-3.161011e+001	-7.597858e+001	-3.161549e+001	-7.586219e+001	-3.816812e-002	1.669244e+000
23.801	-5.543829e-002	1.450218e+000	-3.169712e+001	-7.593223e+001	-3.170308e+001	-7.581445e+001	-3.778980e-002	1.654355e+000
24.063	-5.499266e-002	1.435234e+000	-3.178346e+001	-7.588539e+001	-3.178911e+001	-7.576725e+001	-3.752305e-002	1.639629e+000
24.325	-5.468361e-002	1.421200e+000	-3.186879e+001	-7.583833e+001	-3.187448e+001	-7.572177e+001	-3.725197e-002	1.625686e+000
24.587	-5.435501e-002	1.406725e+000	-3.195374e+001	-7.578350e+001	-3.195898e+001	-7.566741e+001	-3.687090e-002	1.611302e+000
24.849	-5.413709e-002	1.393181e+000	-3.203730e+001	-7.574015e+001	-3.204310e+001	-7.561909e+001	-3.659878e-002	1.597632e+000
25.111	-5.393105e-002	1.379225e+000	-3.211987e+001	-7.568645e+001	-3.212594e+001	-7.556997e+001	-3.636610e-002	1.584080e+000
25.374	-5.359017e-002	1.366339e+000	-3.220255e+001	-7.563920e+001	-3.220768e+001	-7.551745e+001	-3.610897e-002	1.570928e+000
25.636	-5.333760e-002	1.353052e+000	-3.228329e+001	-7.558812e+001	-3.228878e+001	-7.546921e+001	-3.585749e-002	1.557219e+000
25.898	-5.308501e-002	1.340615e+000	-3.236331e+001	-7.553728e+001	-3.236898e+001	-7.542121e+001	-3.560133e-002	1.544707e+000
26.204	-5.182435e-002	1.325371e+000	-3.246963e+001	-7.573526e+001	-3.247360e+001	-7.559726e+001	-3.429695e-002	1.530285e+000
26.564	-5.259967e-002	1.308602e+000	-3.256484e+001	-7.540434e+001	-3.257044e+001	-7.529172e+001	-3.492237e-002	1.513040e+000
26.924	-5.223034e-002	1.292955e+000	-3.267029e+001	-7.532773e+001	-3.267577e+001	-7.521296e+001	-3.466466e-002	1.497070e+000
27.284	-5.178278e-002	1.276888e+000	-3.277579e+001	-7.526068e+001	-3.278159e+001	-7.514329e+001	-3.430404e-002	1.480681e+000
27.644	-5.155500e-002	1.261117e+000	-3.288003e+001	-7.519292e+001	-3.288475e+001	-7.507258e+001	-3.396041e-002	1.464771e+000
28.004	-5.122104e-002	1.245791e+000	-3.298162e+001	-7.511214e+001	-3.298733e+001	-7.499877e+001	-3.361569e-002	1.449399e+000
28.364	-5.078008e-002	1.231170e+000	-3.308304e+001	-7.503934e+001	-3.308840e+001	-7.492169e+001	-3.331917e-002	1.434484e+000
28.724	-5.052662e-002	1.215982e+000	-3.318250e+001	-7.496593e+001	-3.318764e+001	-7.484585e+001	-3.303923e-002	1.419978e+000
29.084	-5.027610e-002	1.202245e+000	-3.328126e+001	-7.488995e+001	-3.328611e+001	-7.477063e+001	-3.272465e-002	1.406383e+000
29.444	-5.000976e-002	1.189001e+000	-3.337780e+001	-7.481148e+001	-3.338331e+001	-7.469444e+001	-3.254297e-002	1.392936e+000
29.804	-4.985361e-002	1.175469e+000	-3.347270e+001	-7.473443e+001	-3.347812e+001	-7.461387e+001	-3.233689e-002	1.380341e+000
30.164	-4.954342e-002	1.161946e+000	-3.356733e+001	-7.466528e+001	-3.357335e+001	-7.454341e+001	-3.209872e-002	1.366686e+000
30.524	-4.946179e-002	1.149566e+000	-3.366147e+001	-7.457975e+001	-3.366650e+001	-7.445986e+001	-3.179689e-002	1.353580e+000
30.884	-4.911186e-002	1.136923e+000	-3.375328e+001	-7.450336e+001	-3.375829e+001	-7.438324e+001	-3.152834e-002	1.340753e+000
31.244	-4.885260e-002	1.124061e+000	-3.384511e+001	-7.442215e+001	-3.385004e+001	-7.430800e+001	-3.132189e-002	1.327799e+000
31.605	-4.872516e-002	1.111500e+000	-3.393462e+001	-7.434827e+001	-3.394040e+001	-7.422931e+001	-3.112681e-002	1.315841e+000
31.965	-4.844837e-002	1.099856e+000	-3.402288e+001	-7.426584e+001	-3.402956e+001	-7.414811e+001	-3.086932e-002	1.303543e+000
32.325	-4.816718e-002	1.088333e+000	-3.411230e+001	-7.418599e+001	-3.411658e+001	-7.406201e+001	-3.057312e-002	1.291979e+000
32.685	-4.801801e-002	1.077280e+000	-3.419943e+001	-7.410051e+001	-3.420500e+001	-7.399100e+001	-3.038425e-002	1.280945e+000
33.045	-4.777611e-002	1.065402e+000	-3.428496e+001	-7.402496e+001	-3.429040e+001	-7.390442e+001	-3.004534e-002	1.269424e+000
33.405	-4.761988e-002	1.054936e+000	-3.437164e+001	-7.394281e+001	-3.437553e+001	-7.382720e+001	-2.999306e-002	1.259067e+000
33.765	-4.733654e-002	1.044128e+000	-3.445461e+001	-7.386436e+001	-3.445984e+001	-7.374192e+001	-2.978722e-002	1.248020e+000
34.125	-4.708884e-002	1.034006e+000	-3.453753e+001	-7.377798e+001	-3.454314e+001	-7.366356e+001	-2.950566e-002	1.237196e+000
34.485	-4.692455e-002	1.023406e+000	-3.462031e+001	-7.369475e+001	-3.462459e+001	-7.358389e+001	-2.945023e-002	1.227083e+000
34.845	-4.666682e-002	1.013670e+000	-3.470066e+001	-7.361353e+001	-3.470555e+001	-7.348850e+001	-2.925604e-002	1.217323e+000
35.205	-4.653637e-002	1.003996e+000	-3.478095e+001	-7.354309e+001	-3.478667e+001	-7.341539e+001	-2.895976e-002	1.207601e+000
35.565	-4.647752e-002	9.944433e-001	-3.486092e+001	-7.344817e+001	-3.486711e+001	-7.332546e+001	-2.888658e-002	1.197883e+000
35.985	-4.549429e-002	9.842738e-001	-3.495774e+001	-7.353376e+001	-3.496351e+001	-7.341252e+001	-2.807766e-002	1.187638e+000
36.483	-4.591737e-002	9.698647e-001	-3.506133e+001	-7.324451e+001	-3.506876e+001	-7.312361e+001	-2.841433e-002	1.174327e+000
36.980	-4.581023e-002	9.579710e-001	-3.516511e+001	-7.312353e+001	-3.517178e+001	-7.300085e+001	-2.817959e-002	1.161797e+000
37.478	-4.549709e-002	9.469295e-001	-3.527030e+001	-7.301454e+001	-3.527371e+001	-7.289094e+001	-2.815716e-002	1.150618e+000
37.975	-4.552764e-002	9.348106e-001	-3.537202e+001	-7.289083e+001	-3.537603e+001	-7.277338e+001	-2.794397e-002	1.139074e+000
38.473	-4.526196e-002	9.236810e-001	-3.547178e+001	-7.276809e+001	-3.547908e+001	-7.264690e+001	-2.774938e-002	1.127519e+000
38.970	-4.495896e-002	9.123210e-001	-3.557447e+001	-7.265357e+001	-3.557857e+001	-7.252984e+001	-2.761734e-002	1.116277e+000
39.468	-4.491161e-002	9.017395e-001	-3.567204e+001	-7.253857e+001	-3.567760e+001	-7.242463e+001	-2.736367e-002	1.105158e+000
39.965	-4.466970e-002	8.902730e-001	-3.577102e+001	-7.241390e+001	-3.577483e+001	-7.229618e+001	-2.722756e-002	1.094292e+000
40.463	-4.459031e-002	8.794524e-001	-3.586556e+001	-7.228821e+001	-3.587194e+001	-7.216731e+001	-2.700701e-002	1.083995e+000
40.960	-4.449913e-002	8.693275e-001	-3.595868e+001	-7.216726e+001	-3.596328e+001	-7.204846e+001	-2.688633e-002	1.073840e+000
41.458	-4.420448e-002	8.596932e-001	-3.605336e+001	-7.205428e+001	-3.605803e+001	-7.194254e+001	-2.668844e-002	1.064124e+000
41.955	-4.414681e-002	8.492978e-001	-3.614526e+001	-7.193720e+001	-3.615143e+001	-7.181524e+001	-2.658005e-002	1.053801e+000
42.452	-4.398208e-002	8.403428e-001	-3.623489e+001	-7.181726e+001	-3.624063e+001	-7.169450e+001	-2.648565e-002	1.044276e+000
42.950	-4.395229e-002	8.309724e-001	-3.632568e+001	-7.169498e+001	-3.633110e+001	-7.157210e+001	-2.633875e-002	1.035501e+000
43.447	-4.381802e-002	8.223140e-001	-3.641340e+001	-7.157655e+001	-3.641871e+001	-7.145039e+001	-2.614793e-002	1.026091e+000
43.945	-4.369460e-002	8.139449e-001	-3.650270e+001	-7.144466e+001	-3.650849e+001	-7.132507e+001	-2.605226e-002	1.017560e+000
44.442	-4.345479e-002	8.045314e-001	-3.659011e+001	-7.132956e+001	-3.659372e+001	-7.121623e+001	-2.591252e-002	1.008812e+000
44.940	-4.339302e-002	7.963077e-001	-3.667426e+001	-7.121537e+001	-3.667796e+001	-7.110131e+001	-2.576145e-002	9.998435e-001
45.437	-4.324941e-002	7.879564e-001	-3.675823e+001	-7.109668e+001	-3.676110e+001	-7.098275e+001	-2.571974e-002	9.915588e-001
45.935	-4.318432e-002	7.800877e-001	-3.683978e+001	-7.098239e+001	-3.684384e+001	-7.086465e+001	-2.557581e-002	9.832303e-001
46.432	-4.298733e-002	7.715614e-001	-3.692334e+001	-7.086282e+001	-3.692720e+001	-7.074363e+001	-2.540213e-002	9.754982e-001
46.930	-4.294980e-002	7.634568e-001	-3.700770e+001	-7.072643e+001	-3.701135e+001	-7.062839e+001	-2.527682e-002	9.674780e-001
47.427	-4.286428e-002	7.565659e-001	-3.708703e+001	-7.057051e+001	-3.709162e+001	-7.046754e+001	-2.523384e-002	9.596790e-001
47.925	-4.272848e-002	7.502889e-001	-3.715889e+001	-7.046205e+001	-3.716630e+001	-7.033500e+001	-2.513758e-002	9.527380e-001
48.422	-4.243184e-002	7.417124e-001	-3.724242e+001	-7.037464e+001	-3.724443e+001	-7.026588e+001	-2.493296e-002	9.455069e-001
48.920	-4.255192e-002	7.347082e-001	-3.731944e+001	-7.020600e+001	-3.732722e+001	-7.009708e+001	-2.474954e-002	9.377975e-001
49.417	-4.225347e-002	7.281239e-001	-3.739409e+001	-7.013235e+001	-3.739636e+001	-7.000349e+001	-2.461368e-002	9.324051e-001
50.001	-4.202222e-002	7.198525e-001	-3.748429e+001	-7.002580e+001	-3.749061e+001	-6.987225e+001	-2.433660e-002	9.236140e-001
50.688	-4.188153e-002	7.113905e-001	-3.757876e+001	-6.983685e+001	-3.758183e+001	-6.968749e+001	-2.439973e-002	9.149391e-001
51.375	-4.174896e-002	6.999879e-001	-3.768852e+001	-6.969571e+001	-3.768635e+001	-6.956201e+001	-2.417168e-002	9.052224e-001
52.062	-4.164332e-002	6.914196e-001	-3.779921e+001	-6.948125e+001	-3.779985e+001	-6.940249e+001	-2.392619e-002	8.961781e-001
52.749	-4.177568e-002	6.830951e-001	-3.788588e+001	-6.919098e+001	-3.789994e+001	-6.909969e+001	-2.401460e-002	8.871172e-001
53.436	-4.137615e-002	6.767056e-001	-3.796752e+001	-6.915877e+001	-3.797017e+001	-6.898090e+001	-2.390199e-002	8.803054e-001
54.123	-4.116454e-002	6.668102e-001	-3.809495e+001	-6.896764e+001	-3.809379e+001	-6.890966e+001	-2.343981e-002	8.702828e-001
54.810	-4.139231e-002	6.608373e-001	-3.815120e+001	-6.872360e+001	-3.816360e+001	-6.855225e+001	-2.384316e-002	8.645519e-001
55.497	-4.094894e-002	6.504867e-001	-3.828307e+001	-6.862594e+001	-3.828433e+001	-6.858497e+001	-2.330576e-002	8.550937e-001
56.184	-4.100614e-002	6.448113e-001	-3.833280e+001	-6.851377e+001	-3.833417e+001	-6.830487e+001	-2.349438e-002	8.488965e-001
56.871	-4.132013e-002	6.365961e-001	-3.844402e+001	-6.810712e+001	-3.846133e+001	-6.801912e+001	-2.353841e-002	8.396909e-001
57.558	-4.079777e-002	6.281462e-001	-3.855492e+001	-6.812081e+001	-3.855469e+001	-6.810048e+001	-2.286450e-002	8.328119e-001
58.245	-4.048079e-002	6.230262e-001	-3.862087e+001	-6.809805e+001	-3.861049e+001	-6.797442e+001	-2.302496e-002	8.284373e-001
58.932	-4.048085e-002	6.164233e-001	-3.868515e+001	-6.790553e+001	-3.868104e+001	-6.769907e+001	-2.315301e-002	8.219252e-001
59.619	-4.051268e-002	6.112584e-001	-3.876300e+001	-6.766384e+001	-3.876298e+001	-6.744606e+001	-2.321434e-002	8.161088e-001
60.306	-4.052389e-002	6.037942e-001	-3.884432e+001	-6.749634e+001	-3.884653e+001	-6.727297e+001	-2.310702e-002	8.090078e-001
60.993	-4.029620e-002	5.975201e-001	-3.893256e+001	-6.739086e+001	-3.892950e+001	-6.718370e+001	-2.290811e-002	8.026413e-001
61.680	-4.011874e-002	5.908981e-001	-3.903520e+001	-6.727307e+001	-3.902456e+001	-6.714006e+001	-2.262761e-002	7.961546e-001
62.367	-4.011031e-002	5.823543e-001	-3.913867e+001	-6.698340e+001	-3.913628e+001	-6.695368e+001	-2.238470e-002	7.871115e-001
63.054	-4.044274e-002	5.757369e-001	-3.919879e+001	-6.659096e+001	-3.921759e+001	-6.651906e+001	-2.267159e-002	7.796786e-001
