!Agilent Technologies,E5061B,MY49204007,A.02.12
!Date: Wed Jul 23 11:49:37 2025
!Data & Calibration Information:
!Freq	S11:SOLT2(ON)	S21:SOLT2(ON)	S12:SOLT2(ON)	S22:SOLT2(ON)
# Hz S dB R 50
10.000	-9.901317e-002	3.207133e+000	-2.490673e+001	-7.729394e+001	-2.491233e+001	-7.719174e+001	-8.104758e-002	3.413361e+000
10.137	-9.771148e-002	3.164140e+000	-2.502506e+001	-7.731224e+001	-2.502926e+001	-7.719570e+001	-7.992684e-002	3.369481e+000
10.275	-9.665819e-002	3.124616e+000	-2.513323e+001	-7.730687e+001	-2.513614e+001	-7.719369e+001	-7.896183e-002	3.329359e+000
10.412	-9.556103e-002	3.085690e+000	-2.523881e+001	-7.730846e+001	-2.524129e+001	-7.719105e+001	-7.792740e-002	3.291166e+000
10.550	-9.460727e-002	3.048995e+000	-2.534173e+001	-7.730728e+001	-2.534400e+001	-7.719183e+001	-7.693151e-002	3.254534e+000
10.687	-9.369053e-002	3.013611e+000	-2.544253e+001	-7.730507e+001	-2.544492e+001	-7.719051e+001	-7.608549e-002	3.219028e+000
10.824	-9.290425e-002	2.979217e+000	-2.554148e+001	-7.730611e+001	-2.554464e+001	-7.719079e+001	-7.508174e-002	3.183339e+000
10.962	-9.198619e-002	2.944749e+000	-2.564078e+001	-7.730383e+001	-2.564327e+001	-7.718195e+001	-7.427627e-002	3.150039e+000
11.099	-9.126792e-002	2.911958e+000	-2.573614e+001	-7.729791e+001	-2.573877e+001	-7.718249e+001	-7.338983e-002	3.117470e+000
11.237	-9.041162e-002	2.879654e+000	-2.583241e+001	-7.728892e+001	-2.583456e+001	-7.716990e+001	-7.258312e-002	3.085264e+000
11.374	-8.954248e-002	2.848292e+000	-2.592697e+001	-7.728794e+001	-2.592942e+001	-7.716632e+001	-7.171463e-002	3.053464e+000
11.511	-8.872013e-002	2.817492e+000	-2.601962e+001	-7.728169e+001	-2.602236e+001	-7.716212e+001	-7.092472e-002	3.022577e+000
11.649	-8.789502e-002	2.787676e+000	-2.611166e+001	-7.727484e+001	-2.611429e+001	-7.715376e+001	-7.019337e-002	2.992834e+000
11.786	-8.730375e-002	2.758206e+000	-2.620233e+001	-7.726764e+001	-2.620516e+001	-7.714603e+001	-6.958436e-002	2.963624e+000
11.924	-8.667432e-002	2.730532e+000	-2.629150e+001	-7.725620e+001	-2.629392e+001	-7.714146e+001	-6.872753e-002	2.935062e+000
12.061	-8.586991e-002	2.701740e+000	-2.638073e+001	-7.725509e+001	-2.638349e+001	-7.713103e+001	-6.804126e-002	2.906844e+000
12.198	-8.535910e-002	2.674386e+000	-2.646774e+001	-7.723879e+001	-2.647033e+001	-7.712547e+001	-6.734056e-002	2.879613e+000
12.336	-8.458632e-002	2.647715e+000	-2.655503e+001	-7.723070e+001	-2.655730e+001	-7.711218e+001	-6.662596e-002	2.852838e+000
12.473	-8.390578e-002	2.620827e+000	-2.664107e+001	-7.722469e+001	-2.664342e+001	-7.710385e+001	-6.593602e-002	2.825798e+000
12.611	-8.327319e-002	2.595405e+000	-2.672580e+001	-7.721758e+001	-2.672818e+001	-7.709423e+001	-6.527679e-002	2.800422e+000
12.748	-8.263567e-002	2.569734e+000	-2.680966e+001	-7.720476e+001	-2.681190e+001	-7.708418e+001	-6.464943e-002	2.775065e+000
12.885	-8.217626e-002	2.545380e+000	-2.689224e+001	-7.719341e+001	-2.689468e+001	-7.707673e+001	-6.410453e-002	2.749895e+000
13.023	-8.142678e-002	2.521238e+000	-2.697417e+001	-7.718819e+001	-2.697739e+001	-7.706887e+001	-6.340020e-002	2.725909e+000
13.160	-8.088659e-002	2.497303e+000	-2.705608e+001	-7.717224e+001	-2.705861e+001	-7.705437e+001	-6.286330e-002	2.702072e+000
13.298	-8.031076e-002	2.473932e+000	-2.713647e+001	-7.716692e+001	-2.713936e+001	-7.704577e+001	-6.229910e-002	2.678937e+000
13.435	-7.968554e-002	2.451403e+000	-2.721554e+001	-7.715423e+001	-2.721874e+001	-7.703749e+001	-6.176266e-002	2.656278e+000
13.572	-7.918899e-002	2.428667e+000	-2.729435e+001	-7.714157e+001	-2.729776e+001	-7.702383e+001	-6.130744e-002	2.633742e+000
13.733	-7.936636e-002	2.402168e+000	-2.738332e+001	-7.700557e+001	-2.739011e+001	-7.708283e+001	-6.018845e-002	2.608259e+000
13.923	-7.784113e-002	2.373357e+000	-2.749212e+001	-7.711029e+001	-2.749634e+001	-7.699632e+001	-6.004489e-002	2.578324e+000
14.112	-7.707492e-002	2.344260e+000	-2.759780e+001	-7.709118e+001	-2.760156e+001	-7.697229e+001	-5.939277e-002	2.549299e+000
14.302	-7.635833e-002	2.316305e+000	-2.770112e+001	-7.707639e+001	-2.770496e+001	-7.695781e+001	-5.871760e-002	2.521338e+000
14.492	-7.569064e-002	2.288712e+000	-2.780348e+001	-7.705431e+001	-2.780710e+001	-7.693467e+001	-5.807672e-002	2.493708e+000
14.682	-7.508158e-002	2.261627e+000	-2.790496e+001	-7.703528e+001	-2.790846e+001	-7.691661e+001	-5.738407e-002	2.466640e+000
14.872	-7.446166e-002	2.235883e+000	-2.800490e+001	-7.701505e+001	-2.800815e+001	-7.689845e+001	-5.675087e-002	2.440470e+000
15.062	-7.380387e-002	2.209803e+000	-2.810356e+001	-7.699745e+001	-2.810703e+001	-7.688254e+001	-5.615051e-002	2.414944e+000
15.251	-7.319984e-002	2.184749e+000	-2.820138e+001	-7.697425e+001	-2.820499e+001	-7.685667e+001	-5.558957e-002	2.390019e+000
15.441	-7.265378e-002	2.160095e+000	-2.829736e+001	-7.695804e+001	-2.830126e+001	-7.684042e+001	-5.495659e-002	2.365339e+000
15.631	-7.214510e-002	2.136694e+000	-2.839257e+001	-7.693463e+001	-2.839640e+001	-7.681786e+001	-5.442057e-002	2.341695e+000
15.821	-7.157292e-002	2.113436e+000	-2.848677e+001	-7.691224e+001	-2.849027e+001	-7.679570e+001	-5.385365e-002	2.317996e+000
16.011	-7.094355e-002	2.090605e+000	-2.857970e+001	-7.689104e+001	-2.858357e+001	-7.677227e+001	-5.325712e-002	2.295628e+000
16.201	-7.053461e-002	2.068067e+000	-2.867189e+001	-7.686489e+001	-2.867559e+001	-7.674776e+001	-5.276917e-002	2.273150e+000
16.391	-6.990713e-002	2.046381e+000	-2.876234e+001	-7.684633e+001	-2.876644e+001	-7.672782e+001	-5.220308e-002	2.251294e+000
16.580	-6.939556e-002	2.025121e+000	-2.885221e+001	-7.681748e+001	-2.885604e+001	-7.670144e+001	-5.168701e-002	2.229932e+000
16.770	-6.886358e-002	2.004299e+000	-2.894127e+001	-7.679165e+001	-2.894513e+001	-7.667730e+001	-5.124677e-002	2.209189e+000
16.960	-6.839473e-002	1.983156e+000	-2.902917e+001	-7.676709e+001	-2.903318e+001	-7.665091e+001	-5.067528e-002	2.188374e+000
17.150	-6.777897e-002	1.963658e+000	-2.911439e+001	-7.677295e+001	-2.911814e+001	-7.666197e+001	-4.996565e-002	2.169173e+000
17.340	-6.740714e-002	1.943966e+000	-2.920046e+001	-7.671916e+001	-2.920445e+001	-7.660187e+001	-4.967136e-002	2.149209e+000
17.530	-6.693957e-002	1.924820e+000	-2.928572e+001	-7.669184e+001	-2.928972e+001	-7.657740e+001	-4.921043e-002	2.129613e+000
17.720	-6.649908e-002	1.906054e+000	-2.937045e+001	-7.666548e+001	-2.937436e+001	-7.654997e+001	-4.878841e-002	2.110843e+000
17.909	-6.612727e-002	1.886926e+000	-2.945407e+001	-7.663818e+001	-2.945816e+001	-7.652207e+001	-4.835117e-002	2.092399e+000
18.099	-6.562369e-002	1.868729e+000	-2.953659e+001	-7.661293e+001	-2.954056e+001	-7.649423e+001	-4.782803e-002	2.074022e+000
18.289	-6.515678e-002	1.850888e+000	-2.961895e+001	-7.658353e+001	-2.962312e+001	-7.646864e+001	-4.741855e-002	2.055831e+000
18.479	-6.474270e-002	1.833060e+000	-2.969941e+001	-7.655741e+001	-2.970348e+001	-7.644165e+001	-4.696756e-002	2.038651e+000
18.669	-6.435398e-002	1.815809e+000	-2.977971e+001	-7.652854e+001	-2.978392e+001	-7.641089e+001	-4.664264e-002	2.021395e+000
18.859	-6.396101e-002	1.798892e+000	-2.985936e+001	-7.650049e+001	-2.986353e+001	-7.638446e+001	-4.632085e-002	2.004262e+000
19.082	-6.529577e-002	1.779311e+000	-2.994509e+001	-7.612591e+001	-2.995152e+001	-7.602951e+001	-4.749016e-002	1.983816e+000
19.344	-6.304538e-002	1.757632e+000	-3.006074e+001	-7.643780e+001	-3.006497e+001	-7.632162e+001	-4.524016e-002	1.961910e+000
19.606	-6.260449e-002	1.736464e+000	-3.016515e+001	-7.637966e+001	-3.016999e+001	-7.626608e+001	-4.484794e-002	1.940578e+000
19.868	-6.229254e-002	1.715258e+000	-3.026979e+001	-7.634489e+001	-3.027388e+001	-7.623112e+001	-4.434471e-002	1.919528e+000
20.130	-6.172876e-002	1.694520e+000	-3.037216e+001	-7.629873e+001	-3.037630e+001	-7.618219e+001	-4.384737e-002	1.898937e+000
20.392	-6.127437e-002	1.673682e+000	-3.047448e+001	-7.625372e+001	-3.047853e+001	-7.613698e+001	-4.348052e-002	1.879320e+000
20.655	-6.078728e-002	1.654248e+000	-3.057443e+001	-7.621102e+001	-3.057880e+001	-7.609405e+001	-4.297487e-002	1.859698e+000
20.917	-6.043340e-002	1.635074e+000	-3.067370e+001	-7.616873e+001	-3.067802e+001	-7.605160e+001	-4.266075e-002	1.840187e+000
21.179	-6.000564e-002	1.616559e+000	-3.077257e+001	-7.612394e+001	-3.077669e+001	-7.600534e+001	-4.221912e-002	1.821385e+000
21.441	-5.963145e-002	1.597683e+000	-3.086857e+001	-7.607608e+001	-3.087285e+001	-7.596101e+001	-4.185297e-002	1.803174e+000
21.703	-5.918945e-002	1.579686e+000	-3.096426e+001	-7.602821e+001	-3.096903e+001	-7.591109e+001	-4.143252e-002	1.785485e+000
21.965	-5.885455e-002	1.562179e+000	-3.105899e+001	-7.598101e+001	-3.106337e+001	-7.586730e+001	-4.102167e-002	1.767922e+000
22.228	-5.857208e-002	1.545281e+000	-3.115261e+001	-7.593259e+001	-3.115639e+001	-7.581876e+001	-4.071811e-002	1.750420e+000
22.490	-5.820327e-002	1.528634e+000	-3.124462e+001	-7.588620e+001	-3.124929e+001	-7.576934e+001	-4.035050e-002	1.733615e+000
22.752	-5.772634e-002	1.512177e+000	-3.133580e+001	-7.584262e+001	-3.134067e+001	-7.572493e+001	-3.993369e-002	1.716744e+000
23.014	-5.752358e-002	1.496423e+000	-3.142605e+001	-7.579030e+001	-3.143053e+001	-7.567392e+001	-3.963252e-002	1.700997e+000
23.276	-5.715151e-002	1.480164e+000	-3.151539e+001	-7.573868e+001	-3.151995e+001	-7.562300e+001	-3.932853e-002	1.685521e+000
23.538	-5.678361e-002	1.465240e+000	-3.160365e+001	-7.569053e+001	-3.160866e+001	-7.557396e+001	-3.896478e-002	1.669787e+000
23.801	-5.647675e-002	1.450292e+000	-3.169083e+001	-7.564036e+001	-3.169561e+001	-7.552535e+001	-3.865131e-002	1.655187e+000
24.063	-5.620194e-002	1.435266e+000	-3.177721e+001	-7.558768e+001	-3.178186e+001	-7.547290e+001	-3.831138e-002	1.640939e+000
24.325	-5.577484e-002	1.421088e+000	-3.186231e+001	-7.553999e+001	-3.186718e+001	-7.542550e+001	-3.803086e-002	1.626050e+000
24.587	-5.551763e-002	1.407078e+000	-3.194641e+001	-7.548546e+001	-3.195157e+001	-7.536998e+001	-3.764287e-002	1.611985e+000
24.849	-5.518056e-002	1.392853e+000	-3.203076e+001	-7.543415e+001	-3.203535e+001	-7.531897e+001	-3.726961e-002	1.597488e+000
25.111	-5.491246e-002	1.378855e+000	-3.211308e+001	-7.538088e+001	-3.211802e+001	-7.526752e+001	-3.708936e-002	1.584271e+000
25.374	-5.466049e-002	1.365700e+000	-3.219492e+001	-7.533117e+001	-3.219988e+001	-7.521542e+001	-3.682834e-002	1.570559e+000
25.636	-5.440193e-002	1.352897e+000	-3.227631e+001	-7.527725e+001	-3.228078e+001	-7.516101e+001	-3.660209e-002	1.557998e+000
25.898	-5.420185e-002	1.340165e+000	-3.235575e+001	-7.522478e+001	-3.236099e+001	-7.510664e+001	-3.642397e-002	1.545173e+000
26.204	-5.286345e-002	1.325059e+000	-3.246228e+001	-7.541797e+001	-3.246561e+001	-7.527974e+001	-3.507847e-002	1.530745e+000
26.564	-5.363538e-002	1.308002e+000	-3.255736e+001	-7.508024e+001	-3.256276e+001	-7.497234e+001	-3.578327e-002	1.513482e+000
26.924	-5.329089e-002	1.291862e+000	-3.266307e+001	-7.500597e+001	-3.266751e+001	-7.489066e+001	-3.546549e-002	1.497118e+000
27.284	-5.283076e-002	1.275889e+000	-3.276750e+001	-7.493252e+001	-3.277245e+001	-7.481392e+001	-3.504728e-002	1.481247e+000
27.644	-5.268390e-002	1.260385e+000	-3.287097e+001	-7.485727e+001	-3.287619e+001	-7.474054e+001	-3.475024e-002	1.465377e+000
28.004	-5.234808e-002	1.244840e+000	-3.297338e+001	-7.477574e+001	-3.297777e+001	-7.465815e+001	-3.438159e-002	1.450071e+000
28.364	-5.200850e-002	1.230217e+000	-3.307430e+001	-7.469779e+001	-3.307877e+001	-7.458760e+001	-3.416129e-002	1.435036e+000
28.724	-5.165962e-002	1.215881e+000	-3.317335e+001	-7.462236e+001	-3.317761e+001	-7.450165e+001	-3.384903e-002	1.420860e+000
29.084	-5.142627e-002	1.202015e+000	-3.327136e+001	-7.453818e+001	-3.327656e+001	-7.442310e+001	-3.357684e-002	1.406711e+000
29.444	-5.115181e-002	1.187943e+000	-3.336824e+001	-7.445915e+001	-3.337300e+001	-7.434154e+001	-3.340250e-002	1.394147e+000
29.804	-5.097558e-002	1.175225e+000	-3.346323e+001	-7.438322e+001	-3.346824e+001	-7.426244e+001	-3.319937e-002	1.380989e+000
30.164	-5.065534e-002	1.161785e+000	-3.355784e+001	-7.430062e+001	-3.356338e+001	-7.418400e+001	-3.286145e-002	1.367613e+000
30.524	-5.053550e-002	1.148783e+000	-3.365051e+001	-7.421641e+001	-3.365583e+001	-7.410353e+001	-3.263008e-002	1.354518e+000
30.884	-5.022077e-002	1.136114e+000	-3.374343e+001	-7.412991e+001	-3.374859e+001	-7.401614e+001	-3.240471e-002	1.341103e+000
31.244	-4.999445e-002	1.123432e+000	-3.383378e+001	-7.404913e+001	-3.383928e+001	-7.393745e+001	-3.204632e-002	1.328637e+000
31.605	-4.971150e-002	1.110947e+000	-3.392459e+001	-7.396539e+001	-3.392920e+001	-7.384829e+001	-3.183348e-002	1.316520e+000
31.965	-4.945158e-002	1.098856e+000	-3.401310e+001	-7.388656e+001	-3.401834e+001	-7.377105e+001	-3.161785e-002	1.304634e+000
32.325	-4.929366e-002	1.087559e+000	-3.409987e+001	-7.380157e+001	-3.410531e+001	-7.369519e+001	-3.141216e-002	1.293252e+000
32.685	-4.903481e-002	1.075946e+000	-3.418643e+001	-7.371801e+001	-3.419225e+001	-7.360294e+001	-3.128200e-002	1.281665e+000
33.045	-4.892577e-002	1.064648e+000	-3.427323e+001	-7.362969e+001	-3.427761e+001	-7.351638e+001	-3.089531e-002	1.270821e+000
33.405	-4.869111e-002	1.054002e+000	-3.435735e+001	-7.354272e+001	-3.436296e+001	-7.342812e+001	-3.081491e-002	1.259669e+000
33.765	-4.834720e-002	1.043157e+000	-3.444232e+001	-7.346105e+001	-3.444621e+001	-7.335573e+001	-3.047407e-002	1.249328e+000
34.125	-4.825616e-002	1.033124e+000	-3.452417e+001	-7.338295e+001	-3.452957e+001	-7.326516e+001	-3.043909e-002	1.238969e+000
34.485	-4.809455e-002	1.023079e+000	-3.460596e+001	-7.328952e+001	-3.461212e+001	-7.318345e+001	-3.008619e-002	1.228347e+000
34.845	-4.782163e-002	1.013387e+000	-3.468928e+001	-7.320434e+001	-3.469273e+001	-7.309122e+001	-2.981432e-002	1.218204e+000
35.205	-4.765609e-002	1.003246e+000	-3.476940e+001	-7.312036e+001	-3.477142e+001	-7.300582e+001	-2.975650e-002	1.208686e+000
35.565	-4.750479e-002	9.934843e-001	-3.484904e+001	-7.303443e+001	-3.485172e+001	-7.291298e+001	-2.961429e-002	1.198326e+000
35.985	-4.663695e-002	9.828923e-001	-3.494780e+001	-7.312844e+001	-3.495091e+001	-7.298102e+001	-2.891697e-002	1.188131e+000
36.483	-4.713437e-002	9.703720e-001	-3.504782e+001	-7.282397e+001	-3.505206e+001	-7.270206e+001	-2.925911e-002	1.175633e+000
36.980	-4.696206e-002	9.577835e-001	-3.515171e+001	-7.268397e+001	-3.515542e+001	-7.257706e+001	-2.907793e-002	1.162221e+000
37.478	-4.671648e-002	9.460114e-001	-3.525504e+001	-7.255264e+001	-3.525889e+001	-7.245197e+001	-2.894854e-002	1.150743e+000
37.975	-4.667125e-002	9.342968e-001	-3.535932e+001	-7.244044e+001	-3.536299e+001	-7.233295e+001	-2.881547e-002	1.138645e+000
38.473	-4.640913e-002	9.221833e-001	-3.546051e+001	-7.231657e+001	-3.546279e+001	-7.219084e+001	-2.868123e-002	1.127961e+000
38.970	-4.613759e-002	9.113126e-001	-3.556030e+001	-7.218576e+001	-3.556291e+001	-7.208009e+001	-2.835601e-002	1.116500e+000
39.468	-4.603678e-002	9.005762e-001	-3.565715e+001	-7.206578e+001	-3.566131e+001	-7.195403e+001	-2.820679e-002	1.105471e+000
39.965	-4.586552e-002	8.894737e-001	-3.575316e+001	-7.193587e+001	-3.575804e+001	-7.184317e+001	-2.791710e-002	1.094638e+000
40.463	-4.573759e-002	8.793518e-001	-3.584820e+001	-7.183247e+001	-3.585463e+001	-7.171370e+001	-2.782697e-002	1.084368e+000
40.960	-4.562732e-002	8.688973e-001	-3.594386e+001	-7.170424e+001	-3.594852e+001	-7.158442e+001	-2.765658e-002	1.073163e+000
41.458	-4.536645e-002	8.591018e-001	-3.603694e+001	-7.156600e+001	-3.604114e+001	-7.146507e+001	-2.748399e-002	1.064254e+000
41.955	-4.528220e-002	8.483922e-001	-3.612780e+001	-7.145497e+001	-3.613311e+001	-7.133703e+001	-2.733839e-002	1.054190e+000
42.452	-4.515279e-002	8.397626e-001	-3.621879e+001	-7.132474e+001	-3.622227e+001	-7.120893e+001	-2.729271e-002	1.044835e+000
42.950	-4.508453e-002	8.308293e-001	-3.630861e+001	-7.119918e+001	-3.631253e+001	-7.108365e+001	-2.717840e-002	1.036499e+000
43.447	-4.485086e-002	8.214428e-001	-3.639643e+001	-7.107909e+001	-3.640050e+001	-7.096248e+001	-2.696675e-002	1.026857e+000
43.945	-4.481040e-002	8.128399e-001	-3.648229e+001	-7.095452e+001	-3.648839e+001	-7.083443e+001	-2.680836e-002	1.017545e+000
44.442	-4.459432e-002	8.043827e-001	-3.656830e+001	-7.081545e+001	-3.657317e+001	-7.071984e+001	-2.667484e-002	1.009738e+000
44.940	-4.450737e-002	7.958708e-001	-3.665426e+001	-7.068311e+001	-3.665636e+001	-7.058563e+001	-2.655364e-002	1.001484e+000
45.437	-4.434505e-002	7.871185e-001	-3.673972e+001	-7.055222e+001	-3.674065e+001	-7.045693e+001	-2.655527e-002	9.928900e-001
45.935	-4.423349e-002	7.785959e-001	-3.682077e+001	-7.042636e+001	-3.682189e+001	-7.033062e+001	-2.635752e-002	9.848427e-001
46.432	-4.411308e-002	7.703228e-001	-3.690221e+001	-7.029971e+001	-3.690322e+001	-7.020913e+001	-2.623380e-002	9.768935e-001
46.930	-4.407613e-002	7.637399e-001	-3.698087e+001	-7.016890e+001	-3.698558e+001	-7.010146e+001	-2.607390e-002	9.684978e-001
47.427	-4.389850e-002	7.562104e-001	-3.705854e+001	-7.006734e+001	-3.707097e+001	-6.995983e+001	-2.606483e-002	9.608142e-001
47.925	-4.372971e-002	7.483470e-001	-3.714409e+001	-6.996622e+001	-3.714731e+001	-6.979459e+001	-2.592144e-002	9.532440e-001
48.422	-4.377572e-002	7.411662e-001	-3.722078e+001	-6.978630e+001	-3.721935e+001	-6.969673e+001	-2.571327e-002	9.463592e-001
48.920	-4.355326e-002	7.340888e-001	-3.729368e+001	-6.969740e+001	-3.730470e+001	-6.957758e+001	-2.551509e-002	9.385534e-001
49.417	-4.353854e-002	7.268007e-001	-3.737588e+001	-6.954227e+001	-3.737308e+001	-6.943054e+001	-2.559449e-002	9.321473e-001
50.001	-4.314351e-002	7.180645e-001	-3.747311e+001	-6.946856e+001	-3.747196e+001	-6.928857e+001	-2.542347e-002	9.238097e-001
50.688	-4.295834e-002	7.095093e-001	-3.756945e+001	-6.924292e+001	-3.756082e+001	-6.907986e+001	-2.533302e-002	9.146038e-001
51.375	-4.297135e-002	6.993118e-001	-3.767017e+001	-6.901622e+001	-3.765841e+001	-6.893655e+001	-2.513687e-002	9.061611e-001
52.062	-4.300625e-002	6.921280e-001	-3.775857e+001	-6.881437e+001	-3.776462e+001	-6.883294e+001	-2.478418e-002	8.978916e-001
52.749	-4.276384e-002	6.846461e-001	-3.784859e+001	-6.874337e+001	-3.787747e+001	-6.859515e+001	-2.475867e-002	8.874206e-001
53.436	-4.251205e-002	6.733700e-001	-3.797050e+001	-6.857096e+001	-3.795395e+001	-6.832339e+001	-2.483125e-002	8.792583e-001
54.123	-4.274051e-002	6.670267e-001	-3.804309e+001	-6.825425e+001	-3.805211e+001	-6.835016e+001	-2.431600e-002	8.724924e-001
54.810	-4.226750e-002	6.587750e-001	-3.814784e+001	-6.829055e+001	-3.815441e+001	-6.793572e+001	-2.454391e-002	8.627283e-001
55.497	-4.254616e-002	6.521022e-001	-3.822716e+001	-6.787781e+001	-3.823765e+001	-6.802423e+001	-2.406907e-002	8.572141e-001
56.184	-4.205798e-002	6.417667e-001	-3.834520e+001	-6.789172e+001	-3.832049e+001	-6.758229e+001	-2.452548e-002	8.491989e-001
56.871	-4.206811e-002	6.377326e-001	-3.839485e+001	-6.773216e+001	-3.844355e+001	-6.753795e+001	-2.398793e-002	8.396502e-001
57.558	-4.240266e-002	6.293100e-001	-3.849119e+001	-6.733016e+001	-3.850392e+001	-6.752491e+001	-2.384145e-002	8.354719e-001
58.245	-4.206023e-002	6.203298e-001	-3.860641e+001	-6.718967e+001	-3.856733e+001	-6.721912e+001	-2.392059e-002	8.294507e-001
58.932	-4.169950e-002	6.122872e-001	-3.869972e+001	-6.715153e+001	-3.865626e+001	-6.690169e+001	-2.418135e-002	8.210710e-001
59.619	-4.142865e-002	6.067455e-001	-3.878128e+001	-6.704335e+001	-3.874764e+001	-6.668100e+001	-2.409365e-002	8.136962e-001
60.306	-4.144378e-002	5.997489e-001	-3.886281e+001	-6.688003e+001	-3.883177e+001	-6.650775e+001	-2.414348e-002	8.072840e-001
60.993	-4.139419e-002	5.930526e-001	-3.894760e+001	-6.663775e+001	-3.890331e+001	-6.637245e+001	-2.396401e-002	8.016632e-001
61.680	-4.156846e-002	5.869638e-001	-3.902553e+001	-6.633332e+001	-3.898036e+001	-6.633801e+001	-2.367185e-002	7.964425e-001
62.367	-4.173465e-002	5.819471e-001	-3.907520e+001	-6.608657e+001	-3.907997e+001	-6.631702e+001	-2.323082e-002	7.893163e-001
63.054	-4.129651e-002	5.780028e-001	-3.913464e+001	-6.613382e+001	-3.918989e+001	-6.599145e+001	-2.328042e-002	7.805419e-001
