!Agilent Technologies,E5061B,MY49204007,A.02.12
!Date: Wed Jul 23 11:51:52 2025
!Data & Calibration Information:
!Freq	S11:SOLT2(ON)	S21:SOLT2(ON)	S12:SOLT2(ON)	S22:SOLT2(ON)
# Hz S dB R 50
10.000	-9.958330e-002	3.206407e+000	-2.490506e+001	-7.722016e+001	-2.491039e+001	-7.711232e+001	-8.144717e-002	3.413108e+000
10.137	-9.830790e-002	3.163744e+000	-2.502320e+001	-7.723577e+001	-2.502745e+001	-7.711595e+001	-8.024082e-002	3.369389e+000
10.275	-9.735746e-002	3.124411e+000	-2.513151e+001	-7.722869e+001	-2.513405e+001	-7.711181e+001	-7.928725e-002	3.329356e+000
10.412	-9.627232e-002	3.085793e+000	-2.523708e+001	-7.722797e+001	-2.523930e+001	-7.710971e+001	-7.836956e-002	3.290965e+000
10.550	-9.536375e-002	3.049206e+000	-2.533991e+001	-7.722728e+001	-2.534207e+001	-7.710718e+001	-7.736542e-002	3.254549e+000
10.687	-9.448544e-002	3.013738e+000	-2.544085e+001	-7.722344e+001	-2.544313e+001	-7.710651e+001	-7.649680e-002	3.218761e+000
10.824	-9.366078e-002	2.979017e+000	-2.553997e+001	-7.722377e+001	-2.554252e+001	-7.710459e+001	-7.555897e-002	3.184107e+000
10.962	-9.266396e-002	2.944870e+000	-2.563883e+001	-7.721746e+001	-2.564122e+001	-7.709499e+001	-7.474432e-002	3.149817e+000
11.099	-9.196095e-002	2.912367e+000	-2.573437e+001	-7.721170e+001	-2.573710e+001	-7.709448e+001	-7.380200e-002	3.117172e+000
11.237	-9.101953e-002	2.879695e+000	-2.583040e+001	-7.720106e+001	-2.583250e+001	-7.708203e+001	-7.309798e-002	3.085097e+000
11.374	-9.021535e-002	2.848353e+000	-2.592499e+001	-7.720087e+001	-2.592742e+001	-7.707604e+001	-7.229803e-002	3.053461e+000
11.511	-8.942494e-002	2.817907e+000	-2.601778e+001	-7.719348e+001	-2.602036e+001	-7.707108e+001	-7.142774e-002	3.022747e+000
11.649	-8.868744e-002	2.788049e+000	-2.610959e+001	-7.718759e+001	-2.611236e+001	-7.706382e+001	-7.075680e-002	2.992695e+000
11.786	-8.811742e-002	2.758173e+000	-2.620025e+001	-7.717634e+001	-2.620271e+001	-7.705346e+001	-6.998185e-002	2.963606e+000
11.924	-8.741872e-002	2.730005e+000	-2.628924e+001	-7.716593e+001	-2.629175e+001	-7.704750e+001	-6.925737e-002	2.934964e+000
12.061	-8.658534e-002	2.701763e+000	-2.637855e+001	-7.716189e+001	-2.638144e+001	-7.704019e+001	-6.853024e-002	2.906800e+000
12.198	-8.594981e-002	2.674058e+000	-2.646549e+001	-7.714815e+001	-2.646801e+001	-7.703083e+001	-6.781435e-002	2.878804e+000
12.336	-8.527223e-002	2.647508e+000	-2.655301e+001	-7.713679e+001	-2.655519e+001	-7.701801e+001	-6.713268e-002	2.852329e+000
12.473	-8.458266e-002	2.620949e+000	-2.663846e+001	-7.713295e+001	-2.664132e+001	-7.700804e+001	-6.643525e-002	2.825759e+000
12.611	-8.393734e-002	2.595057e+000	-2.672340e+001	-7.711979e+001	-2.672592e+001	-7.699847e+001	-6.580437e-002	2.800006e+000
12.748	-8.334531e-002	2.569231e+000	-2.680732e+001	-7.710784e+001	-2.680956e+001	-7.698822e+001	-6.512379e-002	2.774673e+000
12.885	-8.277892e-002	2.544872e+000	-2.689000e+001	-7.709765e+001	-2.689239e+001	-7.697720e+001	-6.446137e-002	2.749895e+000
13.023	-8.217555e-002	2.521243e+000	-2.697156e+001	-7.709023e+001	-2.697483e+001	-7.697034e+001	-6.388429e-002	2.725860e+000
13.160	-8.169124e-002	2.497179e+000	-2.705374e+001	-7.707464e+001	-2.705610e+001	-7.695419e+001	-6.329524e-002	2.701507e+000
13.298	-8.095213e-002	2.473666e+000	-2.713391e+001	-7.706827e+001	-2.713713e+001	-7.694655e+001	-6.284181e-002	2.678023e+000
13.435	-8.043476e-002	2.451142e+000	-2.721308e+001	-7.705341e+001	-2.721635e+001	-7.693426e+001	-6.226322e-002	2.655539e+000
13.572	-7.986514e-002	2.428474e+000	-2.729195e+001	-7.703824e+001	-2.729517e+001	-7.692043e+001	-6.170782e-002	2.633668e+000
13.733	-8.002492e-002	2.402231e+000	-2.738066e+001	-7.690014e+001	-2.738777e+001	-7.697945e+001	-6.065697e-002	2.608668e+000
13.923	-7.855299e-002	2.373362e+000	-2.748961e+001	-7.700755e+001	-2.749362e+001	-7.688985e+001	-6.045306e-002	2.577980e+000
14.112	-7.779678e-002	2.344392e+000	-2.759508e+001	-7.698602e+001	-2.759890e+001	-7.686564e+001	-5.984444e-002	2.548766e+000
14.302	-7.716621e-002	2.316141e+000	-2.769859e+001	-7.697059e+001	-2.770238e+001	-7.685011e+001	-5.919738e-002	2.520582e+000
14.492	-7.646850e-002	2.288187e+000	-2.780076e+001	-7.694658e+001	-2.780449e+001	-7.682657e+001	-5.855196e-002	2.492970e+000
14.682	-7.578980e-002	2.261564e+000	-2.790227e+001	-7.692626e+001	-2.790587e+001	-7.680571e+001	-5.782747e-002	2.466415e+000
14.872	-7.517149e-002	2.235371e+000	-2.800198e+001	-7.690575e+001	-2.800548e+001	-7.678517e+001	-5.720651e-002	2.440169e+000
15.062	-7.446428e-002	2.209643e+000	-2.810070e+001	-7.688649e+001	-2.810413e+001	-7.676680e+001	-5.653927e-002	2.414331e+000
15.251	-7.386618e-002	2.185010e+000	-2.819826e+001	-7.686281e+001	-2.820226e+001	-7.674180e+001	-5.599579e-002	2.389466e+000
15.441	-7.325313e-002	2.159621e+000	-2.829455e+001	-7.684504e+001	-2.829839e+001	-7.672391e+001	-5.540575e-002	2.365232e+000
15.631	-7.274638e-002	2.136711e+000	-2.838960e+001	-7.681922e+001	-2.839347e+001	-7.670064e+001	-5.484015e-002	2.341155e+000
15.821	-7.215076e-002	2.112990e+000	-2.848348e+001	-7.679696e+001	-2.848737e+001	-7.667622e+001	-5.423634e-002	2.317812e+000
16.011	-7.159121e-002	2.090123e+000	-2.857680e+001	-7.677371e+001	-2.858040e+001	-7.665261e+001	-5.372081e-002	2.294808e+000
16.201	-7.109682e-002	2.067831e+000	-2.866856e+001	-7.674368e+001	-2.867256e+001	-7.662543e+001	-5.324964e-002	2.272262e+000
16.391	-7.043585e-002	2.046196e+000	-2.875929e+001	-7.672253e+001	-2.876321e+001	-7.660530e+001	-5.262800e-002	2.250633e+000
16.580	-7.002883e-002	2.024884e+000	-2.884897e+001	-7.669728e+001	-2.885290e+001	-7.657620e+001	-5.208851e-002	2.228973e+000
16.770	-6.950723e-002	2.003620e+000	-2.893779e+001	-7.667057e+001	-2.894184e+001	-7.655157e+001	-5.158550e-002	2.208156e+000
16.960	-6.906401e-002	1.983191e+000	-2.902589e+001	-7.664294e+001	-2.902992e+001	-7.652536e+001	-5.114638e-002	2.187571e+000
17.150	-6.842843e-002	1.963841e+000	-2.911094e+001	-7.664806e+001	-2.911496e+001	-7.653451e+001	-5.053973e-002	2.168638e+000
17.340	-6.804200e-002	1.943793e+000	-2.919735e+001	-7.659104e+001	-2.920099e+001	-7.647172e+001	-5.023780e-002	2.148584e+000
17.530	-6.760822e-002	1.924299e+000	-2.928277e+001	-7.656398e+001	-2.928626e+001	-7.644519e+001	-4.969393e-002	2.129472e+000
17.720	-6.714215e-002	1.905277e+000	-2.936713e+001	-7.653684e+001	-2.937123e+001	-7.641733e+001	-4.931038e-002	2.110461e+000
17.909	-6.671652e-002	1.886814e+000	-2.945068e+001	-7.650911e+001	-2.945472e+001	-7.639195e+001	-4.885041e-002	2.091758e+000
18.099	-6.630103e-002	1.868373e+000	-2.953269e+001	-7.648036e+001	-2.953729e+001	-7.636082e+001	-4.837740e-002	2.073415e+000
18.289	-6.581767e-002	1.850532e+000	-2.961528e+001	-7.645368e+001	-2.961924e+001	-7.633343e+001	-4.785386e-002	2.055394e+000
18.479	-6.546623e-002	1.833432e+000	-2.969589e+001	-7.642349e+001	-2.969983e+001	-7.630297e+001	-4.749742e-002	2.037992e+000
18.669	-6.511097e-002	1.816062e+000	-2.977605e+001	-7.639031e+001	-2.978041e+001	-7.627363e+001	-4.717605e-002	2.020257e+000
18.859	-6.464342e-002	1.799326e+000	-2.985552e+001	-7.636281e+001	-2.985955e+001	-7.624304e+001	-4.673324e-002	2.003352e+000
19.082	-6.609888e-002	1.779069e+000	-2.994078e+001	-7.598957e+001	-2.994751e+001	-7.588791e+001	-4.792249e-002	1.983424e+000
19.344	-6.382849e-002	1.757607e+000	-3.005748e+001	-7.629429e+001	-3.006112e+001	-7.617963e+001	-4.571969e-002	1.961926e+000
19.606	-6.327291e-002	1.736006e+000	-3.016134e+001	-7.623860e+001	-3.016544e+001	-7.612021e+001	-4.531696e-002	1.939989e+000
19.868	-6.290222e-002	1.715043e+000	-3.026582e+001	-7.620348e+001	-3.026997e+001	-7.608262e+001	-4.484750e-002	1.919098e+000
20.130	-6.251696e-002	1.694479e+000	-3.036813e+001	-7.615103e+001	-3.037224e+001	-7.603534e+001	-4.446541e-002	1.899168e+000
20.392	-6.200573e-002	1.674580e+000	-3.046895e+001	-7.611312e+001	-3.047445e+001	-7.598964e+001	-4.398264e-002	1.878366e+000
20.655	-6.160168e-002	1.654150e+000	-3.056926e+001	-7.605471e+001	-3.057471e+001	-7.594290e+001	-4.363374e-002	1.858845e+000
20.917	-6.120237e-002	1.635146e+000	-3.066950e+001	-7.601582e+001	-3.067389e+001	-7.589886e+001	-4.317504e-002	1.839465e+000
21.179	-6.067882e-002	1.616219e+000	-3.076771e+001	-7.597267e+001	-3.077252e+001	-7.585206e+001	-4.270106e-002	1.820248e+000
21.441	-6.043318e-002	1.598055e+000	-3.086408e+001	-7.592130e+001	-3.086869e+001	-7.580553e+001	-4.232981e-002	1.802355e+000
21.703	-5.994058e-002	1.580084e+000	-3.095975e+001	-7.587334e+001	-3.096438e+001	-7.575276e+001	-4.196830e-002	1.784500e+000
21.965	-5.961818e-002	1.562223e+000	-3.105444e+001	-7.582374e+001	-3.105935e+001	-7.570438e+001	-4.164614e-002	1.767400e+000
22.228	-5.925190e-002	1.545291e+000	-3.114805e+001	-7.577452e+001	-3.115252e+001	-7.565603e+001	-4.121264e-002	1.750173e+000
22.490	-5.893277e-002	1.528440e+000	-3.123957e+001	-7.572667e+001	-3.124439e+001	-7.560734e+001	-4.084547e-002	1.733007e+000
22.752	-5.854178e-002	1.512145e+000	-3.133083e+001	-7.567902e+001	-3.133589e+001	-7.556007e+001	-4.052449e-002	1.716877e+000
23.014	-5.829705e-002	1.495880e+000	-3.142133e+001	-7.562571e+001	-3.142588e+001	-7.550519e+001	-4.019504e-002	1.701089e+000
23.276	-5.789686e-002	1.480002e+000	-3.151046e+001	-7.557345e+001	-3.151542e+001	-7.545515e+001	-3.988972e-002	1.685289e+000
23.538	-5.753812e-002	1.464829e+000	-3.159888e+001	-7.552209e+001	-3.160366e+001	-7.540347e+001	-3.947625e-002	1.669990e+000
23.801	-5.722654e-002	1.449627e+000	-3.168613e+001	-7.546939e+001	-3.169081e+001	-7.535412e+001	-3.915616e-002	1.654967e+000
24.063	-5.691088e-002	1.435006e+000	-3.177211e+001	-7.541643e+001	-3.177669e+001	-7.529729e+001	-3.890590e-002	1.640078e+000
24.325	-5.640332e-002	1.420836e+000	-3.185729e+001	-7.536717e+001	-3.186195e+001	-7.525103e+001	-3.852704e-002	1.625648e+000
24.587	-5.625372e-002	1.406430e+000	-3.194199e+001	-7.531287e+001	-3.194653e+001	-7.519337e+001	-3.814309e-002	1.611103e+000
24.849	-5.600110e-002	1.392654e+000	-3.202528e+001	-7.526003e+001	-3.203024e+001	-7.514095e+001	-3.798789e-002	1.597817e+000
25.111	-5.567223e-002	1.378901e+000	-3.210771e+001	-7.520585e+001	-3.211239e+001	-7.508687e+001	-3.775131e-002	1.584269e+000
25.374	-5.540881e-002	1.365888e+000	-3.218997e+001	-7.515026e+001	-3.219420e+001	-7.502915e+001	-3.740113e-002	1.570479e+000
25.636	-5.517747e-002	1.352853e+000	-3.227039e+001	-7.509494e+001	-3.227510e+001	-7.497459e+001	-3.719089e-002	1.557470e+000
25.898	-5.489470e-002	1.339980e+000	-3.235071e+001	-7.503713e+001	-3.235491e+001	-7.492006e+001	-3.686755e-002	1.544971e+000
26.204	-5.346192e-002	1.325420e+000	-3.245648e+001	-7.522446e+001	-3.245993e+001	-7.509229e+001	-3.555591e-002	1.529302e+000
26.564	-5.431196e-002	1.308364e+000	-3.255183e+001	-7.489687e+001	-3.255720e+001	-7.478305e+001	-3.633440e-002	1.513223e+000
26.924	-5.399277e-002	1.291962e+000	-3.265679e+001	-7.481703e+001	-3.266133e+001	-7.469470e+001	-3.606110e-002	1.496659e+000
27.284	-5.361794e-002	1.275889e+000	-3.276211e+001	-7.473639e+001	-3.276640e+001	-7.462442e+001	-3.567252e-002	1.480965e+000
27.644	-5.333367e-002	1.260182e+000	-3.286513e+001	-7.466113e+001	-3.287007e+001	-7.454623e+001	-3.530365e-002	1.465523e+000
28.004	-5.299377e-002	1.245191e+000	-3.296702e+001	-7.457731e+001	-3.297176e+001	-7.446072e+001	-3.508021e-002	1.449975e+000
28.364	-5.265615e-002	1.230149e+000	-3.306765e+001	-7.450084e+001	-3.307268e+001	-7.438129e+001	-3.465702e-002	1.435039e+000
28.724	-5.234530e-002	1.215452e+000	-3.316660e+001	-7.441793e+001	-3.317187e+001	-7.429983e+001	-3.444136e-002	1.419891e+000
29.084	-5.205132e-002	1.201524e+000	-3.326461e+001	-7.433840e+001	-3.326995e+001	-7.421917e+001	-3.416478e-002	1.406757e+000
29.444	-5.175638e-002	1.188218e+000	-3.336148e+001	-7.425302e+001	-3.336664e+001	-7.414075e+001	-3.387099e-002	1.392870e+000
29.804	-5.155961e-002	1.174716e+000	-3.345652e+001	-7.416725e+001	-3.346162e+001	-7.404944e+001	-3.360981e-002	1.380249e+000
30.164	-5.131921e-002	1.161934e+000	-3.355089e+001	-7.409064e+001	-3.355612e+001	-7.396770e+001	-3.337230e-002	1.366960e+000
30.524	-5.124006e-002	1.149091e+000	-3.364431e+001	-7.400118e+001	-3.364937e+001	-7.388574e+001	-3.308218e-002	1.353458e+000
30.884	-5.101493e-002	1.135965e+000	-3.373602e+001	-7.391782e+001	-3.374126e+001	-7.379853e+001	-3.283737e-002	1.340362e+000
31.244	-5.069533e-002	1.123451e+000	-3.382856e+001	-7.383240e+001	-3.383235e+001	-7.371804e+001	-3.257541e-002	1.328287e+000
31.605	-5.048920e-002	1.111307e+000	-3.391636e+001	-7.374737e+001	-3.392178e+001	-7.363339e+001	-3.243031e-002	1.315676e+000
31.965	-5.023839e-002	1.099443e+000	-3.400521e+001	-7.366096e+001	-3.401001e+001	-7.354657e+001	-3.224225e-002	1.304681e+000
32.325	-4.997859e-002	1.087822e+000	-3.409339e+001	-7.357654e+001	-3.409864e+001	-7.346033e+001	-3.199681e-002	1.292323e+000
32.685	-4.980798e-002	1.076201e+000	-3.418045e+001	-7.349181e+001	-3.418581e+001	-7.337781e+001	-3.173472e-002	1.280967e+000
33.045	-4.947799e-002	1.065475e+000	-3.426501e+001	-7.341063e+001	-3.427066e+001	-7.329158e+001	-3.154693e-002	1.269943e+000
33.405	-4.927681e-002	1.053885e+000	-3.435058e+001	-7.331256e+001	-3.435570e+001	-7.319589e+001	-3.142821e-002	1.258985e+000
33.765	-4.900400e-002	1.043717e+000	-3.443425e+001	-7.323714e+001	-3.443937e+001	-7.311896e+001	-3.122969e-002	1.248443e+000
34.125	-4.890261e-002	1.033609e+000	-3.451671e+001	-7.313832e+001	-3.452178e+001	-7.302283e+001	-3.103550e-002	1.237785e+000
34.485	-4.874838e-002	1.023531e+000	-3.460005e+001	-7.305049e+001	-3.460494e+001	-7.293890e+001	-3.082705e-002	1.227312e+000
34.845	-4.849582e-002	1.013624e+000	-3.467899e+001	-7.296603e+001	-3.468437e+001	-7.285190e+001	-3.058411e-002	1.217319e+000
35.205	-4.835482e-002	1.004030e+000	-3.475951e+001	-7.288386e+001	-3.476422e+001	-7.276608e+001	-3.047182e-002	1.207716e+000
35.565	-4.818949e-002	9.941638e-001	-3.483866e+001	-7.278601e+001	-3.484340e+001	-7.266959e+001	-3.032814e-002	1.197631e+000
35.985	-4.732345e-002	9.830261e-001	-3.493846e+001	-7.287350e+001	-3.494189e+001	-7.273874e+001	-2.966844e-002	1.187330e+000
36.483	-4.777904e-002	9.700139e-001	-3.503692e+001	-7.256907e+001	-3.504345e+001	-7.246333e+001	-2.994283e-002	1.174912e+000
36.980	-4.755551e-002	9.574679e-001	-3.514109e+001	-7.242265e+001	-3.514588e+001	-7.231248e+001	-2.983663e-002	1.161757e+000
37.478	-4.721348e-002	9.461138e-001	-3.524739e+001	-7.230706e+001	-3.525139e+001	-7.219210e+001	-2.955814e-002	1.150036e+000
37.975	-4.710520e-002	9.338674e-001	-3.535050e+001	-7.218484e+001	-3.535525e+001	-7.206468e+001	-2.936998e-002	1.138169e+000
38.473	-4.694045e-002	9.230661e-001	-3.545025e+001	-7.205468e+001	-3.545512e+001	-7.193536e+001	-2.932502e-002	1.126736e+000
38.970	-4.676380e-002	9.117236e-001	-3.555088e+001	-7.193718e+001	-3.555629e+001	-7.181320e+001	-2.905628e-002	1.115846e+000
39.468	-4.652948e-002	9.008317e-001	-3.564865e+001	-7.179742e+001	-3.565209e+001	-7.168135e+001	-2.885164e-002	1.104892e+000
39.965	-4.635191e-002	8.904617e-001	-3.574404e+001	-7.167590e+001	-3.574847e+001	-7.155729e+001	-2.864387e-002	1.094831e+000
40.463	-4.624460e-002	8.789747e-001	-3.583701e+001	-7.155030e+001	-3.584209e+001	-7.143680e+001	-2.846449e-002	1.084476e+000
40.960	-4.619130e-002	8.689163e-001	-3.593341e+001	-7.143022e+001	-3.593875e+001	-7.131401e+001	-2.821233e-002	1.073551e+000
41.458	-4.594981e-002	8.592501e-001	-3.602623e+001	-7.129011e+001	-3.603097e+001	-7.117085e+001	-2.813596e-002	1.064145e+000
41.955	-4.574558e-002	8.485510e-001	-3.611570e+001	-7.117386e+001	-3.612258e+001	-7.106082e+001	-2.796463e-002	1.054124e+000
42.452	-4.575206e-002	8.402541e-001	-3.620742e+001	-7.103852e+001	-3.621246e+001	-7.092052e+001	-2.782392e-002	1.044907e+000
42.950	-4.557613e-002	8.307045e-001	-3.629663e+001	-7.090779e+001	-3.630151e+001	-7.079661e+001	-2.758282e-002	1.035544e+000
43.447	-4.549691e-002	8.219092e-001	-3.638576e+001	-7.078453e+001	-3.638934e+001	-7.066436e+001	-2.739478e-002	1.026454e+000
43.945	-4.529070e-002	8.122936e-001	-3.647048e+001	-7.066505e+001	-3.647561e+001	-7.053628e+001	-2.732680e-002	1.017875e+000
44.442	-4.510596e-002	8.042254e-001	-3.655585e+001	-7.051514e+001	-3.656105e+001	-7.041034e+001	-2.719626e-002	1.009370e+000
44.940	-4.513503e-002	7.958267e-001	-3.664174e+001	-7.037784e+001	-3.664544e+001	-7.026491e+001	-2.709034e-002	1.000469e+000
45.437	-4.497438e-002	7.876687e-001	-3.672696e+001	-7.025005e+001	-3.673077e+001	-7.013052e+001	-2.698359e-002	9.922260e-001
45.935	-4.488120e-002	7.791074e-001	-3.680885e+001	-7.012114e+001	-3.681234e+001	-6.999921e+001	-2.689729e-002	9.834425e-001
46.432	-4.471231e-002	7.712535e-001	-3.688941e+001	-6.998485e+001	-3.689337e+001	-6.987177e+001	-2.674285e-002	9.761657e-001
46.930	-4.461613e-002	7.633184e-001	-3.696670e+001	-6.986373e+001	-3.697113e+001	-6.975342e+001	-2.660834e-002	9.681445e-001
47.427	-4.444300e-002	7.564249e-001	-3.704596e+001	-6.976713e+001	-3.705151e+001	-6.965549e+001	-2.644838e-002	9.605865e-001
47.925	-4.431540e-002	7.480892e-001	-3.713167e+001	-6.963613e+001	-3.713662e+001	-6.951659e+001	-2.633409e-002	9.525066e-001
48.422	-4.435160e-002	7.412471e-001	-3.720713e+001	-6.945832e+001	-3.721035e+001	-6.934262e+001	-2.628062e-002	9.449371e-001
48.920	-4.413504e-002	7.351252e-001	-3.728029e+001	-6.938125e+001	-3.728601e+001	-6.926724e+001	-2.607400e-002	9.382411e-001
49.417	-4.411003e-002	7.274268e-001	-3.736057e+001	-6.921367e+001	-3.736474e+001	-6.909345e+001	-2.609451e-002	9.312889e-001
50.001	-4.366599e-002	7.178666e-001	-3.745978e+001	-6.912867e+001	-3.746398e+001	-6.899443e+001	-2.571822e-002	9.228443e-001
50.688	-4.370468e-002	7.092521e-001	-3.755465e+001	-6.887783e+001	-3.755857e+001	-6.876339e+001	-2.572302e-002	9.131379e-001
51.375	-4.363475e-002	6.994898e-001	-3.765200e+001	-6.865882e+001	-3.765343e+001	-6.854007e+001	-2.564790e-002	9.044375e-001
52.062	-4.363380e-002	6.922740e-001	-3.773878e+001	-6.850788e+001	-3.774084e+001	-6.839722e+001	-2.551085e-002	8.971379e-001
52.749	-4.324809e-002	6.841412e-001	-3.784094e+001	-6.843749e+001	-3.784833e+001	-6.832349e+001	-2.513469e-002	8.879417e-001
53.436	-4.324945e-002	6.734584e-001	-3.795485e+001	-6.816500e+001	-3.795959e+001	-6.802699e+001	-2.522329e-002	8.782380e-001
54.123	-4.316428e-002	6.675695e-001	-3.802001e+001	-6.795865e+001	-3.802462e+001	-6.785666e+001	-2.511485e-002	8.726325e-001
54.810	-4.292278e-002	6.583210e-001	-3.814159e+001	-6.789051e+001	-3.814845e+001	-6.774735e+001	-2.480817e-002	8.626175e-001
55.497	-4.295344e-002	6.521773e-001	-3.820059e+001	-6.759812e+001	-3.820403e+001	-6.751132e+001	-2.488079e-002	8.569449e-001
56.184	-4.274005e-002	6.408218e-001	-3.832805e+001	-6.742462e+001	-3.833167e+001	-6.728768e+001	-2.471972e-002	8.464138e-001
56.871	-4.259045e-002	6.369684e-001	-3.839307e+001	-6.743357e+001	-3.840160e+001	-6.731327e+001	-2.456264e-002	8.414394e-001
57.558	-4.288778e-002	6.304456e-001	-3.846125e+001	-6.706428e+001	-3.846586e+001	-6.697590e+001	-2.471839e-002	8.354245e-001
58.245	-4.273412e-002	6.210320e-001	-3.856924e+001	-6.675566e+001	-3.856859e+001	-6.666186e+001	-2.466743e-002	8.261141e-001
58.932	-4.251014e-002	6.115432e-001	-3.867311e+001	-6.663572e+001	-3.867346e+001	-6.649722e+001	-2.448201e-002	8.178407e-001
59.619	-4.217846e-002	6.058298e-001	-3.876346e+001	-6.651195e+001	-3.876418e+001	-6.637045e+001	-2.436592e-002	8.109226e-001
60.306	-4.228641e-002	5.996128e-001	-3.884601e+001	-6.633731e+001	-3.884584e+001	-6.619754e+001	-2.429919e-002	8.046481e-001
60.993	-4.223949e-002	5.933766e-001	-3.892100e+001	-6.610638e+001	-3.892183e+001	-6.596760e+001	-2.426343e-002	7.986890e-001
61.680	-4.231191e-002	5.879196e-001	-3.898356e+001	-6.587244e+001	-3.898115e+001	-6.576643e+001	-2.422637e-002	7.931349e-001
62.367	-4.221791e-002	5.835687e-001	-3.903688e+001	-6.581379e+001	-3.904181e+001	-6.573861e+001	-2.403984e-002	7.888571e-001
63.054	-4.171162e-002	5.770182e-001	-3.913277e+001	-6.584311e+001	-3.914289e+001	-6.573881e+001	-2.368592e-002	7.824060e-001
