!Agilent Technologies,E5061B,MY49204007,A.02.12
!Date: Wed Jul 23 11:54:08 2025
!Data & Calibration Information:
!Freq	S11:SOLT2(ON)	S21:SOLT2(ON)	S12:SOLT2(ON)	S22:SOLT2(ON)
# Hz S dB R 50
10.000	-1.000068e-001	3.206222e+000	-2.490273e+001	-7.715979e+001	-2.490879e+001	-7.705030e+001	-8.186213e-002	3.413674e+000
10.137	-9.871725e-002	3.163615e+000	-2.502124e+001	-7.717380e+001	-2.502589e+001	-7.705366e+001	-8.078015e-002	3.369966e+000
10.275	-9.769669e-002	3.123848e+000	-2.512930e+001	-7.716834e+001	-2.513274e+001	-7.704906e+001	-7.976327e-002	3.330605e+000
10.412	-9.671907e-002	3.086068e+000	-2.523465e+001	-7.716600e+001	-2.523766e+001	-7.704562e+001	-7.864897e-002	3.291538e+000
10.550	-9.579634e-002	3.049644e+000	-2.533745e+001	-7.716198e+001	-2.534026e+001	-7.704252e+001	-7.771436e-002	3.255222e+000
10.687	-9.485725e-002	3.013234e+000	-2.543837e+001	-7.716048e+001	-2.544122e+001	-7.704076e+001	-7.674333e-002	3.219583e+000
10.824	-9.406397e-002	2.979208e+000	-2.553765e+001	-7.715792e+001	-2.554081e+001	-7.703979e+001	-7.582162e-002	3.184716e+000
10.962	-9.296752e-002	2.944959e+000	-2.563624e+001	-7.715123e+001	-2.563901e+001	-7.702884e+001	-7.499722e-002	3.150831e+000
11.099	-9.234584e-002	2.912158e+000	-2.573186e+001	-7.714540e+001	-2.573509e+001	-7.702785e+001	-7.411882e-002	3.117988e+000
11.237	-9.151862e-002	2.879982e+000	-2.582796e+001	-7.713557e+001	-2.583060e+001	-7.701366e+001	-7.338291e-002	3.085944e+000
11.374	-9.059127e-002	2.848232e+000	-2.592225e+001	-7.713232e+001	-2.592518e+001	-7.700823e+001	-7.256350e-002	3.054559e+000
11.511	-8.987474e-002	2.817389e+000	-2.601520e+001	-7.712647e+001	-2.601845e+001	-7.700207e+001	-7.176393e-002	3.023385e+000
11.649	-8.911716e-002	2.787872e+000	-2.610677e+001	-7.711703e+001	-2.611039e+001	-7.699293e+001	-7.107960e-002	2.993181e+000
11.786	-8.845896e-002	2.758226e+000	-2.619793e+001	-7.710674e+001	-2.620069e+001	-7.698388e+001	-7.033085e-002	2.964115e+000
11.924	-8.775244e-002	2.730049e+000	-2.628686e+001	-7.709580e+001	-2.628966e+001	-7.697438e+001	-6.962392e-002	2.935974e+000
12.061	-8.694093e-002	2.701742e+000	-2.637605e+001	-7.709041e+001	-2.637935e+001	-7.696510e+001	-6.886071e-002	2.907614e+000
12.198	-8.631178e-002	2.674083e+000	-2.646238e+001	-7.707419e+001	-2.646599e+001	-7.695842e+001	-6.820307e-002	2.880003e+000
12.336	-8.575304e-002	2.647386e+000	-2.654981e+001	-7.706421e+001	-2.655278e+001	-7.694239e+001	-6.743296e-002	2.853095e+000
12.473	-8.504970e-002	2.620763e+000	-2.663589e+001	-7.705622e+001	-2.663901e+001	-7.693321e+001	-6.678787e-002	2.826589e+000
12.611	-8.442007e-002	2.594809e+000	-2.672043e+001	-7.704503e+001	-2.672374e+001	-7.692254e+001	-6.610721e-002	2.800504e+000
12.748	-8.383846e-002	2.569740e+000	-2.680448e+001	-7.703354e+001	-2.680740e+001	-7.691018e+001	-6.540042e-002	2.775252e+000
12.885	-8.322056e-002	2.544939e+000	-2.688703e+001	-7.702148e+001	-2.688993e+001	-7.690088e+001	-6.483127e-002	2.750581e+000
13.023	-8.249942e-002	2.520853e+000	-2.696903e+001	-7.701369e+001	-2.697260e+001	-7.689147e+001	-6.429455e-002	2.726602e+000
13.160	-8.206999e-002	2.497095e+000	-2.705079e+001	-7.699691e+001	-2.705378e+001	-7.687378e+001	-6.378442e-002	2.702639e+000
13.298	-8.141579e-002	2.473631e+000	-2.713098e+001	-7.698670e+001	-2.713463e+001	-7.686317e+001	-6.307393e-002	2.679701e+000
13.435	-8.081353e-002	2.451223e+000	-2.720998e+001	-7.697492e+001	-2.721409e+001	-7.685501e+001	-6.259126e-002	2.656416e+000
13.572	-8.031076e-002	2.428612e+000	-2.728888e+001	-7.695920e+001	-2.729271e+001	-7.683966e+001	-6.199787e-002	2.633950e+000
13.733	-8.059970e-002	2.402735e+000	-2.737798e+001	-7.681942e+001	-2.738538e+001	-7.689732e+001	-6.090477e-002	2.608355e+000
13.923	-7.896154e-002	2.373222e+000	-2.748654e+001	-7.692534e+001	-2.749144e+001	-7.680791e+001	-6.076085e-002	2.578569e+000
14.112	-7.815430e-002	2.344415e+000	-2.759241e+001	-7.690317e+001	-2.759647e+001	-7.678223e+001	-6.009965e-002	2.550208e+000
14.302	-7.746020e-002	2.316062e+000	-2.769544e+001	-7.688647e+001	-2.769990e+001	-7.676567e+001	-5.936835e-002	2.521241e+000
14.492	-7.681885e-002	2.288355e+000	-2.779774e+001	-7.686136e+001	-2.780236e+001	-7.674181e+001	-5.877367e-002	2.493824e+000
14.682	-7.617815e-002	2.261685e+000	-2.789873e+001	-7.684007e+001	-2.790355e+001	-7.671954e+001	-5.816778e-002	2.467220e+000
14.872	-7.550852e-002	2.235113e+000	-2.799860e+001	-7.682130e+001	-2.800328e+001	-7.669848e+001	-5.751332e-002	2.440744e+000
15.062	-7.484988e-002	2.209684e+000	-2.809731e+001	-7.679983e+001	-2.810192e+001	-7.667913e+001	-5.681863e-002	2.415125e+000
15.251	-7.425741e-002	2.184611e+000	-2.819500e+001	-7.677293e+001	-2.819973e+001	-7.665284e+001	-5.625950e-002	2.390586e+000
15.441	-7.367708e-002	2.159757e+000	-2.829122e+001	-7.675453e+001	-2.829610e+001	-7.663308e+001	-5.565799e-002	2.365595e+000
15.631	-7.311105e-002	2.136608e+000	-2.838604e+001	-7.672929e+001	-2.839092e+001	-7.660918e+001	-5.510684e-002	2.341854e+000
15.821	-7.257238e-002	2.112768e+000	-2.847999e+001	-7.670597e+001	-2.848479e+001	-7.658346e+001	-5.449756e-002	2.318551e+000
16.011	-7.194680e-002	2.090241e+000	-2.857324e+001	-7.668085e+001	-2.857769e+001	-7.656011e+001	-5.390259e-002	2.295568e+000
16.201	-7.147375e-002	2.067840e+000	-2.866513e+001	-7.665137e+001	-2.866992e+001	-7.653079e+001	-5.342635e-002	2.273561e+000
16.391	-7.088252e-002	2.045766e+000	-2.875592e+001	-7.663072e+001	-2.876071e+001	-7.651126e+001	-5.294285e-002	2.251307e+000
16.580	-7.047030e-002	2.024711e+000	-2.884541e+001	-7.660063e+001	-2.885010e+001	-7.647971e+001	-5.237988e-002	2.229895e+000
16.770	-6.999871e-002	2.004030e+000	-2.893459e+001	-7.657461e+001	-2.893916e+001	-7.645445e+001	-5.192187e-002	2.208872e+000
16.960	-6.938855e-002	1.983087e+000	-2.902216e+001	-7.654785e+001	-2.902731e+001	-7.642655e+001	-5.147257e-002	2.188621e+000
17.150	-6.878159e-002	1.964046e+000	-2.910714e+001	-7.654999e+001	-2.911217e+001	-7.643730e+001	-5.073230e-002	2.169143e+000
17.340	-6.843297e-002	1.943628e+000	-2.919351e+001	-7.649469e+001	-2.919876e+001	-7.637355e+001	-5.048488e-002	2.149306e+000
17.530	-6.807673e-002	1.924431e+000	-2.927858e+001	-7.646477e+001	-2.928415e+001	-7.634522e+001	-5.002288e-002	2.130029e+000
17.720	-6.756355e-002	1.905550e+000	-2.936325e+001	-7.643496e+001	-2.936832e+001	-7.631588e+001	-4.950347e-002	2.111046e+000
17.909	-6.714542e-002	1.886837e+000	-2.944655e+001	-7.640653e+001	-2.945165e+001	-7.628771e+001	-4.908387e-002	2.092356e+000
18.099	-6.669009e-002	1.868932e+000	-2.952907e+001	-7.637925e+001	-2.953414e+001	-7.625805e+001	-4.858965e-002	2.074054e+000
18.289	-6.623449e-002	1.850593e+000	-2.961131e+001	-7.634954e+001	-2.961627e+001	-7.622764e+001	-4.814271e-002	2.055777e+000
18.479	-6.584163e-002	1.833230e+000	-2.969182e+001	-7.631957e+001	-2.969709e+001	-7.619915e+001	-4.771417e-002	2.038490e+000
18.669	-6.542372e-002	1.815820e+000	-2.977200e+001	-7.628704e+001	-2.977729e+001	-7.616442e+001	-4.736497e-002	2.020779e+000
18.859	-6.514726e-002	1.799806e+000	-2.985165e+001	-7.625623e+001	-2.985676e+001	-7.613612e+001	-4.697945e-002	2.004237e+000
19.082	-6.632290e-002	1.778758e+000	-2.993657e+001	-7.588085e+001	-2.994456e+001	-7.577948e+001	-4.827224e-002	1.983180e+000
19.344	-6.409651e-002	1.757011e+000	-3.005335e+001	-7.618908e+001	-3.005814e+001	-7.607023e+001	-4.601124e-002	1.961961e+000
19.606	-6.368612e-002	1.736090e+000	-3.015706e+001	-7.612949e+001	-3.016253e+001	-7.600930e+001	-4.569528e-002	1.940715e+000
19.868	-6.328002e-002	1.715126e+000	-3.026104e+001	-7.609167e+001	-3.026665e+001	-7.597119e+001	-4.517477e-002	1.919665e+000
20.130	-6.279757e-002	1.694582e+000	-3.036379e+001	-7.604154e+001	-3.036914e+001	-7.592220e+001	-4.472458e-002	1.898773e+000
20.392	-6.240927e-002	1.673950e+000	-3.046549e+001	-7.599217e+001	-3.047140e+001	-7.587566e+001	-4.427158e-002	1.879129e+000
20.655	-6.199047e-002	1.654406e+000	-3.056609e+001	-7.594696e+001	-3.057105e+001	-7.582691e+001	-4.384328e-002	1.859109e+000
20.917	-6.162771e-002	1.634946e+000	-3.066471e+001	-7.590078e+001	-3.067013e+001	-7.578236e+001	-4.343355e-002	1.839697e+000
21.179	-6.104953e-002	1.616186e+000	-3.076308e+001	-7.585393e+001	-3.076880e+001	-7.573244e+001	-4.304864e-002	1.820785e+000
21.441	-6.078431e-002	1.598306e+000	-3.085936e+001	-7.580240e+001	-3.086488e+001	-7.568358e+001	-4.271041e-002	1.803024e+000
21.703	-6.025451e-002	1.580100e+000	-3.095511e+001	-7.575154e+001	-3.096046e+001	-7.563076e+001	-4.234645e-002	1.784821e+000
21.965	-5.989238e-002	1.562341e+000	-3.104990e+001	-7.570393e+001	-3.105552e+001	-7.558243e+001	-4.192993e-002	1.767235e+000
22.228	-5.960608e-002	1.544959e+000	-3.114277e+001	-7.565317e+001	-3.114878e+001	-7.553201e+001	-4.153605e-002	1.749804e+000
22.490	-5.937085e-002	1.528860e+000	-3.123474e+001	-7.560016e+001	-3.124033e+001	-7.548318e+001	-4.119569e-002	1.733140e+000
22.752	-5.890635e-002	1.511902e+000	-3.132632e+001	-7.555586e+001	-3.133216e+001	-7.543164e+001	-4.075642e-002	1.716465e+000
23.014	-5.860247e-002	1.495838e+000	-3.141629e+001	-7.549725e+001	-3.142188e+001	-7.537755e+001	-4.040091e-002	1.700982e+000
23.276	-5.823756e-002	1.479931e+000	-3.150574e+001	-7.544467e+001	-3.151116e+001	-7.532758e+001	-4.005892e-002	1.684884e+000
23.538	-5.787988e-002	1.464804e+000	-3.159398e+001	-7.539606e+001	-3.159915e+001	-7.527412e+001	-3.973482e-002	1.669261e+000
23.801	-5.754868e-002	1.449544e+000	-3.168116e+001	-7.534075e+001	-3.168620e+001	-7.522145e+001	-3.945857e-002	1.654740e+000
24.063	-5.729734e-002	1.434978e+000	-3.176729e+001	-7.528429e+001	-3.177235e+001	-7.516845e+001	-3.914652e-002	1.640381e+000
24.325	-5.681062e-002	1.420482e+000	-3.185239e+001	-7.523414e+001	-3.185756e+001	-7.511491e+001	-3.878553e-002	1.625473e+000
24.587	-5.660961e-002	1.406444e+000	-3.193686e+001	-7.517555e+001	-3.194244e+001	-7.505644e+001	-3.843328e-002	1.611785e+000
24.849	-5.637299e-002	1.392549e+000	-3.202062e+001	-7.512461e+001	-3.202562e+001	-7.500199e+001	-3.814119e-002	1.597630e+000
25.111	-5.593328e-002	1.379089e+000	-3.210271e+001	-7.506739e+001	-3.210861e+001	-7.495176e+001	-3.788028e-002	1.583680e+000
25.374	-5.570744e-002	1.365231e+000	-3.218418e+001	-7.501443e+001	-3.219015e+001	-7.489114e+001	-3.760336e-002	1.570648e+000
25.636	-5.545845e-002	1.352815e+000	-3.226471e+001	-7.495455e+001	-3.227064e+001	-7.483670e+001	-3.731125e-002	1.557135e+000
25.898	-5.513091e-002	1.340285e+000	-3.234454e+001	-7.489831e+001	-3.235055e+001	-7.477995e+001	-3.706246e-002	1.544560e+000
26.204	-5.406579e-002	1.325151e+000	-3.245096e+001	-7.508536e+001	-3.245553e+001	-7.494945e+001	-3.585177e-002	1.529941e+000
26.564	-5.479584e-002	1.308732e+000	-3.254602e+001	-7.474752e+001	-3.255150e+001	-7.463686e+001	-3.645070e-002	1.513127e+000
26.924	-5.436650e-002	1.292107e+000	-3.265128e+001	-7.467040e+001	-3.265716e+001	-7.455044e+001	-3.610176e-002	1.497210e+000
27.284	-5.387097e-002	1.275557e+000	-3.275636e+001	-7.459206e+001	-3.276184e+001	-7.446891e+001	-3.579437e-002	1.481063e+000
27.644	-5.374887e-002	1.260554e+000	-3.285883e+001	-7.451167e+001	-3.286501e+001	-7.439129e+001	-3.547780e-002	1.465251e+000
28.004	-5.342350e-002	1.245067e+000	-3.296083e+001	-7.442665e+001	-3.296634e+001	-7.430826e+001	-3.522353e-002	1.449859e+000
28.364	-5.304198e-002	1.230174e+000	-3.306174e+001	-7.434531e+001	-3.306806e+001	-7.422903e+001	-3.485382e-002	1.434227e+000
28.724	-5.284554e-002	1.215224e+000	-3.316065e+001	-7.426388e+001	-3.316611e+001	-7.413976e+001	-3.452662e-002	1.420108e+000
29.084	-5.246357e-002	1.201951e+000	-3.325827e+001	-7.418200e+001	-3.326408e+001	-7.406073e+001	-3.426584e-002	1.405997e+000
29.444	-5.225587e-002	1.188409e+000	-3.335446e+001	-7.409660e+001	-3.335962e+001	-7.397805e+001	-3.405850e-002	1.392362e+000
29.804	-5.206895e-002	1.175312e+000	-3.344989e+001	-7.401164e+001	-3.345620e+001	-7.389179e+001	-3.388925e-002	1.380031e+000
30.164	-5.174905e-002	1.161839e+000	-3.354490e+001	-7.392846e+001	-3.355075e+001	-7.381015e+001	-3.363498e-002	1.366812e+000
30.524	-5.152575e-002	1.148843e+000	-3.363774e+001	-7.384065e+001	-3.364284e+001	-7.372157e+001	-3.337259e-002	1.353567e+000
30.884	-5.130617e-002	1.135842e+000	-3.372967e+001	-7.375295e+001	-3.373511e+001	-7.363340e+001	-3.311739e-002	1.340812e+000
31.244	-5.098190e-002	1.122962e+000	-3.382045e+001	-7.367205e+001	-3.382675e+001	-7.354805e+001	-3.284410e-002	1.328705e+000
31.605	-5.074293e-002	1.110833e+000	-3.390999e+001	-7.357895e+001	-3.391604e+001	-7.346033e+001	-3.259231e-002	1.316152e+000
31.965	-5.051024e-002	1.099145e+000	-3.399846e+001	-7.349347e+001	-3.400554e+001	-7.337646e+001	-3.238101e-002	1.303867e+000
32.325	-5.036058e-002	1.087355e+000	-3.408628e+001	-7.341149e+001	-3.409158e+001	-7.328927e+001	-3.216485e-002	1.292776e+000
32.685	-5.009448e-002	1.076451e+000	-3.417204e+001	-7.331915e+001	-3.417817e+001	-7.319989e+001	-3.201491e-002	1.280795e+000
33.045	-4.987877e-002	1.065141e+000	-3.425751e+001	-7.323558e+001	-3.426361e+001	-7.310896e+001	-3.171519e-002	1.269244e+000
33.405	-4.973502e-002	1.054468e+000	-3.434223e+001	-7.313779e+001	-3.434819e+001	-7.302221e+001	-3.148381e-002	1.258908e+000
33.765	-4.956315e-002	1.043467e+000	-3.442671e+001	-7.306010e+001	-3.443289e+001	-7.292809e+001	-3.130405e-002	1.248366e+000
34.125	-4.927738e-002	1.033264e+000	-3.450857e+001	-7.296871e+001	-3.451525e+001	-7.284746e+001	-3.109625e-002	1.237912e+000
34.485	-4.916637e-002	1.022930e+000	-3.459106e+001	-7.287485e+001	-3.459628e+001	-7.275478e+001	-3.092168e-002	1.227352e+000
34.845	-4.890872e-002	1.012777e+000	-3.467215e+001	-7.277963e+001	-3.467789e+001	-7.266063e+001	-3.081023e-002	1.216419e+000
35.205	-4.869581e-002	1.003548e+000	-3.475159e+001	-7.269489e+001	-3.475767e+001	-7.257335e+001	-3.060172e-002	1.207597e+000
35.565	-4.853846e-002	9.938509e-001	-3.483038e+001	-7.260673e+001	-3.483745e+001	-7.249034e+001	-3.033743e-002	1.198092e+000
35.985	-4.780205e-002	9.831401e-001	-3.492916e+001	-7.268480e+001	-3.493435e+001	-7.256458e+001	-2.960016e-002	1.187330e+000
36.483	-4.807109e-002	9.698410e-001	-3.502989e+001	-7.238157e+001	-3.503615e+001	-7.226210e+001	-3.001222e-002	1.173694e+000
36.980	-4.795642e-002	9.571823e-001	-3.513277e+001	-7.225040e+001	-3.514196e+001	-7.213054e+001	-2.985530e-002	1.161479e+000
37.478	-4.771734e-002	9.457670e-001	-3.523584e+001	-7.211835e+001	-3.524383e+001	-7.199748e+001	-2.975310e-002	1.150594e+000
37.975	-4.767542e-002	9.339923e-001	-3.533909e+001	-7.198494e+001	-3.534492e+001	-7.187700e+001	-2.954630e-002	1.137933e+000
38.473	-4.736308e-002	9.223635e-001	-3.543857e+001	-7.185444e+001	-3.544465e+001	-7.175317e+001	-2.944239e-002	1.127116e+000
38.970	-4.717881e-002	9.111448e-001	-3.553871e+001	-7.173198e+001	-3.554558e+001	-7.161635e+001	-2.917714e-002	1.115767e+000
39.468	-4.697922e-002	9.001693e-001	-3.563530e+001	-7.159734e+001	-3.564366e+001	-7.149058e+001	-2.903291e-002	1.104600e+000
39.965	-4.672277e-002	8.893039e-001	-3.573378e+001	-7.147843e+001	-3.574172e+001	-7.135255e+001	-2.884893e-002	1.093950e+000
40.463	-4.673182e-002	8.787700e-001	-3.582921e+001	-7.134960e+001	-3.583558e+001	-7.122176e+001	-2.862749e-002	1.083986e+000
40.960	-4.658117e-002	8.687899e-001	-3.592247e+001	-7.120558e+001	-3.592581e+001	-7.109847e+001	-2.852529e-002	1.073740e+000
41.458	-4.639043e-002	8.591243e-001	-3.601568e+001	-7.108871e+001	-3.602176e+001	-7.096747e+001	-2.831598e-002	1.063687e+000
41.955	-4.630428e-002	8.490107e-001	-3.610713e+001	-7.095416e+001	-3.611208e+001	-7.083854e+001	-2.812959e-002	1.053937e+000
42.452	-4.626887e-002	8.400957e-001	-3.619473e+001	-7.082512e+001	-3.620270e+001	-7.071332e+001	-2.802651e-002	1.044539e+000
42.950	-4.618435e-002	8.303753e-001	-3.628590e+001	-7.069114e+001	-3.629058e+001	-7.057232e+001	-2.774570e-002	1.034859e+000
43.447	-4.609172e-002	8.211353e-001	-3.637387e+001	-7.056554e+001	-3.637767e+001	-7.044503e+001	-2.769068e-002	1.026334e+000
43.945	-4.582961e-002	8.119472e-001	-3.646132e+001	-7.043121e+001	-3.646523e+001	-7.030778e+001	-2.748723e-002	1.017221e+000
44.442	-4.573925e-002	8.040928e-001	-3.654554e+001	-7.031072e+001	-3.655201e+001	-7.018181e+001	-2.743617e-002	1.008188e+000
44.940	-4.558023e-002	7.954112e-001	-3.662876e+001	-7.018166e+001	-3.663709e+001	-7.005559e+001	-2.731554e-002	1.000045e+000
45.437	-4.537195e-002	7.871803e-001	-3.671149e+001	-7.004847e+001	-3.672055e+001	-6.994327e+001	-2.715835e-002	9.916501e-001
45.935	-4.538985e-002	7.790911e-001	-3.679219e+001	-6.992048e+001	-3.680188e+001	-6.981339e+001	-2.706441e-002	9.835033e-001
46.432	-4.516459e-002	7.713852e-001	-3.687495e+001	-6.980162e+001	-3.688515e+001	-6.967077e+001	-2.691297e-002	9.747100e-001
46.930	-4.507776e-002	7.627294e-001	-3.695784e+001	-6.967113e+001	-3.696703e+001	-6.951572e+001	-2.693658e-002	9.672646e-001
47.427	-4.492561e-002	7.552000e-001	-3.704120e+001	-6.951309e+001	-3.704205e+001	-6.936338e+001	-2.683165e-002	9.602239e-001
47.925	-4.491839e-002	7.480246e-001	-3.711431e+001	-6.935585e+001	-3.711697e+001	-6.926838e+001	-2.670724e-002	9.529853e-001
48.422	-4.469245e-002	7.413146e-001	-3.718940e+001	-6.927469e+001	-3.720209e+001	-6.915741e+001	-2.647143e-002	9.454239e-001
48.920	-4.458378e-002	7.335444e-001	-3.727209e+001	-6.910416e+001	-3.727400e+001	-6.897257e+001	-2.646884e-002	9.377503e-001
49.417	-4.444577e-002	7.272572e-001	-3.734052e+001	-6.899001e+001	-3.735082e+001	-6.889612e+001	-2.625421e-002	9.310698e-001
50.001	-4.421706e-002	7.186169e-001	-3.743431e+001	-6.885806e+001	-3.744296e+001	-6.879066e+001	-2.595433e-002	9.235112e-001
50.688	-4.412497e-002	7.105332e-001	-3.752368e+001	-6.865652e+001	-3.753629e+001	-6.860024e+001	-2.583045e-002	9.141163e-001
51.375	-4.385540e-002	7.006264e-001	-3.762919e+001	-6.852204e+001	-3.764514e+001	-6.840162e+001	-2.575576e-002	9.049901e-001
52.062	-4.373685e-002	6.907903e-001	-3.773983e+001	-6.835830e+001	-3.774971e+001	-6.814667e+001	-2.576580e-002	8.942128e-001
52.749	-4.379843e-002	6.819786e-001	-3.783946e+001	-6.804308e+001	-3.783009e+001	-6.790082e+001	-2.583894e-002	8.879689e-001
53.436	-4.376028e-002	6.753539e-001	-3.791090e+001	-6.789599e+001	-3.792188e+001	-6.789577e+001	-2.533513e-002	8.793591e-001
54.123	-4.340074e-002	6.661855e-001	-3.802961e+001	-6.781530e+001	-3.804164e+001	-6.757665e+001	-2.538567e-002	8.697819e-001
54.810	-4.367950e-002	6.593320e-001	-3.809989e+001	-6.745390e+001	-3.809690e+001	-6.746891e+001	-2.525336e-002	8.647862e-001
55.497	-4.306234e-002	6.508899e-001	-3.821643e+001	-6.746736e+001	-3.822814e+001	-6.720181e+001	-2.518768e-002	8.538186e-001
56.184	-4.330776e-002	6.445738e-001	-3.827033e+001	-6.718668e+001	-3.828714e+001	-6.720940e+001	-2.487249e-002	8.498236e-001
56.871	-4.338442e-002	6.347794e-001	-3.839257e+001	-6.688040e+001	-3.837257e+001	-6.675765e+001	-2.510438e-002	8.407054e-001
57.558	-4.279441e-002	6.279537e-001	-3.848698e+001	-6.692946e+001	-3.849518e+001	-6.663056e+001	-2.479578e-002	8.319463e-001
58.245	-4.275116e-002	6.227415e-001	-3.854541e+001	-6.680326e+001	-3.857646e+001	-6.665854e+001	-2.440818e-002	8.252875e-001
58.932	-4.279953e-002	6.155384e-001	-3.861284e+001	-6.655046e+001	-3.864207e+001	-6.654027e+001	-2.423502e-002	8.201266e-001
59.619	-4.284736e-002	6.101097e-001	-3.869636e+001	-6.630160e+001	-3.871393e+001	-6.634070e+001	-2.436326e-002	8.139405e-001
60.306	-4.282693e-002	6.031462e-001	-3.877670e+001	-6.612089e+001	-3.879539e+001	-6.616038e+001	-2.419822e-002	8.078728e-001
60.993	-4.261568e-002	5.965779e-001	-3.885971e+001	-6.601368e+001	-3.888696e+001	-6.600703e+001	-2.408685e-002	8.011764e-001
61.680	-4.235142e-002	5.894511e-001	-3.895674e+001	-6.592064e+001	-3.898789e+001	-6.577907e+001	-2.395074e-002	7.929893e-001
62.367	-4.229424e-002	5.809081e-001	-3.906395e+001	-6.568294e+001	-3.907375e+001	-6.538194e+001	-2.420693e-002	7.848462e-001
63.054	-4.264289e-002	5.747921e-001	-3.913100e+001	-6.526085e+001	-3.911330e+001	-6.513092e+001	-2.442702e-002	7.813457e-001
