!Agilent Technologies,E5061B,MY49204007,A.02.12
!Date: Wed Jul 23 11:56:46 2025
!Data & Calibration Information:
!Freq	S11:SOLT2(ON)	S21:SOLT2(ON)	S12:SOLT2(ON)	S22:SOLT2(ON)
# Hz S dB R 50
10.000	-1.003433e-001	3.206182e+000	-2.490369e+001	-7.711731e+001	-2.490929e+001	-7.700587e+001	-8.212735e-002	3.413897e+000
10.137	-9.903066e-002	3.163061e+000	-2.502146e+001	-7.713161e+001	-2.502655e+001	-7.700914e+001	-8.090843e-002	3.370491e+000
10.275	-9.796169e-002	3.123590e+000	-2.512963e+001	-7.712209e+001	-2.513311e+001	-7.700282e+001	-7.988660e-002	3.330815e+000
10.412	-9.706045e-002	3.085711e+000	-2.523511e+001	-7.712018e+001	-2.523792e+001	-7.699976e+001	-7.888641e-002	3.291901e+000
10.550	-9.606019e-002	3.048486e+000	-2.533808e+001	-7.711807e+001	-2.534093e+001	-7.699698e+001	-7.793227e-002	3.255141e+000
10.687	-9.515433e-002	3.012933e+000	-2.543864e+001	-7.711517e+001	-2.544188e+001	-7.699392e+001	-7.696132e-002	3.219458e+000
10.824	-9.431494e-002	2.978526e+000	-2.553777e+001	-7.711311e+001	-2.554133e+001	-7.699167e+001	-7.606250e-002	3.184412e+000
10.962	-9.329169e-002	2.944042e+000	-2.563648e+001	-7.710626e+001	-2.563957e+001	-7.698007e+001	-7.515464e-002	3.150836e+000
11.099	-9.260988e-002	2.911692e+000	-2.573233e+001	-7.709752e+001	-2.573535e+001	-7.697973e+001	-7.425579e-002	3.117504e+000
11.237	-9.174314e-002	2.878974e+000	-2.582868e+001	-7.708803e+001	-2.583102e+001	-7.696397e+001	-7.357817e-002	3.085796e+000
11.374	-9.089346e-002	2.847429e+000	-2.592248e+001	-7.708521e+001	-2.592587e+001	-7.695794e+001	-7.276240e-002	3.054215e+000
11.511	-9.010333e-002	2.816976e+000	-2.601547e+001	-7.707627e+001	-2.601864e+001	-7.695165e+001	-7.198594e-002	3.023478e+000
11.649	-8.940975e-002	2.787386e+000	-2.610743e+001	-7.706815e+001	-2.611055e+001	-7.694263e+001	-7.128634e-002	2.993633e+000
11.786	-8.870861e-002	2.757993e+000	-2.619803e+001	-7.705597e+001	-2.620101e+001	-7.693139e+001	-7.053113e-002	2.964583e+000
11.924	-8.804923e-002	2.729565e+000	-2.628704e+001	-7.704520e+001	-2.628988e+001	-7.692306e+001	-6.977042e-002	2.935728e+000
12.061	-8.716653e-002	2.701463e+000	-2.637609e+001	-7.704081e+001	-2.637958e+001	-7.691310e+001	-6.910670e-002	2.907595e+000
12.198	-8.667992e-002	2.673633e+000	-2.646323e+001	-7.702509e+001	-2.646631e+001	-7.690502e+001	-6.838627e-002	2.880553e+000
12.336	-8.593670e-002	2.646482e+000	-2.655033e+001	-7.701411e+001	-2.655328e+001	-7.688980e+001	-6.769438e-002	2.853403e+000
12.473	-8.523743e-002	2.620229e+000	-2.663611e+001	-7.700631e+001	-2.663931e+001	-7.687747e+001	-6.700623e-002	2.826896e+000
12.611	-8.461295e-002	2.594439e+000	-2.672060e+001	-7.699568e+001	-2.672401e+001	-7.686921e+001	-6.635465e-002	2.801010e+000
12.748	-8.402022e-002	2.569049e+000	-2.680464e+001	-7.698111e+001	-2.680763e+001	-7.685433e+001	-6.566856e-002	2.775769e+000
12.885	-8.350236e-002	2.544920e+000	-2.688718e+001	-7.696787e+001	-2.689014e+001	-7.684577e+001	-6.495016e-002	2.751108e+000
13.023	-8.280949e-002	2.520891e+000	-2.696911e+001	-7.695739e+001	-2.697263e+001	-7.683506e+001	-6.442822e-002	2.726919e+000
13.160	-8.236741e-002	2.496646e+000	-2.705103e+001	-7.694241e+001	-2.705380e+001	-7.681739e+001	-6.398249e-002	2.703013e+000
13.298	-8.166802e-002	2.473124e+000	-2.713111e+001	-7.693242e+001	-2.713442e+001	-7.680674e+001	-6.341157e-002	2.680127e+000
13.435	-8.108337e-002	2.450704e+000	-2.721051e+001	-7.691909e+001	-2.721397e+001	-7.679644e+001	-6.279277e-002	2.657140e+000
13.572	-8.057018e-002	2.427944e+000	-2.728910e+001	-7.690329e+001	-2.729278e+001	-7.678080e+001	-6.232804e-002	2.635057e+000
13.733	-8.078478e-002	2.401632e+000	-2.737802e+001	-7.676398e+001	-2.738519e+001	-7.683847e+001	-6.125216e-002	2.609786e+000
13.923	-7.930385e-002	2.372566e+000	-2.748666e+001	-7.686729e+001	-2.749100e+001	-7.674697e+001	-6.106448e-002	2.579493e+000
14.112	-7.850924e-002	2.343567e+000	-2.759250e+001	-7.684578e+001	-2.759632e+001	-7.672165e+001	-6.038822e-002	2.550168e+000
14.302	-7.785511e-002	2.315577e+000	-2.769571e+001	-7.682839e+001	-2.769974e+001	-7.670340e+001	-5.966791e-002	2.522304e+000
14.492	-7.713535e-002	2.288014e+000	-2.779778e+001	-7.680182e+001	-2.780172e+001	-7.667879e+001	-5.904882e-002	2.494843e+000
14.682	-7.647795e-002	2.260677e+000	-2.789879e+001	-7.678008e+001	-2.790281e+001	-7.665430e+001	-5.839516e-002	2.467879e+000
14.872	-7.583632e-002	2.234788e+000	-2.799870e+001	-7.675939e+001	-2.800256e+001	-7.663394e+001	-5.772220e-002	2.441292e+000
15.062	-7.518709e-002	2.209202e+000	-2.809749e+001	-7.673737e+001	-2.810125e+001	-7.661471e+001	-5.708244e-002	2.415851e+000
15.251	-7.449209e-002	2.184287e+000	-2.819492e+001	-7.671003e+001	-2.819920e+001	-7.658713e+001	-5.644707e-002	2.390613e+000
15.441	-7.392980e-002	2.159522e+000	-2.829117e+001	-7.669155e+001	-2.829517e+001	-7.656643e+001	-5.581202e-002	2.366051e+000
15.631	-7.346663e-002	2.136060e+000	-2.838592e+001	-7.666497e+001	-2.839006e+001	-7.654205e+001	-5.528252e-002	2.342508e+000
15.821	-7.290035e-002	2.112319e+000	-2.847997e+001	-7.664125e+001	-2.848392e+001	-7.651374e+001	-5.468240e-002	2.319108e+000
16.011	-7.225131e-002	2.089843e+000	-2.857298e+001	-7.661720e+001	-2.857712e+001	-7.649172e+001	-5.416695e-002	2.296031e+000
16.201	-7.177543e-002	2.067475e+000	-2.866486e+001	-7.658557e+001	-2.866938e+001	-7.646242e+001	-5.367351e-002	2.274236e+000
16.391	-7.119962e-002	2.045771e+000	-2.875561e+001	-7.656279e+001	-2.875963e+001	-7.643974e+001	-5.318408e-002	2.252632e+000
16.580	-7.073633e-002	2.024516e+000	-2.884494e+001	-7.653434e+001	-2.884920e+001	-7.640892e+001	-5.265061e-002	2.231629e+000
16.770	-7.029296e-002	2.003171e+000	-2.893401e+001	-7.650624e+001	-2.893822e+001	-7.638162e+001	-5.224456e-002	2.210528e+000
16.960	-6.973137e-002	1.983034e+000	-2.902171e+001	-7.647779e+001	-2.902616e+001	-7.635240e+001	-5.171239e-002	2.190039e+000
17.150	-6.914905e-002	1.963541e+000	-2.910625e+001	-7.647911e+001	-2.911134e+001	-7.636263e+001	-5.111680e-002	2.171192e+000
17.340	-6.888379e-002	1.943144e+000	-2.919345e+001	-7.642250e+001	-2.919722e+001	-7.629885e+001	-5.077040e-002	2.150678e+000
17.530	-6.842425e-002	1.923914e+000	-2.927822e+001	-7.639536e+001	-2.928245e+001	-7.627087e+001	-5.029777e-002	2.131358e+000
17.720	-6.790353e-002	1.905054e+000	-2.936285e+001	-7.636417e+001	-2.936690e+001	-7.624047e+001	-4.976753e-002	2.112021e+000
17.909	-6.743724e-002	1.886567e+000	-2.944633e+001	-7.633389e+001	-2.945077e+001	-7.621193e+001	-4.934367e-002	2.093353e+000
18.099	-6.703120e-002	1.868096e+000	-2.952891e+001	-7.630362e+001	-2.953327e+001	-7.618049e+001	-4.888615e-002	2.075458e+000
18.289	-6.653771e-002	1.849796e+000	-2.961067e+001	-7.627382e+001	-2.961504e+001	-7.615087e+001	-4.842679e-002	2.057027e+000
18.479	-6.620197e-002	1.832399e+000	-2.969155e+001	-7.624543e+001	-2.969540e+001	-7.611800e+001	-4.799932e-002	2.040111e+000
18.669	-6.582348e-002	1.815113e+000	-2.977129e+001	-7.620957e+001	-2.977555e+001	-7.608708e+001	-4.767034e-002	2.023025e+000
18.859	-6.542378e-002	1.798614e+000	-2.985100e+001	-7.617991e+001	-2.985522e+001	-7.605648e+001	-4.727629e-002	2.006482e+000
19.082	-6.676070e-002	1.778280e+000	-2.993578e+001	-7.580427e+001	-2.994266e+001	-7.570149e+001	-4.849260e-002	1.986266e+000
19.344	-6.455610e-002	1.756964e+000	-3.005224e+001	-7.611025e+001	-3.005624e+001	-7.598782e+001	-4.627368e-002	1.964185e+000
19.606	-6.408145e-002	1.735338e+000	-3.015618e+001	-7.604961e+001	-3.016089e+001	-7.592750e+001	-4.583974e-002	1.942673e+000
19.868	-6.371157e-002	1.714457e+000	-3.026020e+001	-7.601092e+001	-3.026504e+001	-7.588483e+001	-4.540727e-002	1.921600e+000
20.130	-6.321048e-002	1.693802e+000	-3.036251e+001	-7.595884e+001	-3.036711e+001	-7.583496e+001	-4.496593e-002	1.901223e+000
20.392	-6.281696e-002	1.673515e+000	-3.046481e+001	-7.591496e+001	-3.046955e+001	-7.578645e+001	-4.450161e-002	1.881046e+000
20.655	-6.235942e-002	1.654037e+000	-3.056497e+001	-7.586307e+001	-3.056925e+001	-7.573910e+001	-4.414098e-002	1.861664e+000
20.917	-6.190195e-002	1.634661e+000	-3.066357e+001	-7.581584e+001	-3.066854e+001	-7.569518e+001	-4.372842e-002	1.842235e+000
21.179	-6.145167e-002	1.615575e+000	-3.076195e+001	-7.576833e+001	-3.076700e+001	-7.564248e+001	-4.329003e-002	1.823485e+000
21.441	-6.114155e-002	1.597326e+000	-3.085820e+001	-7.571740e+001	-3.086282e+001	-7.559379e+001	-4.285614e-002	1.805236e+000
21.703	-6.072927e-002	1.579104e+000	-3.095364e+001	-7.566314e+001	-3.095868e+001	-7.554126e+001	-4.239549e-002	1.786991e+000
21.965	-6.030215e-002	1.561906e+000	-3.104814e+001	-7.561437e+001	-3.105313e+001	-7.549159e+001	-4.209595e-002	1.769686e+000
22.228	-5.999171e-002	1.544501e+000	-3.114146e+001	-7.556297e+001	-3.114596e+001	-7.543816e+001	-4.164176e-002	1.752479e+000
22.490	-5.961899e-002	1.527991e+000	-3.123311e+001	-7.551060e+001	-3.123832e+001	-7.538977e+001	-4.130704e-002	1.735422e+000
22.752	-5.921355e-002	1.511755e+000	-3.132471e+001	-7.546438e+001	-3.132984e+001	-7.533815e+001	-4.091578e-002	1.718621e+000
23.014	-5.902103e-002	1.496142e+000	-3.141411e+001	-7.540686e+001	-3.141915e+001	-7.528219e+001	-4.061091e-002	1.702768e+000
23.276	-5.866609e-002	1.480269e+000	-3.150394e+001	-7.535133e+001	-3.150861e+001	-7.523110e+001	-4.025204e-002	1.687238e+000
23.538	-5.827141e-002	1.464642e+000	-3.159193e+001	-7.530041e+001	-3.159672e+001	-7.517876e+001	-3.986404e-002	1.672216e+000
23.801	-5.789402e-002	1.449050e+000	-3.167879e+001	-7.524569e+001	-3.168397e+001	-7.512308e+001	-3.961911e-002	1.657240e+000
24.063	-5.768137e-002	1.434923e+000	-3.176474e+001	-7.519049e+001	-3.176988e+001	-7.506775e+001	-3.926431e-002	1.642515e+000
24.325	-5.720592e-002	1.420565e+000	-3.184973e+001	-7.513742e+001	-3.185475e+001	-7.501540e+001	-3.890937e-002	1.628249e+000
24.587	-5.698688e-002	1.406366e+000	-3.193407e+001	-7.507947e+001	-3.193887e+001	-7.495721e+001	-3.868781e-002	1.614039e+000
24.849	-5.667475e-002	1.392027e+000	-3.201766e+001	-7.502601e+001	-3.202265e+001	-7.489838e+001	-3.838106e-002	1.600090e+000
25.111	-5.633272e-002	1.378647e+000	-3.210000e+001	-7.496861e+001	-3.210518e+001	-7.484578e+001	-3.812867e-002	1.586354e+000
25.374	-5.610451e-002	1.365299e+000	-3.218145e+001	-7.491285e+001	-3.218638e+001	-7.478874e+001	-3.785780e-002	1.573423e+000
25.636	-5.596964e-002	1.352163e+000	-3.226222e+001	-7.485084e+001	-3.226721e+001	-7.472724e+001	-3.751098e-002	1.559722e+000
25.898	-5.569328e-002	1.339777e+000	-3.234263e+001	-7.479533e+001	-3.234701e+001	-7.467488e+001	-3.732821e-002	1.546984e+000
26.204	-5.434149e-002	1.325061e+000	-3.244843e+001	-7.498047e+001	-3.245211e+001	-7.484139e+001	-3.608015e-002	1.532316e+000
26.564	-5.508997e-002	1.307435e+000	-3.254377e+001	-7.464508e+001	-3.254833e+001	-7.452885e+001	-3.672514e-002	1.515192e+000
26.924	-5.478011e-002	1.291132e+000	-3.264824e+001	-7.456310e+001	-3.265326e+001	-7.444273e+001	-3.638601e-002	1.499037e+000
27.284	-5.439509e-002	1.275342e+000	-3.275318e+001	-7.448350e+001	-3.275768e+001	-7.436054e+001	-3.602622e-002	1.482854e+000
27.644	-5.408728e-002	1.259694e+000	-3.285581e+001	-7.440055e+001	-3.286108e+001	-7.428125e+001	-3.580135e-002	1.467601e+000
28.004	-5.367806e-002	1.244789e+000	-3.295734e+001	-7.431527e+001	-3.296243e+001	-7.419279e+001	-3.541689e-002	1.452489e+000
28.364	-5.333388e-002	1.229465e+000	-3.305816e+001	-7.423456e+001	-3.306319e+001	-7.411406e+001	-3.509243e-002	1.437557e+000
28.724	-5.311504e-002	1.215198e+000	-3.315722e+001	-7.415247e+001	-3.316228e+001	-7.402904e+001	-3.480377e-002	1.422692e+000
29.084	-5.276274e-002	1.201692e+000	-3.325535e+001	-7.406282e+001	-3.325975e+001	-7.394327e+001	-3.464865e-002	1.408723e+000
29.444	-5.255402e-002	1.188195e+000	-3.335073e+001	-7.397802e+001	-3.335646e+001	-7.385905e+001	-3.434707e-002	1.396230e+000
29.804	-5.239107e-002	1.175122e+000	-3.344582e+001	-7.389112e+001	-3.345140e+001	-7.376733e+001	-3.406760e-002	1.382767e+000
30.164	-5.198511e-002	1.161430e+000	-3.354100e+001	-7.380897e+001	-3.354619e+001	-7.368484e+001	-3.388768e-002	1.369600e+000
30.524	-5.182503e-002	1.148592e+000	-3.363298e+001	-7.372243e+001	-3.363824e+001	-7.359918e+001	-3.361026e-002	1.356446e+000
30.884	-5.167482e-002	1.135435e+000	-3.372506e+001	-7.363085e+001	-3.373047e+001	-7.351402e+001	-3.329165e-002	1.343228e+000
31.244	-5.137404e-002	1.123231e+000	-3.381578e+001	-7.354690e+001	-3.382095e+001	-7.342619e+001	-3.303285e-002	1.330717e+000
31.605	-5.119410e-002	1.110677e+000	-3.390520e+001	-7.345515e+001	-3.390973e+001	-7.333853e+001	-3.283019e-002	1.318370e+000
31.965	-5.095656e-002	1.099398e+000	-3.399391e+001	-7.336746e+001	-3.399916e+001	-7.324690e+001	-3.260155e-002	1.306668e+000
32.325	-5.082374e-002	1.087449e+000	-3.408155e+001	-7.328797e+001	-3.408568e+001	-7.316228e+001	-3.243675e-002	1.294851e+000
32.685	-5.049032e-002	1.075643e+000	-3.416780e+001	-7.319108e+001	-3.417201e+001	-7.307684e+001	-3.210679e-002	1.283867e+000
33.045	-5.032426e-002	1.065095e+000	-3.425216e+001	-7.310142e+001	-3.425834e+001	-7.297947e+001	-3.199911e-002	1.272370e+000
33.405	-5.014273e-002	1.054166e+000	-3.433755e+001	-7.301397e+001	-3.434193e+001	-7.288622e+001	-3.176096e-002	1.261749e+000
33.765	-4.984696e-002	1.043099e+000	-3.442011e+001	-7.292344e+001	-3.442675e+001	-7.279738e+001	-3.157331e-002	1.250823e+000
34.125	-4.964681e-002	1.032726e+000	-3.450414e+001	-7.283188e+001	-3.450803e+001	-7.272104e+001	-3.137585e-002	1.241153e+000
34.485	-4.948335e-002	1.022668e+000	-3.458561e+001	-7.274906e+001	-3.458998e+001	-7.261971e+001	-3.123338e-002	1.230526e+000
34.845	-4.939674e-002	1.012686e+000	-3.466567e+001	-7.264804e+001	-3.467174e+001	-7.252255e+001	-3.104944e-002	1.219735e+000
35.205	-4.912280e-002	1.002924e+000	-3.474456e+001	-7.255508e+001	-3.475091e+001	-7.243376e+001	-3.079168e-002	1.210190e+000
35.565	-4.906047e-002	9.938843e-001	-3.482516e+001	-7.246548e+001	-3.483090e+001	-7.234886e+001	-3.061907e-002	1.200725e+000
35.985	-4.819600e-002	9.824848e-001	-3.492428e+001	-7.254835e+001	-3.492808e+001	-7.242201e+001	-2.986347e-002	1.191096e+000
36.483	-4.859046e-002	9.701003e-001	-3.502409e+001	-7.223615e+001	-3.502915e+001	-7.212632e+001	-3.018017e-002	1.177373e+000
36.980	-4.841722e-002	9.575717e-001	-3.512719e+001	-7.209702e+001	-3.513391e+001	-7.198291e+001	-3.014394e-002	1.164393e+000
37.478	-4.810518e-002	9.462135e-001	-3.522909e+001	-7.197040e+001	-3.523632e+001	-7.185135e+001	-2.992330e-002	1.153410e+000
37.975	-4.810392e-002	9.345505e-001	-3.533277e+001	-7.185181e+001	-3.533780e+001	-7.172562e+001	-2.976340e-002	1.141130e+000
38.473	-4.786890e-002	9.223472e-001	-3.543379e+001	-7.171250e+001	-3.543733e+001	-7.160245e+001	-2.959540e-002	1.129606e+000
38.970	-4.751465e-002	9.112113e-001	-3.553249e+001	-7.158079e+001	-3.553893e+001	-7.146712e+001	-2.941816e-002	1.118474e+000
39.468	-4.733764e-002	9.000859e-001	-3.563017e+001	-7.145467e+001	-3.563458e+001	-7.133550e+001	-2.929619e-002	1.107707e+000
39.965	-4.720142e-002	8.895857e-001	-3.572551e+001	-7.132300e+001	-3.573255e+001	-7.119857e+001	-2.909345e-002	1.096921e+000
40.463	-4.717764e-002	8.791574e-001	-3.582145e+001	-7.118947e+001	-3.582622e+001	-7.107130e+001	-2.891063e-002	1.086760e+000
40.960	-4.701281e-002	8.686938e-001	-3.591413e+001	-7.106299e+001	-3.591857e+001	-7.093951e+001	-2.876050e-002	1.076791e+000
41.458	-4.673012e-002	8.588203e-001	-3.600641e+001	-7.093112e+001	-3.601226e+001	-7.080994e+001	-2.841978e-002	1.066735e+000
41.955	-4.668656e-002	8.482840e-001	-3.609864e+001	-7.080327e+001	-3.610291e+001	-7.068584e+001	-2.833706e-002	1.056308e+000
42.452	-4.661641e-002	8.395205e-001	-3.618885e+001	-7.066744e+001	-3.619253e+001	-7.054890e+001	-2.832823e-002	1.046908e+000
42.950	-4.643956e-002	8.305969e-001	-3.627627e+001	-7.053696e+001	-3.628120e+001	-7.041381e+001	-2.805561e-002	1.038022e+000
43.447	-4.644286e-002	8.215601e-001	-3.636511e+001	-7.040367e+001	-3.636880e+001	-7.028374e+001	-2.785085e-002	1.029263e+000
43.945	-4.630482e-002	8.124532e-001	-3.645055e+001	-7.027050e+001	-3.645597e+001	-7.014876e+001	-2.782452e-002	1.019912e+000
44.442	-4.598872e-002	8.039771e-001	-3.653607e+001	-7.014797e+001	-3.654155e+001	-7.001978e+001	-2.775625e-002	1.011176e+000
44.940	-4.592763e-002	7.959499e-001	-3.661966e+001	-7.000585e+001	-3.662575e+001	-6.988930e+001	-2.764901e-002	1.003248e+000
45.437	-4.572105e-002	7.870361e-001	-3.670326e+001	-6.987208e+001	-3.670974e+001	-6.976067e+001	-2.748139e-002	9.947762e-001
45.935	-4.567871e-002	7.792140e-001	-3.678441e+001	-6.974767e+001	-3.679069e+001	-6.962802e+001	-2.734992e-002	9.864359e-001
46.432	-4.554593e-002	7.709037e-001	-3.686516e+001	-6.961207e+001	-3.687223e+001	-6.949091e+001	-2.725146e-002	9.782278e-001
46.930	-4.541030e-002	7.628609e-001	-3.694670e+001	-6.948193e+001	-3.695375e+001	-6.935056e+001	-2.717694e-002	9.706270e-001
47.427	-4.526542e-002	7.562678e-001	-3.702738e+001	-6.934293e+001	-3.702975e+001	-6.921933e+001	-2.708504e-002	9.631003e-001
47.925	-4.517913e-002	7.484685e-001	-3.710464e+001	-6.920073e+001	-3.710725e+001	-6.909456e+001	-2.691415e-002	9.560162e-001
48.422	-4.511233e-002	7.411695e-001	-3.717941e+001	-6.908643e+001	-3.718819e+001	-6.896147e+001	-2.673053e-002	9.480335e-001
48.920	-4.495118e-002	7.340563e-001	-3.725940e+001	-6.894407e+001	-3.726112e+001	-6.881587e+001	-2.667624e-002	9.414528e-001
49.417	-4.486879e-002	7.271657e-001	-3.733195e+001	-6.881409e+001	-3.733856e+001	-6.870107e+001	-2.651338e-002	9.346294e-001
50.001	-4.466019e-002	7.183515e-001	-3.742698e+001	-6.869372e+001	-3.743184e+001	-6.858374e+001	-2.620502e-002	9.259212e-001
50.688	-4.456994e-002	7.092134e-001	-3.751963e+001	-6.847159e+001	-3.752507e+001	-6.838081e+001	-2.621846e-002	9.172902e-001
51.375	-4.448848e-002	6.999767e-001	-3.761940e+001	-6.829679e+001	-3.762925e+001	-6.818359e+001	-2.612310e-002	9.077565e-001
52.062	-4.440383e-002	6.919724e-001	-3.772133e+001	-6.812519e+001	-3.772869e+001	-6.797073e+001	-2.598706e-002	8.981126e-001
52.749	-4.427347e-002	6.833068e-001	-3.781967e+001	-6.792383e+001	-3.781842e+001	-6.777977e+001	-2.587771e-002	8.903590e-001
53.436	-4.412645e-002	6.746511e-001	-3.790910e+001	-6.771383e+001	-3.791557e+001	-6.765767e+001	-2.564088e-002	8.826492e-001
54.123	-4.389863e-002	6.669053e-001	-3.800779e+001	-6.757695e+001	-3.801423e+001	-6.740283e+001	-2.569280e-002	8.736582e-001
54.810	-4.389821e-002	6.594627e-001	-3.809511e+001	-6.733718e+001	-3.809697e+001	-6.727097e+001	-2.549438e-002	8.670552e-001
55.497	-4.360751e-002	6.510448e-001	-3.818983e+001	-6.721992e+001	-3.819814e+001	-6.703590e+001	-2.547590e-002	8.582106e-001
56.184	-4.366450e-002	6.434271e-001	-3.827183e+001	-6.698773e+001	-3.828030e+001	-6.693445e+001	-2.521511e-002	8.512576e-001
56.871	-4.364823e-002	6.363433e-001	-3.836924e+001	-6.680358e+001	-3.836398e+001	-6.667084e+001	-2.526885e-002	8.441284e-001
57.558	-4.343922e-002	6.288218e-001	-3.845519e+001	-6.667618e+001	-3.846319e+001	-6.647261e+001	-2.509582e-002	8.361555e-001
58.245	-4.333835e-002	6.220117e-001	-3.853169e+001	-6.649577e+001	-3.855187e+001	-6.635969e+001	-2.488023e-002	8.283457e-001
58.932	-4.330845e-002	6.144685e-001	-3.861386e+001	-6.628378e+001	-3.862770e+001	-6.621453e+001	-2.480711e-002	8.228228e-001
59.619	-4.314518e-002	6.084855e-001	-3.869776e+001	-6.607623e+001	-3.870834e+001	-6.603914e+001	-2.475518e-002	8.170948e-001
60.306	-4.313967e-002	6.013131e-001	-3.878044e+001	-6.589026e+001	-3.879010e+001	-6.585853e+001	-2.456642e-002	8.092584e-001
60.993	-4.299314e-002	5.955910e-001	-3.886023e+001	-6.572011e+001	-3.887521e+001	-6.567245e+001	-2.462297e-002	8.033893e-001
61.680	-4.296969e-002	5.894173e-001	-3.894071e+001	-6.558104e+001	-3.895874e+001	-6.546871e+001	-2.457202e-002	7.968067e-001
62.367	-4.275028e-002	5.830902e-001	-3.902870e+001	-6.542188e+001	-3.903586e+001	-6.521278e+001	-2.460034e-002	7.898083e-001
63.054	-4.293462e-002	5.763348e-001	-3.910777e+001	-6.518401e+001	-3.909983e+001	-6.504238e+001	-2.453989e-002	7.843923e-001
