!Agilent Technologies,E5061B,MY49204007,A.02.12
!Date: Wed Jul 23 11:59:09 2025
!Data & Calibration Information:
!Freq	S11:SOLT2(ON)	S21:SOLT2(ON)	S12:SOLT2(ON)	S22:SOLT2(ON)
# Hz S dB R 50
10.000	-1.006479e-001	3.206528e+000	-2.490061e+001	-7.708393e+001	-2.490621e+001	-7.697130e+001	-8.194704e-002	3.416755e+000
10.137	-9.937131e-002	3.163746e+000	-2.501866e+001	-7.709642e+001	-2.502305e+001	-7.697382e+001	-8.077225e-002	3.372713e+000
10.275	-9.827007e-002	3.124174e+000	-2.512676e+001	-7.708935e+001	-2.512983e+001	-7.696922e+001	-7.976523e-002	3.332869e+000
10.412	-9.721970e-002	3.085871e+000	-2.523218e+001	-7.708720e+001	-2.523486e+001	-7.696334e+001	-7.880301e-002	3.294791e+000
10.550	-9.634940e-002	3.048938e+000	-2.533513e+001	-7.708267e+001	-2.533747e+001	-7.695933e+001	-7.784033e-002	3.258283e+000
10.687	-9.552603e-002	3.013130e+000	-2.543599e+001	-7.707878e+001	-2.543806e+001	-7.695547e+001	-7.689914e-002	3.222750e+000
10.824	-9.471522e-002	2.979000e+000	-2.553498e+001	-7.707725e+001	-2.553806e+001	-7.695598e+001	-7.602946e-002	3.187172e+000
10.962	-9.372000e-002	2.944503e+000	-2.563370e+001	-7.707030e+001	-2.563616e+001	-7.694254e+001	-7.515243e-002	3.153482e+000
11.099	-9.305622e-002	2.912346e+000	-2.572914e+001	-7.706243e+001	-2.573213e+001	-7.694203e+001	-7.430464e-002	3.120875e+000
11.237	-9.216956e-002	2.879497e+000	-2.582548e+001	-7.705111e+001	-2.582778e+001	-7.692674e+001	-7.365830e-002	3.088875e+000
11.374	-9.126418e-002	2.848906e+000	-2.591979e+001	-7.704772e+001	-2.592216e+001	-7.691973e+001	-7.275429e-002	3.057331e+000
11.511	-9.049365e-002	2.817623e+000	-2.601259e+001	-7.703990e+001	-2.601530e+001	-7.691295e+001	-7.200098e-002	3.026398e+000
11.649	-8.977012e-002	2.787872e+000	-2.610424e+001	-7.702952e+001	-2.610680e+001	-7.690265e+001	-7.123890e-002	2.996769e+000
11.786	-8.906934e-002	2.758435e+000	-2.619487e+001	-7.701864e+001	-2.619743e+001	-7.689138e+001	-7.054299e-002	2.967534e+000
11.924	-8.836829e-002	2.730182e+000	-2.628378e+001	-7.700540e+001	-2.628655e+001	-7.688489e+001	-6.982423e-002	2.938936e+000
12.061	-8.754037e-002	2.701876e+000	-2.637280e+001	-7.700139e+001	-2.637602e+001	-7.687372e+001	-6.899116e-002	2.910561e+000
12.198	-8.697183e-002	2.674285e+000	-2.645955e+001	-7.698565e+001	-2.646253e+001	-7.686568e+001	-6.831693e-002	2.883053e+000
12.336	-8.632920e-002	2.647190e+000	-2.654693e+001	-7.697428e+001	-2.654952e+001	-7.684855e+001	-6.758414e-002	2.855887e+000
12.473	-8.564380e-002	2.620903e+000	-2.663284e+001	-7.696525e+001	-2.663535e+001	-7.683796e+001	-6.692422e-002	2.829817e+000
12.611	-8.495616e-002	2.594927e+000	-2.671730e+001	-7.695330e+001	-2.672009e+001	-7.682731e+001	-6.623926e-002	2.803856e+000
12.748	-8.436088e-002	2.569741e+000	-2.680109e+001	-7.694047e+001	-2.680396e+001	-7.681493e+001	-6.566648e-002	2.778513e+000
12.885	-8.384297e-002	2.544895e+000	-2.688378e+001	-7.692651e+001	-2.688640e+001	-7.680221e+001	-6.503101e-002	2.753822e+000
13.023	-8.310039e-002	2.521593e+000	-2.696582e+001	-7.691603e+001	-2.696919e+001	-7.679378e+001	-6.446659e-002	2.729375e+000
13.160	-8.258647e-002	2.497108e+000	-2.704743e+001	-7.689967e+001	-2.705021e+001	-7.677610e+001	-6.395740e-002	2.705838e+000
13.298	-8.202358e-002	2.473722e+000	-2.712757e+001	-7.689174e+001	-2.713085e+001	-7.676561e+001	-6.331319e-002	2.682582e+000
13.435	-8.129813e-002	2.450873e+000	-2.720648e+001	-7.687671e+001	-2.721014e+001	-7.675485e+001	-6.274791e-002	2.659906e+000
13.572	-8.081831e-002	2.428530e+000	-2.728529e+001	-7.686002e+001	-2.728902e+001	-7.673885e+001	-6.229993e-002	2.637276e+000
13.733	-8.106796e-002	2.402281e+000	-2.737415e+001	-7.672025e+001	-2.738146e+001	-7.679478e+001	-6.123767e-002	2.611848e+000
13.923	-7.962426e-002	2.373435e+000	-2.748309e+001	-7.682551e+001	-2.748683e+001	-7.670270e+001	-6.106427e-002	2.581787e+000
14.112	-7.889307e-002	2.344540e+000	-2.758876e+001	-7.679993e+001	-2.759224e+001	-7.667682e+001	-6.034980e-002	2.552857e+000
14.302	-7.823999e-002	2.315940e+000	-2.769182e+001	-7.678487e+001	-2.769530e+001	-7.665943e+001	-5.969622e-002	2.524852e+000
14.492	-7.751079e-002	2.288825e+000	-2.779395e+001	-7.675893e+001	-2.779761e+001	-7.663377e+001	-5.903132e-002	2.497511e+000
14.682	-7.677982e-002	2.261713e+000	-2.789508e+001	-7.673595e+001	-2.789902e+001	-7.660971e+001	-5.849172e-002	2.470421e+000
14.872	-7.611423e-002	2.235326e+000	-2.799510e+001	-7.671276e+001	-2.799844e+001	-7.658841e+001	-5.780183e-002	2.444357e+000
15.062	-7.546628e-002	2.210087e+000	-2.809330e+001	-7.669142e+001	-2.809738e+001	-7.656812e+001	-5.707527e-002	2.418483e+000
15.251	-7.480579e-002	2.184535e+000	-2.819101e+001	-7.666468e+001	-2.819493e+001	-7.654188e+001	-5.655665e-002	2.393528e+000
15.441	-7.424318e-002	2.160198e+000	-2.828715e+001	-7.664591e+001	-2.829103e+001	-7.652010e+001	-5.593942e-002	2.369064e+000
15.631	-7.372811e-002	2.136889e+000	-2.838176e+001	-7.661752e+001	-2.838582e+001	-7.649287e+001	-5.537459e-002	2.345171e+000
15.821	-7.314959e-002	2.113135e+000	-2.847571e+001	-7.659319e+001	-2.847964e+001	-7.646882e+001	-5.475746e-002	2.321285e+000
16.011	-7.256253e-002	2.090684e+000	-2.856878e+001	-7.656738e+001	-2.857289e+001	-7.644367e+001	-5.421570e-002	2.298740e+000
16.201	-7.206308e-002	2.068275e+000	-2.866071e+001	-7.653719e+001	-2.866480e+001	-7.641584e+001	-5.371645e-002	2.276856e+000
16.391	-7.154124e-002	2.045896e+000	-2.875135e+001	-7.651640e+001	-2.875558e+001	-7.639201e+001	-5.316177e-002	2.254350e+000
16.580	-7.106717e-002	2.025007e+000	-2.884094e+001	-7.648374e+001	-2.884475e+001	-7.636268e+001	-5.260517e-002	2.233314e+000
16.770	-7.050580e-002	2.003727e+000	-2.892962e+001	-7.645606e+001	-2.893377e+001	-7.633428e+001	-5.216865e-002	2.212453e+000
16.960	-7.001719e-002	1.982750e+000	-2.901760e+001	-7.643025e+001	-2.902175e+001	-7.630534e+001	-5.160102e-002	2.192084e+000
17.150	-6.938089e-002	1.963968e+000	-2.910249e+001	-7.643058e+001	-2.910638e+001	-7.631232e+001	-5.097336e-002	2.172798e+000
17.340	-6.902170e-002	1.943946e+000	-2.918853e+001	-7.637135e+001	-2.919253e+001	-7.624877e+001	-5.073651e-002	2.152557e+000
17.530	-6.862054e-002	1.924285e+000	-2.927355e+001	-7.634135e+001	-2.927777e+001	-7.622047e+001	-5.027971e-002	2.133762e+000
17.720	-6.814879e-002	1.905745e+000	-2.935831e+001	-7.631096e+001	-2.936205e+001	-7.619040e+001	-4.978790e-002	2.114681e+000
17.909	-6.768231e-002	1.887070e+000	-2.944147e+001	-7.628030e+001	-2.944556e+001	-7.616019e+001	-4.934103e-002	2.096075e+000
18.099	-6.727430e-002	1.869190e+000	-2.952370e+001	-7.625122e+001	-2.952817e+001	-7.613046e+001	-4.891483e-002	2.077641e+000
18.289	-6.680383e-002	1.851075e+000	-2.960601e+001	-7.622031e+001	-2.961019e+001	-7.610022e+001	-4.852372e-002	2.059249e+000
18.479	-6.635936e-002	1.833190e+000	-2.968654e+001	-7.619046e+001	-2.969058e+001	-7.606822e+001	-4.803569e-002	2.042189e+000
18.669	-6.590347e-002	1.816308e+000	-2.976664e+001	-7.615657e+001	-2.977095e+001	-7.603595e+001	-4.762522e-002	2.024831e+000
18.859	-6.562147e-002	1.799508e+000	-2.984589e+001	-7.612448e+001	-2.984994e+001	-7.600333e+001	-4.721445e-002	2.008096e+000
19.082	-6.696648e-002	1.778976e+000	-2.993107e+001	-7.574998e+001	-2.993756e+001	-7.564699e+001	-4.838022e-002	1.987403e+000
19.344	-6.467662e-002	1.757382e+000	-3.004678e+001	-7.605491e+001	-3.005093e+001	-7.593227e+001	-4.610473e-002	1.965600e+000
19.606	-6.422707e-002	1.736055e+000	-3.015122e+001	-7.599629e+001	-3.015597e+001	-7.587300e+001	-4.577919e-002	1.944216e+000
19.868	-6.389613e-002	1.715421e+000	-3.025513e+001	-7.595216e+001	-3.025911e+001	-7.583076e+001	-4.533834e-002	1.923185e+000
20.130	-6.334645e-002	1.694478e+000	-3.035741e+001	-7.590146e+001	-3.036150e+001	-7.578245e+001	-4.493891e-002	1.902865e+000
20.392	-6.290230e-002	1.674413e+000	-3.045912e+001	-7.585357e+001	-3.046387e+001	-7.573267e+001	-4.443220e-002	1.882428e+000
20.655	-6.248632e-002	1.654604e+000	-3.055929e+001	-7.580560e+001	-3.056411e+001	-7.568351e+001	-4.403241e-002	1.862839e+000
20.917	-6.211370e-002	1.635880e+000	-3.065804e+001	-7.575718e+001	-3.066268e+001	-7.563514e+001	-4.359692e-002	1.843682e+000
21.179	-6.167278e-002	1.616734e+000	-3.075615e+001	-7.571144e+001	-3.076092e+001	-7.558887e+001	-4.317704e-002	1.824266e+000
21.441	-6.124871e-002	1.598413e+000	-3.085243e+001	-7.565903e+001	-3.085706e+001	-7.553711e+001	-4.283307e-002	1.806531e+000
21.703	-6.092859e-002	1.579976e+000	-3.094805e+001	-7.560379e+001	-3.095258e+001	-7.548322e+001	-4.230344e-002	1.788508e+000
21.965	-6.047037e-002	1.562469e+000	-3.104233e+001	-7.555477e+001	-3.104744e+001	-7.543252e+001	-4.195581e-002	1.770748e+000
22.228	-6.016003e-002	1.545484e+000	-3.113552e+001	-7.550157e+001	-3.114041e+001	-7.538507e+001	-4.156937e-002	1.753824e+000
22.490	-5.982065e-002	1.528821e+000	-3.122729e+001	-7.544885e+001	-3.123215e+001	-7.532744e+001	-4.127535e-002	1.736954e+000
22.752	-5.942763e-002	1.512104e+000	-3.131864e+001	-7.540286e+001	-3.132364e+001	-7.527935e+001	-4.089030e-002	1.720424e+000
23.014	-5.908683e-002	1.496112e+000	-3.140802e+001	-7.534091e+001	-3.141311e+001	-7.522169e+001	-4.047308e-002	1.704220e+000
23.276	-5.875456e-002	1.480482e+000	-3.149777e+001	-7.528875e+001	-3.150237e+001	-7.516793e+001	-4.014807e-002	1.688545e+000
23.538	-5.844880e-002	1.465272e+000	-3.158593e+001	-7.523547e+001	-3.159072e+001	-7.511836e+001	-3.990975e-002	1.673749e+000
23.801	-5.813350e-002	1.450199e+000	-3.167244e+001	-7.518214e+001	-3.167752e+001	-7.506241e+001	-3.958433e-002	1.658468e+000
24.063	-5.776425e-002	1.434989e+000	-3.175855e+001	-7.512549e+001	-3.176345e+001	-7.500627e+001	-3.923181e-002	1.643597e+000
24.325	-5.743166e-002	1.421011e+000	-3.184335e+001	-7.507064e+001	-3.184830e+001	-7.495258e+001	-3.891650e-002	1.629261e+000
24.587	-5.724472e-002	1.407146e+000	-3.192754e+001	-7.501214e+001	-3.193308e+001	-7.489071e+001	-3.855740e-002	1.615279e+000
24.849	-5.691871e-002	1.392862e+000	-3.201158e+001	-7.495912e+001	-3.201594e+001	-7.483825e+001	-3.828960e-002	1.602047e+000
25.111	-5.653773e-002	1.379218e+000	-3.209332e+001	-7.490179e+001	-3.209885e+001	-7.478117e+001	-3.806706e-002	1.588004e+000
25.374	-5.629462e-002	1.366364e+000	-3.217457e+001	-7.484228e+001	-3.218031e+001	-7.472598e+001	-3.781923e-002	1.574317e+000
25.636	-5.598145e-002	1.353569e+000	-3.225552e+001	-7.478501e+001	-3.226091e+001	-7.466516e+001	-3.754068e-002	1.561474e+000
25.898	-5.580938e-002	1.340385e+000	-3.233525e+001	-7.472715e+001	-3.234040e+001	-7.460853e+001	-3.725950e-002	1.548693e+000
26.204	-5.448523e-002	1.325349e+000	-3.244117e+001	-7.490994e+001	-3.244484e+001	-7.477383e+001	-3.597922e-002	1.534141e+000
26.564	-5.539016e-002	1.309023e+000	-3.253599e+001	-7.457718e+001	-3.254158e+001	-7.445993e+001	-3.677480e-002	1.517111e+000
26.924	-5.503153e-002	1.292128e+000	-3.264068e+001	-7.449018e+001	-3.264557e+001	-7.437310e+001	-3.633541e-002	1.500986e+000
27.284	-5.461317e-002	1.276702e+000	-3.274566e+001	-7.441281e+001	-3.275038e+001	-7.429129e+001	-3.607584e-002	1.484465e+000
27.644	-5.436018e-002	1.261015e+000	-3.284824e+001	-7.433326e+001	-3.285314e+001	-7.421525e+001	-3.571937e-002	1.468855e+000
28.004	-5.404040e-002	1.246038e+000	-3.294995e+001	-7.424709e+001	-3.295483e+001	-7.412516e+001	-3.539387e-002	1.453746e+000
28.364	-5.364229e-002	1.230037e+000	-3.305106e+001	-7.416168e+001	-3.305540e+001	-7.404590e+001	-3.512400e-002	1.438582e+000
28.724	-5.331212e-002	1.216757e+000	-3.314895e+001	-7.407885e+001	-3.315416e+001	-7.395756e+001	-3.478051e-002	1.423966e+000
29.084	-5.294994e-002	1.202172e+000	-3.324703e+001	-7.399201e+001	-3.325214e+001	-7.387548e+001	-3.453328e-002	1.410219e+000
29.444	-5.276664e-002	1.188862e+000	-3.334330e+001	-7.390796e+001	-3.334821e+001	-7.378448e+001	-3.422611e-002	1.397405e+000
29.804	-5.261395e-002	1.175416e+000	-3.343825e+001	-7.382336e+001	-3.344279e+001	-7.369776e+001	-3.401695e-002	1.384108e+000
30.164	-5.233830e-002	1.162698e+000	-3.353265e+001	-7.373308e+001	-3.353758e+001	-7.361384e+001	-3.373150e-002	1.370693e+000
30.524	-5.220268e-002	1.150222e+000	-3.362499e+001	-7.364807e+001	-3.363010e+001	-7.352660e+001	-3.346693e-002	1.357749e+000
30.884	-5.188151e-002	1.136356e+000	-3.371672e+001	-7.355475e+001	-3.372210e+001	-7.343842e+001	-3.331012e-002	1.344694e+000
31.244	-5.160076e-002	1.123740e+000	-3.380802e+001	-7.347449e+001	-3.381215e+001	-7.335426e+001	-3.297574e-002	1.332746e+000
31.605	-5.149168e-002	1.111888e+000	-3.389617e+001	-7.337885e+001	-3.390198e+001	-7.326233e+001	-3.283846e-002	1.320252e+000
31.965	-5.126093e-002	1.099598e+000	-3.398549e+001	-7.329265e+001	-3.399103e+001	-7.317151e+001	-3.257086e-002	1.308077e+000
32.325	-5.103539e-002	1.088641e+000	-3.407266e+001	-7.320851e+001	-3.407694e+001	-7.308356e+001	-3.234617e-002	1.296518e+000
32.685	-5.073354e-002	1.077280e+000	-3.415865e+001	-7.311781e+001	-3.416320e+001	-7.300123e+001	-3.213635e-002	1.285183e+000
33.045	-5.056647e-002	1.065623e+000	-3.424350e+001	-7.302729e+001	-3.424872e+001	-7.290314e+001	-3.186748e-002	1.273885e+000
33.405	-5.043285e-002	1.054530e+000	-3.432866e+001	-7.293115e+001	-3.433222e+001	-7.281392e+001	-3.171350e-002	1.263101e+000
33.765	-5.015768e-002	1.044556e+000	-3.441175e+001	-7.284731e+001	-3.441632e+001	-7.272161e+001	-3.149898e-002	1.252281e+000
34.125	-5.002906e-002	1.034134e+000	-3.449426e+001	-7.274897e+001	-3.449867e+001	-7.263785e+001	-3.130141e-002	1.242318e+000
34.485	-4.973072e-002	1.023571e+000	-3.457649e+001	-7.265972e+001	-3.458032e+001	-7.254019e+001	-3.114591e-002	1.231534e+000
34.845	-4.954618e-002	1.014662e+000	-3.465612e+001	-7.256890e+001	-3.466223e+001	-7.244242e+001	-3.103637e-002	1.221260e+000
35.205	-4.926374e-002	1.004794e+000	-3.473499e+001	-7.247808e+001	-3.474151e+001	-7.235830e+001	-3.080618e-002	1.212147e+000
35.565	-4.918337e-002	9.949965e-001	-3.481431e+001	-7.238589e+001	-3.482074e+001	-7.226616e+001	-3.058568e-002	1.201685e+000
35.985	-4.834541e-002	9.836118e-001	-3.491380e+001	-7.246022e+001	-3.491819e+001	-7.233845e+001	-2.986173e-002	1.191402e+000
36.483	-4.883671e-002	9.709541e-001	-3.501338e+001	-7.215319e+001	-3.501870e+001	-7.204162e+001	-3.025740e-002	1.177889e+000
36.980	-4.860338e-002	9.585663e-001	-3.511585e+001	-7.201519e+001	-3.512205e+001	-7.189657e+001	-3.008408e-002	1.166057e+000
37.478	-4.829235e-002	9.471581e-001	-3.521929e+001	-7.188718e+001	-3.522473e+001	-7.176385e+001	-3.000304e-002	1.153963e+000
37.975	-4.829033e-002	9.349430e-001	-3.532312e+001	-7.176718e+001	-3.532707e+001	-7.163562e+001	-2.981032e-002	1.142079e+000
38.473	-4.807132e-002	9.230680e-001	-3.542207e+001	-7.162007e+001	-3.542739e+001	-7.150875e+001	-2.971115e-002	1.131083e+000
38.970	-4.778854e-002	9.120370e-001	-3.552076e+001	-7.149970e+001	-3.552653e+001	-7.137291e+001	-2.948866e-002	1.120017e+000
39.468	-4.772572e-002	9.018559e-001	-3.561868e+001	-7.136132e+001	-3.562246e+001	-7.124463e+001	-2.930000e-002	1.108709e+000
39.965	-4.751138e-002	8.907479e-001	-3.571380e+001	-7.123457e+001	-3.571990e+001	-7.111559e+001	-2.904779e-002	1.098269e+000
40.463	-4.739132e-002	8.802919e-001	-3.580861e+001	-7.109914e+001	-3.581377e+001	-7.099813e+001	-2.887661e-002	1.088125e+000
40.960	-4.733968e-002	8.697969e-001	-3.590307e+001	-7.097882e+001	-3.590781e+001	-7.084873e+001	-2.869696e-002	1.077812e+000
41.458	-4.707500e-002	8.600082e-001	-3.599483e+001	-7.083837e+001	-3.600081e+001	-7.072220e+001	-2.852715e-002	1.068186e+000
41.955	-4.711156e-002	8.490382e-001	-3.608541e+001	-7.071602e+001	-3.609103e+001	-7.059888e+001	-2.832053e-002	1.057779e+000
42.452	-4.699719e-002	8.408538e-001	-3.617491e+001	-7.057391e+001	-3.618073e+001	-7.046308e+001	-2.819575e-002	1.048803e+000
42.950	-4.679801e-002	8.309430e-001	-3.626411e+001	-7.044410e+001	-3.626815e+001	-7.032753e+001	-2.804714e-002	1.040183e+000
43.447	-4.663962e-002	8.218253e-001	-3.635189e+001	-7.031525e+001	-3.635624e+001	-7.019521e+001	-2.788914e-002	1.030273e+000
43.945	-4.643126e-002	8.131987e-001	-3.643776e+001	-7.017865e+001	-3.644226e+001	-7.006153e+001	-2.779575e-002	1.021582e+000
44.442	-4.628952e-002	8.047747e-001	-3.652299e+001	-7.004773e+001	-3.652761e+001	-6.993594e+001	-2.751882e-002	1.012951e+000
44.940	-4.623887e-002	7.968894e-001	-3.660692e+001	-6.990887e+001	-3.661027e+001	-6.979162e+001	-2.745823e-002	1.003964e+000
45.437	-4.604971e-002	7.880722e-001	-3.669036e+001	-6.977754e+001	-3.669475e+001	-6.966334e+001	-2.739961e-002	9.960154e-001
45.935	-4.597639e-002	7.799726e-001	-3.677189e+001	-6.964408e+001	-3.677560e+001	-6.952968e+001	-2.728317e-002	9.876980e-001
46.432	-4.588508e-002	7.714509e-001	-3.685284e+001	-6.951044e+001	-3.685709e+001	-6.939365e+001	-2.716195e-002	9.795436e-001
46.930	-4.573209e-002	7.643509e-001	-3.693160e+001	-6.937985e+001	-3.693684e+001	-6.926821e+001	-2.709088e-002	9.715402e-001
47.427	-4.561853e-002	7.575517e-001	-3.701065e+001	-6.925555e+001	-3.701763e+001	-6.914505e+001	-2.691779e-002	9.643109e-001
47.925	-4.549824e-002	7.493743e-001	-3.709069e+001	-6.911725e+001	-3.709548e+001	-6.898973e+001	-2.682935e-002	9.568119e-001
48.422	-4.542684e-002	7.419727e-001	-3.716597e+001	-6.897403e+001	-3.717004e+001	-6.886392e+001	-2.670209e-002	9.490993e-001
48.920	-4.522999e-002	7.349968e-001	-3.724313e+001	-6.886444e+001	-3.724896e+001	-6.874020e+001	-2.661797e-002	9.429486e-001
49.417	-4.506255e-002	7.280176e-001	-3.731826e+001	-6.870853e+001	-3.732190e+001	-6.859569e+001	-2.646989e-002	9.355973e-001
50.001	-4.479174e-002	7.187936e-001	-3.741554e+001	-6.860032e+001	-3.741720e+001	-6.846320e+001	-2.609752e-002	9.269785e-001
50.688	-4.472978e-002	7.099378e-001	-3.750651e+001	-6.835639e+001	-3.750942e+001	-6.824371e+001	-2.616192e-002	9.179762e-001
51.375	-4.460931e-002	7.010148e-001	-3.760563e+001	-6.817126e+001	-3.760726e+001	-6.806721e+001	-2.591090e-002	9.091852e-001
52.062	-4.451521e-002	6.925432e-001	-3.770044e+001	-6.800552e+001	-3.770570e+001	-6.791395e+001	-2.584010e-002	9.010750e-001
52.749	-4.431229e-002	6.836399e-001	-3.780020e+001	-6.785451e+001	-3.781029e+001	-6.772989e+001	-2.573694e-002	8.912928e-001
53.436	-4.425837e-002	6.746829e-001	-3.789927e+001	-6.761715e+001	-3.789964e+001	-6.748312e+001	-2.565737e-002	8.831887e-001
54.123	-4.404374e-002	6.675566e-001	-3.798227e+001	-6.745882e+001	-3.799071e+001	-6.737786e+001	-2.557575e-002	8.757258e-001
54.810	-4.409352e-002	6.596893e-001	-3.808578e+001	-6.727842e+001	-3.809003e+001	-6.711830e+001	-2.536459e-002	8.667934e-001
55.497	-4.389515e-002	6.529336e-001	-3.816380e+001	-6.708676e+001	-3.817277e+001	-6.701530e+001	-2.518678e-002	8.605375e-001
56.184	-4.387327e-002	6.430707e-001	-3.826482e+001	-6.687836e+001	-3.826081e+001	-6.672870e+001	-2.533994e-002	8.514966e-001
56.871	-4.371848e-002	6.369310e-001	-3.834846e+001	-6.677126e+001	-3.835974e+001	-6.662216e+001	-2.513502e-002	8.450322e-001
57.558	-4.379663e-002	6.301327e-001	-3.842482e+001	-6.655196e+001	-3.843496e+001	-6.648261e+001	-2.497347e-002	8.374790e-001
58.245	-4.372859e-002	6.232794e-001	-3.851440e+001	-6.632045e+001	-3.851357e+001	-6.623175e+001	-2.507609e-002	8.314176e-001
58.932	-4.350528e-002	6.142435e-001	-3.860618e+001	-6.612692e+001	-3.859943e+001	-6.600571e+001	-2.500465e-002	8.236047e-001
59.619	-4.341158e-002	6.083341e-001	-3.869122e+001	-6.595796e+001	-3.868566e+001	-6.580815e+001	-2.489127e-002	8.178505e-001
60.306	-4.333290e-002	6.022972e-001	-3.877217e+001	-6.576982e+001	-3.876894e+001	-6.562478e+001	-2.483089e-002	8.103771e-001
60.993	-4.324862e-002	5.953433e-001	-3.885016e+001	-6.559035e+001	-3.884488e+001	-6.545994e+001	-2.486247e-002	8.050968e-001
61.680	-4.317840e-002	5.892072e-001	-3.892090e+001	-6.540997e+001	-3.891969e+001	-6.534623e+001	-2.459987e-002	7.984212e-001
62.367	-4.304860e-002	5.834573e-001	-3.899619e+001	-6.527878e+001	-3.900473e+001	-6.521390e+001	-2.447503e-002	7.921086e-001
63.054	-4.294455e-002	5.767958e-001	-3.908138e+001	-6.515504e+001	-3.909514e+001	-6.499740e+001	-2.435378e-002	7.849058e-001
