!Agilent Technologies,E5061B,MY49204007,A.02.12
!Date: Wed Jul 23 12:01:39 2025
!Data & Calibration Information:
!Freq	S11:SOLT2(ON)	S21:SOLT2(ON)	S12:SOLT2(ON)	S22:SOLT2(ON)
# Hz S dB R 50
10.000	-1.006791e-001	3.207326e+000	-2.489717e+001	-7.706681e+001	-2.490337e+001	-7.695121e+001	-8.208011e-002	3.418014e+000
10.137	-9.949531e-002	3.164480e+000	-2.501527e+001	-7.707950e+001	-2.501997e+001	-7.695289e+001	-8.090388e-002	3.374130e+000
10.275	-9.840307e-002	3.124704e+000	-2.512316e+001	-7.707267e+001	-2.512687e+001	-7.694843e+001	-7.990463e-002	3.334760e+000
10.412	-9.740525e-002	3.086463e+000	-2.522888e+001	-7.706904e+001	-2.523153e+001	-7.694336e+001	-7.885954e-002	3.296485e+000
10.550	-9.643272e-002	3.049750e+000	-2.533156e+001	-7.706577e+001	-2.533429e+001	-7.693907e+001	-7.793966e-002	3.259589e+000
10.687	-9.559408e-002	3.013818e+000	-2.543246e+001	-7.706385e+001	-2.543506e+001	-7.693658e+001	-7.706684e-002	3.223788e+000
10.824	-9.468900e-002	2.979650e+000	-2.553149e+001	-7.706101e+001	-2.553469e+001	-7.693489e+001	-7.613266e-002	3.188723e+000
10.962	-9.381365e-002	2.945126e+000	-2.562998e+001	-7.705274e+001	-2.563316e+001	-7.692252e+001	-7.525146e-002	3.155060e+000
11.099	-9.311480e-002	2.913137e+000	-2.572544e+001	-7.704404e+001	-2.572887e+001	-7.692187e+001	-7.439643e-002	3.121895e+000
11.237	-9.218641e-002	2.880265e+000	-2.582176e+001	-7.703480e+001	-2.582431e+001	-7.690518e+001	-7.361115e-002	3.089906e+000
11.374	-9.134464e-002	2.849221e+000	-2.591583e+001	-7.702886e+001	-2.591910e+001	-7.690022e+001	-7.284021e-002	3.058278e+000
11.511	-9.067914e-002	2.818160e+000	-2.600864e+001	-7.702264e+001	-2.601170e+001	-7.689238e+001	-7.197121e-002	3.027289e+000
11.649	-8.988274e-002	2.788728e+000	-2.610051e+001	-7.701127e+001	-2.610364e+001	-7.688195e+001	-7.121537e-002	2.997638e+000
11.786	-8.909030e-002	2.759150e+000	-2.619104e+001	-7.700081e+001	-2.619407e+001	-7.687204e+001	-7.049307e-002	2.968617e+000
11.924	-8.845184e-002	2.730780e+000	-2.627997e+001	-7.698764e+001	-2.628302e+001	-7.686539e+001	-6.971043e-002	2.939922e+000
12.061	-8.758997e-002	2.702859e+000	-2.636901e+001	-7.698274e+001	-2.637243e+001	-7.685159e+001	-6.903707e-002	2.911728e+000
12.198	-8.700167e-002	2.674921e+000	-2.645601e+001	-7.696640e+001	-2.645905e+001	-7.684193e+001	-6.828575e-002	2.884238e+000
12.336	-8.639540e-002	2.647836e+000	-2.654314e+001	-7.695417e+001	-2.654571e+001	-7.682726e+001	-6.763547e-002	2.857253e+000
12.473	-8.576723e-002	2.621662e+000	-2.662880e+001	-7.694751e+001	-2.663176e+001	-7.681637e+001	-6.700836e-002	2.830920e+000
12.611	-8.510683e-002	2.595650e+000	-2.671358e+001	-7.693442e+001	-2.671665e+001	-7.680570e+001	-6.627479e-002	2.805171e+000
12.748	-8.446619e-002	2.570493e+000	-2.679735e+001	-7.692088e+001	-2.680003e+001	-7.679381e+001	-6.567558e-002	2.779606e+000
12.885	-8.391510e-002	2.546219e+000	-2.687975e+001	-7.690665e+001	-2.688276e+001	-7.678468e+001	-6.508121e-002	2.754635e+000
13.023	-8.322120e-002	2.521637e+000	-2.696167e+001	-7.689866e+001	-2.696515e+001	-7.677053e+001	-6.443592e-002	2.730632e+000
13.160	-8.276116e-002	2.498190e+000	-2.704342e+001	-7.688200e+001	-2.704615e+001	-7.675383e+001	-6.398603e-002	2.706857e+000
13.298	-8.212841e-002	2.474398e+000	-2.712363e+001	-7.687174e+001	-2.712703e+001	-7.674344e+001	-6.331588e-002	2.683282e+000
13.435	-8.152739e-002	2.451608e+000	-2.720253e+001	-7.685781e+001	-2.720637e+001	-7.673187e+001	-6.276046e-002	2.660833e+000
13.572	-8.100128e-002	2.429355e+000	-2.728145e+001	-7.684221e+001	-2.728499e+001	-7.671728e+001	-6.221893e-002	2.638222e+000
13.733	-8.118394e-002	2.403210e+000	-2.737025e+001	-7.670080e+001	-2.737728e+001	-7.677253e+001	-6.112423e-002	2.612495e+000
13.923	-7.971848e-002	2.374249e+000	-2.747891e+001	-7.680582e+001	-2.748306e+001	-7.668240e+001	-6.103109e-002	2.582531e+000
14.112	-7.888794e-002	2.345124e+000	-2.758441e+001	-7.678137e+001	-2.758841e+001	-7.665560e+001	-6.033056e-002	2.553415e+000
14.302	-7.835030e-002	2.316912e+000	-2.768738e+001	-7.676342e+001	-2.769156e+001	-7.663853e+001	-5.963687e-002	2.525463e+000
14.492	-7.762613e-002	2.289445e+000	-2.778984e+001	-7.673850e+001	-2.779374e+001	-7.661268e+001	-5.900208e-002	2.498201e+000
14.682	-7.696779e-002	2.262460e+000	-2.789068e+001	-7.671529e+001	-2.789487e+001	-7.658916e+001	-5.834904e-002	2.471087e+000
14.872	-7.625142e-002	2.236288e+000	-2.799019e+001	-7.669268e+001	-2.799442e+001	-7.656576e+001	-5.766573e-002	2.445174e+000
15.062	-7.565365e-002	2.210793e+000	-2.808901e+001	-7.667320e+001	-2.809283e+001	-7.654635e+001	-5.697174e-002	2.419131e+000
15.251	-7.500554e-002	2.185509e+000	-2.818666e+001	-7.664550e+001	-2.819059e+001	-7.651824e+001	-5.638086e-002	2.394470e+000
15.441	-7.438966e-002	2.160810e+000	-2.828236e+001	-7.662512e+001	-2.828674e+001	-7.649873e+001	-5.584108e-002	2.369309e+000
15.631	-7.379972e-002	2.137218e+000	-2.837709e+001	-7.659964e+001	-2.838139e+001	-7.647295e+001	-5.527515e-002	2.345901e+000
15.821	-7.331902e-002	2.113982e+000	-2.847120e+001	-7.657319e+001	-2.847537e+001	-7.644769e+001	-5.472026e-002	2.322312e+000
16.011	-7.265347e-002	2.091461e+000	-2.856384e+001	-7.654860e+001	-2.856843e+001	-7.642304e+001	-5.417258e-002	2.299407e+000
16.201	-7.220979e-002	2.068776e+000	-2.865585e+001	-7.651622e+001	-2.866010e+001	-7.639185e+001	-5.364416e-002	2.277149e+000
16.391	-7.164343e-002	2.046909e+000	-2.874660e+001	-7.649545e+001	-2.875074e+001	-7.636984e+001	-5.309267e-002	2.255686e+000
16.580	-7.121714e-002	2.025903e+000	-2.883583e+001	-7.646494e+001	-2.884020e+001	-7.633688e+001	-5.256166e-002	2.234434e+000
16.770	-7.064678e-002	2.004894e+000	-2.892482e+001	-7.643661e+001	-2.892896e+001	-7.631091e+001	-5.209730e-002	2.213700e+000
16.960	-7.016815e-002	1.984155e+000	-2.901259e+001	-7.640921e+001	-2.901663e+001	-7.628379e+001	-5.166039e-002	2.192846e+000
17.150	-6.959178e-002	1.964494e+000	-2.909736e+001	-7.640868e+001	-2.910195e+001	-7.629228e+001	-5.088457e-002	2.173419e+000
17.340	-6.921387e-002	1.944622e+000	-2.918351e+001	-7.635348e+001	-2.918807e+001	-7.622697e+001	-5.070579e-002	2.153073e+000
17.530	-6.880837e-002	1.925537e+000	-2.926877e+001	-7.632048e+001	-2.927316e+001	-7.619484e+001	-5.015900e-002	2.133961e+000
17.720	-6.825081e-002	1.906220e+000	-2.935309e+001	-7.629221e+001	-2.935763e+001	-7.616717e+001	-4.970084e-002	2.114865e+000
17.909	-6.781982e-002	1.887678e+000	-2.943691e+001	-7.626134e+001	-2.944101e+001	-7.613670e+001	-4.927304e-002	2.096484e+000
18.099	-6.733286e-002	1.869261e+000	-2.951862e+001	-7.623132e+001	-2.952331e+001	-7.610577e+001	-4.884670e-002	2.077952e+000
18.289	-6.689212e-002	1.851603e+000	-2.960060e+001	-7.619946e+001	-2.960523e+001	-7.607616e+001	-4.838784e-002	2.059551e+000
18.479	-6.654931e-002	1.833974e+000	-2.968124e+001	-7.616854e+001	-2.968569e+001	-7.604629e+001	-4.796067e-002	2.042490e+000
18.669	-6.620921e-002	1.816739e+000	-2.976143e+001	-7.613812e+001	-2.976574e+001	-7.601062e+001	-4.756134e-002	2.025146e+000
18.859	-6.573715e-002	1.800082e+000	-2.984065e+001	-7.610349e+001	-2.984499e+001	-7.598151e+001	-4.714163e-002	2.007959e+000
19.082	-6.704592e-002	1.780170e+000	-2.992515e+001	-7.572859e+001	-2.993258e+001	-7.562317e+001	-4.837610e-002	1.988102e+000
19.344	-6.476879e-002	1.758332e+000	-3.004186e+001	-7.603072e+001	-3.004605e+001	-7.590929e+001	-4.609055e-002	1.966699e+000
19.606	-6.438017e-002	1.736689e+000	-3.014571e+001	-7.597449e+001	-3.015041e+001	-7.584916e+001	-4.573035e-002	1.944390e+000
19.868	-6.398660e-002	1.715742e+000	-3.024967e+001	-7.593160e+001	-3.025424e+001	-7.580875e+001	-4.529334e-002	1.923842e+000
20.130	-6.354074e-002	1.694954e+000	-3.035183e+001	-7.588100e+001	-3.035705e+001	-7.575713e+001	-4.480120e-002	1.902915e+000
20.392	-6.304838e-002	1.674834e+000	-3.045330e+001	-7.583142e+001	-3.045856e+001	-7.570859e+001	-4.438946e-002	1.883059e+000
20.655	-6.260278e-002	1.654889e+000	-3.055357e+001	-7.578643e+001	-3.055880e+001	-7.565961e+001	-4.397397e-002	1.863404e+000
20.917	-6.220232e-002	1.636465e+000	-3.065269e+001	-7.573545e+001	-3.065770e+001	-7.561202e+001	-4.362651e-002	1.844226e+000
21.179	-6.174198e-002	1.617041e+000	-3.075051e+001	-7.568668e+001	-3.075588e+001	-7.556164e+001	-4.319818e-002	1.825416e+000
21.441	-6.140856e-002	1.598707e+000	-3.084684e+001	-7.563821e+001	-3.085171e+001	-7.551175e+001	-4.275598e-002	1.807126e+000
21.703	-6.102927e-002	1.580154e+000	-3.094252e+001	-7.558239e+001	-3.094765e+001	-7.545967e+001	-4.244559e-002	1.789408e+000
21.965	-6.060876e-002	1.562711e+000	-3.103668e+001	-7.553383e+001	-3.104183e+001	-7.540849e+001	-4.202297e-002	1.771573e+000
22.228	-6.024225e-002	1.545516e+000	-3.112932e+001	-7.548089e+001	-3.113460e+001	-7.535501e+001	-4.163943e-002	1.755089e+000
22.490	-5.992560e-002	1.529330e+000	-3.122143e+001	-7.542792e+001	-3.122610e+001	-7.530291e+001	-4.128657e-002	1.737868e+000
22.752	-5.957242e-002	1.513249e+000	-3.131263e+001	-7.537767e+001	-3.131787e+001	-7.525099e+001	-4.083847e-002	1.721330e+000
23.014	-5.920745e-002	1.497187e+000	-3.140229e+001	-7.532281e+001	-3.140730e+001	-7.519679e+001	-4.053953e-002	1.704854e+000
23.276	-5.886250e-002	1.481158e+000	-3.149153e+001	-7.526831e+001	-3.149692e+001	-7.514520e+001	-4.022297e-002	1.689782e+000
23.538	-5.849618e-002	1.465656e+000	-3.157927e+001	-7.521525e+001	-3.158456e+001	-7.509141e+001	-3.983546e-002	1.674020e+000
23.801	-5.826613e-002	1.450378e+000	-3.166610e+001	-7.516085e+001	-3.167126e+001	-7.503641e+001	-3.949029e-002	1.659236e+000
24.063	-5.794644e-002	1.435734e+000	-3.175215e+001	-7.510339e+001	-3.175712e+001	-7.498066e+001	-3.922471e-002	1.644676e+000
24.325	-5.751302e-002	1.421362e+000	-3.183706e+001	-7.505192e+001	-3.184166e+001	-7.492615e+001	-3.887043e-002	1.630266e+000
24.587	-5.726372e-002	1.407375e+000	-3.192095e+001	-7.499231e+001	-3.192609e+001	-7.486840e+001	-3.853932e-002	1.616016e+000
24.849	-5.691652e-002	1.393936e+000	-3.200475e+001	-7.493648e+001	-3.200989e+001	-7.481218e+001	-3.829337e-002	1.602106e+000
25.111	-5.661749e-002	1.380295e+000	-3.208676e+001	-7.487849e+001	-3.209261e+001	-7.475597e+001	-3.807626e-002	1.588437e+000
25.374	-5.646666e-002	1.366548e+000	-3.216813e+001	-7.482081e+001	-3.217333e+001	-7.469727e+001	-3.780013e-002	1.575467e+000
25.636	-5.612766e-002	1.353505e+000	-3.224853e+001	-7.476394e+001	-3.225412e+001	-7.464052e+001	-3.754096e-002	1.561886e+000
25.898	-5.587236e-002	1.340860e+000	-3.232808e+001	-7.470556e+001	-3.233364e+001	-7.458346e+001	-3.731530e-002	1.549153e+000
26.204	-5.465567e-002	1.326183e+000	-3.243491e+001	-7.489557e+001	-3.243846e+001	-7.475194e+001	-3.600308e-002	1.534788e+000
26.564	-5.535375e-002	1.309969e+000	-3.252927e+001	-7.455288e+001	-3.253473e+001	-7.443594e+001	-3.667003e-002	1.517909e+000
26.924	-5.496272e-002	1.293203e+000	-3.263328e+001	-7.447434e+001	-3.263815e+001	-7.434880e+001	-3.629698e-002	1.500877e+000
27.284	-5.453910e-002	1.277007e+000	-3.273780e+001	-7.439152e+001	-3.274312e+001	-7.426767e+001	-3.600280e-002	1.485009e+000
27.644	-5.430999e-002	1.261825e+000	-3.284127e+001	-7.431068e+001	-3.284635e+001	-7.418772e+001	-3.568821e-002	1.469922e+000
28.004	-5.391624e-002	1.246706e+000	-3.294199e+001	-7.422273e+001	-3.294786e+001	-7.409978e+001	-3.532017e-002	1.454733e+000
28.364	-5.361561e-002	1.231478e+000	-3.304277e+001	-7.413887e+001	-3.304835e+001	-7.401925e+001	-3.505142e-002	1.439142e+000
28.724	-5.334370e-002	1.216548e+000	-3.314170e+001	-7.405675e+001	-3.314687e+001	-7.393735e+001	-3.479101e-002	1.424934e+000
29.084	-5.311153e-002	1.203062e+000	-3.323890e+001	-7.397078e+001	-3.324448e+001	-7.384742e+001	-3.453281e-002	1.410885e+000
29.444	-5.284623e-002	1.189383e+000	-3.333509e+001	-7.388708e+001	-3.334081e+001	-7.375840e+001	-3.413943e-002	1.397711e+000
29.804	-5.263956e-002	1.176560e+000	-3.343038e+001	-7.379965e+001	-3.343506e+001	-7.367495e+001	-3.394744e-002	1.384663e+000
30.164	-5.220867e-002	1.162779e+000	-3.352375e+001	-7.371251e+001	-3.353012e+001	-7.358944e+001	-3.378120e-002	1.371182e+000
30.524	-5.222091e-002	1.150230e+000	-3.361650e+001	-7.362701e+001	-3.362168e+001	-7.349838e+001	-3.345551e-002	1.358318e+000
30.884	-5.199968e-002	1.136873e+000	-3.370844e+001	-7.353455e+001	-3.371403e+001	-7.341168e+001	-3.322724e-002	1.345331e+000
31.244	-5.166948e-002	1.124231e+000	-3.379879e+001	-7.345437e+001	-3.380346e+001	-7.332532e+001	-3.300291e-002	1.332931e+000
31.605	-5.144620e-002	1.111943e+000	-3.388774e+001	-7.335753e+001	-3.389427e+001	-7.323572e+001	-3.278601e-002	1.320450e+000
31.965	-5.129685e-002	1.100475e+000	-3.397674e+001	-7.326706e+001	-3.398123e+001	-7.314852e+001	-3.257548e-002	1.308982e+000
32.325	-5.100720e-002	1.088658e+000	-3.406306e+001	-7.318483e+001	-3.406816e+001	-7.306118e+001	-3.237598e-002	1.296792e+000
32.685	-5.078556e-002	1.077729e+000	-3.414976e+001	-7.309427e+001	-3.415546e+001	-7.296992e+001	-3.217035e-002	1.285960e+000
33.045	-5.063211e-002	1.066222e+000	-3.423421e+001	-7.300280e+001	-3.423953e+001	-7.287571e+001	-3.199796e-002	1.274345e+000
33.405	-5.035096e-002	1.055025e+000	-3.431959e+001	-7.291213e+001	-3.432454e+001	-7.278486e+001	-3.177704e-002	1.263810e+000
33.765	-5.015987e-002	1.044639e+000	-3.440166e+001	-7.282332e+001	-3.440728e+001	-7.269646e+001	-3.149494e-002	1.253220e+000
34.125	-4.995324e-002	1.034127e+000	-3.448546e+001	-7.273033e+001	-3.449025e+001	-7.260545e+001	-3.137205e-002	1.243273e+000
34.485	-4.981403e-002	1.024416e+000	-3.456659e+001	-7.264421e+001	-3.457117e+001	-7.252112e+001	-3.119022e-002	1.232798e+000
34.845	-4.958645e-002	1.014451e+000	-3.464579e+001	-7.253946e+001	-3.465161e+001	-7.242738e+001	-3.097974e-002	1.222249e+000
35.205	-4.934048e-002	1.004748e+000	-3.472522e+001	-7.245155e+001	-3.473156e+001	-7.232931e+001	-3.082298e-002	1.212559e+000
35.565	-4.918125e-002	9.952907e-001	-3.480558e+001	-7.235893e+001	-3.480989e+001	-7.223544e+001	-3.070790e-002	1.202871e+000
35.985	-4.835416e-002	9.842373e-001	-3.490393e+001	-7.244619e+001	-3.490845e+001	-7.230519e+001	-2.987711e-002	1.192495e+000
36.483	-4.875761e-002	9.715527e-001	-3.500330e+001	-7.213120e+001	-3.500986e+001	-7.201121e+001	-3.024964e-002	1.179861e+000
36.980	-4.860626e-002	9.592222e-001	-3.510715e+001	-7.199012e+001	-3.511160e+001	-7.187314e+001	-3.012137e-002	1.167444e+000
37.478	-4.830318e-002	9.478254e-001	-3.520878e+001	-7.186948e+001	-3.521385e+001	-7.173756e+001	-2.991888e-002	1.155269e+000
37.975	-4.816515e-002	9.358389e-001	-3.531044e+001	-7.174858e+001	-3.531632e+001	-7.162447e+001	-2.973759e-002	1.143891e+000
38.473	-4.800889e-002	9.234844e-001	-3.541112e+001	-7.161552e+001	-3.541680e+001	-7.148734e+001	-2.965022e-002	1.132255e+000
38.970	-4.782677e-002	9.131076e-001	-3.550881e+001	-7.147616e+001	-3.551518e+001	-7.135053e+001	-2.942011e-002	1.120962e+000
39.468	-4.765720e-002	9.019656e-001	-3.560673e+001	-7.135387e+001	-3.561328e+001	-7.123350e+001	-2.914456e-002	1.109482e+000
39.965	-4.741649e-002	8.907136e-001	-3.570315e+001	-7.121510e+001	-3.570798e+001	-7.109630e+001	-2.897031e-002	1.099184e+000
40.463	-4.728324e-002	8.807312e-001	-3.579741e+001	-7.108590e+001	-3.580248e+001	-7.096847e+001	-2.885895e-002	1.089170e+000
40.960	-4.734591e-002	8.706108e-001	-3.589026e+001	-7.095969e+001	-3.589635e+001	-7.083541e+001	-2.872419e-002	1.078964e+000
41.458	-4.714458e-002	8.606043e-001	-3.598371e+001	-7.081879e+001	-3.598870e+001	-7.069690e+001	-2.848251e-002	1.069205e+000
41.955	-4.687282e-002	8.498061e-001	-3.607397e+001	-7.069291e+001	-3.607916e+001	-7.057727e+001	-2.829526e-002	1.058825e+000
42.452	-4.691320e-002	8.418341e-001	-3.616316e+001	-7.055694e+001	-3.616814e+001	-7.043824e+001	-2.813346e-002	1.049869e+000
42.950	-4.670672e-002	8.321524e-001	-3.625148e+001	-7.042827e+001	-3.625673e+001	-7.030167e+001	-2.797134e-002	1.040636e+000
43.447	-4.660789e-002	8.231825e-001	-3.633859e+001	-7.029826e+001	-3.634322e+001	-7.017247e+001	-2.782242e-002	1.031900e+000
43.945	-4.648237e-002	8.141979e-001	-3.642488e+001	-7.016354e+001	-3.642955e+001	-7.003746e+001	-2.770105e-002	1.022182e+000
44.442	-4.626674e-002	8.053624e-001	-3.650979e+001	-7.002741e+001	-3.651516e+001	-6.990939e+001	-2.755125e-002	1.014036e+000
44.940	-4.623409e-002	7.977028e-001	-3.659386e+001	-6.990017e+001	-3.659824e+001	-6.977227e+001	-2.747861e-002	1.005654e+000
45.437	-4.606837e-002	7.885960e-001	-3.667722e+001	-6.977095e+001	-3.668230e+001	-6.964263e+001	-2.730036e-002	9.973012e-001
45.935	-4.593674e-002	7.811959e-001	-3.675839e+001	-6.963963e+001	-3.676317e+001	-6.950771e+001	-2.720531e-002	9.887852e-001
46.432	-4.581316e-002	7.728415e-001	-3.683966e+001	-6.950475e+001	-3.684402e+001	-6.936993e+001	-2.706315e-002	9.804685e-001
46.930	-4.578692e-002	7.646476e-001	-3.691878e+001	-6.936663e+001	-3.692269e+001	-6.924029e+001	-2.705388e-002	9.729513e-001
47.427	-4.562313e-002	7.579967e-001	-3.699793e+001	-6.922784e+001	-3.700179e+001	-6.910798e+001	-2.692904e-002	9.658560e-001
47.925	-4.555566e-002	7.500641e-001	-3.707466e+001	-6.910458e+001	-3.708080e+001	-6.898877e+001	-2.680936e-002	9.586445e-001
48.422	-4.544419e-002	7.421868e-001	-3.715319e+001	-6.897429e+001	-3.715732e+001	-6.884574e+001	-2.669567e-002	9.510176e-001
48.920	-4.526791e-002	7.356351e-001	-3.722704e+001	-6.883247e+001	-3.723222e+001	-6.871766e+001	-2.651488e-002	9.439295e-001
49.417	-4.497802e-002	7.287608e-001	-3.730329e+001	-6.870586e+001	-3.730875e+001	-6.858078e+001	-2.640766e-002	9.367603e-001
50.001	-4.472215e-002	7.200347e-001	-3.739571e+001	-6.860026e+001	-3.740447e+001	-6.846836e+001	-2.612049e-002	9.281075e-001
50.688	-4.470407e-002	7.113529e-001	-3.748933e+001	-6.838485e+001	-3.749489e+001	-6.824515e+001	-2.605248e-002	9.195784e-001
51.375	-4.453626e-002	7.016893e-001	-3.759135e+001	-6.818423e+001	-3.759700e+001	-6.804228e+001	-2.603981e-002	9.108552e-001
52.062	-4.449715e-002	6.929192e-001	-3.768954e+001	-6.798662e+001	-3.769074e+001	-6.786821e+001	-2.584037e-002	9.016113e-001
52.749	-4.436792e-002	6.845767e-001	-3.778159e+001	-6.780416e+001	-3.778689e+001	-6.770381e+001	-2.559768e-002	8.937404e-001
53.436	-4.407423e-002	6.765248e-001	-3.787776e+001	-6.765990e+001	-3.788676e+001	-6.752459e+001	-2.552832e-002	8.839875e-001
54.123	-4.409569e-002	6.691092e-001	-3.797312e+001	-6.743474e+001	-3.797395e+001	-6.730464e+001	-2.547343e-002	8.764304e-001
54.810	-4.411302e-002	6.609593e-001	-3.805742e+001	-6.727201e+001	-3.806828e+001	-6.717090e+001	-2.527508e-002	8.685765e-001
55.497	-4.390256e-002	6.531783e-001	-3.815576e+001	-6.706126e+001	-3.815584e+001	-6.693379e+001	-2.530346e-002	8.608015e-001
56.184	-4.394092e-002	6.445614e-001	-3.823912e+001	-6.693313e+001	-3.825060e+001	-6.678462e+001	-2.496888e-002	8.532993e-001
56.871	-4.386653e-002	6.387994e-001	-3.832519e+001	-6.669143e+001	-3.833027e+001	-6.662277e+001	-2.501065e-002	8.473965e-001
57.558	-4.366552e-002	6.304476e-001	-3.841796e+001	-6.652062e+001	-3.841640e+001	-6.638689e+001	-2.505279e-002	8.394609e-001
58.245	-4.362148e-002	6.230223e-001	-3.850383e+001	-6.638396e+001	-3.850854e+001	-6.621174e+001	-2.484219e-002	8.321021e-001
58.932	-4.341393e-002	6.160164e-001	-3.858395e+001	-6.622004e+001	-3.859448e+001	-6.605919e+001	-2.469328e-002	8.250317e-001
59.619	-4.327268e-002	6.100697e-001	-3.866421e+001	-6.602747e+001	-3.867555e+001	-6.589226e+001	-2.443778e-002	8.186377e-001
60.306	-4.330399e-002	6.033760e-001	-3.874279e+001	-6.586234e+001	-3.875673e+001	-6.571073e+001	-2.456627e-002	8.122409e-001
60.993	-4.319913e-002	5.966649e-001	-3.882648e+001	-6.567725e+001	-3.883663e+001	-6.552361e+001	-2.452342e-002	8.052451e-001
61.680	-4.300931e-002	5.902457e-001	-3.891012e+001	-6.547233e+001	-3.891566e+001	-6.530453e+001	-2.443581e-002	7.994611e-001
62.367	-4.299242e-002	5.843165e-001	-3.898826e+001	-6.526793e+001	-3.898389e+001	-6.512857e+001	-2.442338e-002	7.934194e-001
63.054	-4.307672e-002	5.784700e-001	-3.905690e+001	-6.507040e+001	-3.905896e+001	-6.499783e+001	-2.426848e-002	7.874313e-001
