!Agilent Technologies,E5061B,MY49204007,A.02.12
!Date: Wed Jul 23 12:04:10 2025
!Data & Calibration Information:
!Freq	S11:SOLT2(ON)	S21:SOLT2(ON)	S12:SOLT2(ON)	S22:SOLT2(ON)
# Hz S dB R 50
10.000	-1.006832e-001	3.208416e+000	-2.489427e+001	-7.706215e+001	-2.490031e+001	-7.694864e+001	-8.177177e-002	3.420055e+000
10.137	-9.951127e-002	3.165951e+000	-2.501207e+001	-7.707455e+001	-2.501708e+001	-7.695001e+001	-8.060565e-002	3.376440e+000
10.275	-9.836484e-002	3.125780e+000	-2.512011e+001	-7.706704e+001	-2.512365e+001	-7.694583e+001	-7.967268e-002	3.336654e+000
10.412	-9.725718e-002	3.087502e+000	-2.522540e+001	-7.706511e+001	-2.522869e+001	-7.693983e+001	-7.873653e-002	3.297747e+000
10.550	-9.630678e-002	3.050666e+000	-2.532814e+001	-7.706201e+001	-2.533140e+001	-7.693660e+001	-7.780824e-002	3.261663e+000
10.687	-9.543312e-002	3.014702e+000	-2.542880e+001	-7.705802e+001	-2.543197e+001	-7.693213e+001	-7.682915e-002	3.226022e+000
10.824	-9.464976e-002	2.980808e+000	-2.552783e+001	-7.705553e+001	-2.553144e+001	-7.693060e+001	-7.593764e-002	3.190656e+000
10.962	-9.370943e-002	2.946112e+000	-2.562676e+001	-7.704772e+001	-2.562997e+001	-7.691967e+001	-7.507380e-002	3.157147e+000
11.099	-9.302614e-002	2.913379e+000	-2.572206e+001	-7.704035e+001	-2.572554e+001	-7.691771e+001	-7.416193e-002	3.124332e+000
11.237	-9.206247e-002	2.881174e+000	-2.581806e+001	-7.703115e+001	-2.582096e+001	-7.690264e+001	-7.341503e-002	3.092476e+000
11.374	-9.114651e-002	2.849692e+000	-2.591225e+001	-7.702604e+001	-2.591574e+001	-7.689719e+001	-7.257749e-002	3.061214e+000
11.511	-9.044740e-002	2.819168e+000	-2.600490e+001	-7.701884e+001	-2.600846e+001	-7.688968e+001	-7.177209e-002	3.029825e+000
11.649	-8.974915e-002	2.789465e+000	-2.609692e+001	-7.700905e+001	-2.610043e+001	-7.687826e+001	-7.110424e-002	3.000306e+000
11.786	-8.900019e-002	2.759700e+000	-2.618738e+001	-7.699830e+001	-2.619068e+001	-7.686784e+001	-7.029184e-002	2.971323e+000
11.924	-8.834825e-002	2.731551e+000	-2.627628e+001	-7.698643e+001	-2.627958e+001	-7.686197e+001	-6.967175e-002	2.942518e+000
12.061	-8.750464e-002	2.703470e+000	-2.636543e+001	-7.698030e+001	-2.636890e+001	-7.685039e+001	-6.889727e-002	2.913934e+000
12.198	-8.692217e-002	2.675586e+000	-2.645219e+001	-7.696651e+001	-2.645535e+001	-7.684126e+001	-6.810724e-002	2.886580e+000
12.336	-8.624247e-002	2.648462e+000	-2.653949e+001	-7.695415e+001	-2.654250e+001	-7.682638e+001	-6.741321e-002	2.859786e+000
12.473	-8.553326e-002	2.621946e+000	-2.662512e+001	-7.694516e+001	-2.662849e+001	-7.681572e+001	-6.678623e-002	2.833003e+000
12.611	-8.492717e-002	2.596619e+000	-2.670975e+001	-7.693406e+001	-2.671294e+001	-7.680475e+001	-6.611677e-002	2.807571e+000
12.748	-8.443158e-002	2.571523e+000	-2.679357e+001	-7.692053e+001	-2.679660e+001	-7.679146e+001	-6.544345e-002	2.782091e+000
12.885	-8.378693e-002	2.546578e+000	-2.687603e+001	-7.690566e+001	-2.687890e+001	-7.678073e+001	-6.477926e-002	2.757770e+000
13.023	-8.317442e-002	2.522836e+000	-2.695771e+001	-7.689841e+001	-2.696153e+001	-7.677109e+001	-6.410882e-002	2.733417e+000
13.160	-8.265996e-002	2.498753e+000	-2.703947e+001	-7.688128e+001	-2.704271e+001	-7.675433e+001	-6.369375e-002	2.709269e+000
13.298	-8.203432e-002	2.475159e+000	-2.711955e+001	-7.687202e+001	-2.712352e+001	-7.674229e+001	-6.316018e-002	2.686394e+000
13.435	-8.145218e-002	2.452224e+000	-2.719853e+001	-7.685877e+001	-2.720256e+001	-7.673133e+001	-6.258091e-002	2.663639e+000
13.572	-8.104222e-002	2.430037e+000	-2.727744e+001	-7.684127e+001	-2.728126e+001	-7.671638e+001	-6.208212e-002	2.641117e+000
13.733	-8.117031e-002	2.403820e+000	-2.736578e+001	-7.670152e+001	-2.737345e+001	-7.677350e+001	-6.103054e-002	2.615663e+000
13.923	-7.961125e-002	2.374476e+000	-2.747482e+001	-7.680535e+001	-2.747941e+001	-7.668195e+001	-6.083289e-002	2.585763e+000
14.112	-7.878345e-002	2.345860e+000	-2.758025e+001	-7.678308e+001	-2.758427e+001	-7.665722e+001	-6.013763e-002	2.555971e+000
14.302	-7.813161e-002	2.317897e+000	-2.768332e+001	-7.676526e+001	-2.768771e+001	-7.663875e+001	-5.947896e-002	2.528452e+000
14.492	-7.751109e-002	2.290125e+000	-2.778520e+001	-7.674086e+001	-2.778970e+001	-7.661144e+001	-5.886329e-002	2.500924e+000
14.682	-7.687461e-002	2.263179e+000	-2.788623e+001	-7.671730e+001	-2.789078e+001	-7.659059e+001	-5.821385e-002	2.473564e+000
14.872	-7.614388e-002	2.236902e+000	-2.798593e+001	-7.669327e+001	-2.799023e+001	-7.656780e+001	-5.756566e-002	2.447505e+000
15.062	-7.546438e-002	2.211282e+000	-2.808436e+001	-7.667543e+001	-2.808900e+001	-7.654786e+001	-5.695807e-002	2.422183e+000
15.251	-7.479088e-002	2.186221e+000	-2.818197e+001	-7.664784e+001	-2.818646e+001	-7.652260e+001	-5.632424e-002	2.397183e+000
15.441	-7.427172e-002	2.161494e+000	-2.827810e+001	-7.662704e+001	-2.828265e+001	-7.650028e+001	-5.566756e-002	2.372455e+000
15.631	-7.376166e-002	2.137998e+000	-2.837296e+001	-7.660259e+001	-2.837733e+001	-7.647628e+001	-5.508193e-002	2.348793e+000
15.821	-7.317505e-002	2.114431e+000	-2.846680e+001	-7.657592e+001	-2.847105e+001	-7.645145e+001	-5.457704e-002	2.325017e+000
16.011	-7.259636e-002	2.091983e+000	-2.855970e+001	-7.655043e+001	-2.856423e+001	-7.642441e+001	-5.409396e-002	2.302704e+000
16.201	-7.206156e-002	2.069663e+000	-2.865108e+001	-7.652160e+001	-2.865591e+001	-7.639545e+001	-5.348034e-002	2.279903e+000
16.391	-7.161036e-002	2.048067e+000	-2.874172e+001	-7.649768e+001	-2.874637e+001	-7.637153e+001	-5.291648e-002	2.258723e+000
16.580	-7.111529e-002	2.026720e+000	-2.883145e+001	-7.646864e+001	-2.883585e+001	-7.634299e+001	-5.247007e-002	2.237025e+000
16.770	-7.055428e-002	2.005899e+000	-2.892003e+001	-7.644126e+001	-2.892479e+001	-7.631472e+001	-5.196564e-002	2.216438e+000
16.960	-7.006156e-002	1.984954e+000	-2.900771e+001	-7.641419e+001	-2.901259e+001	-7.628530e+001	-5.147528e-002	2.196008e+000
17.150	-6.950324e-002	1.965842e+000	-2.909240e+001	-7.641435e+001	-2.909760e+001	-7.629564e+001	-5.080618e-002	2.176465e+000
17.340	-6.910671e-002	1.945454e+000	-2.917880e+001	-7.635707e+001	-2.918329e+001	-7.623065e+001	-5.050081e-002	2.156091e+000
17.530	-6.857708e-002	1.926022e+000	-2.926374e+001	-7.632767e+001	-2.926876e+001	-7.620163e+001	-4.999785e-002	2.137369e+000
17.720	-6.809259e-002	1.906763e+000	-2.934826e+001	-7.629720e+001	-2.935292e+001	-7.617157e+001	-4.962891e-002	2.118001e+000
17.909	-6.768282e-002	1.888182e+000	-2.943166e+001	-7.626827e+001	-2.943644e+001	-7.614228e+001	-4.909763e-002	2.099398e+000
18.099	-6.723788e-002	1.870158e+000	-2.951420e+001	-7.623749e+001	-2.951889e+001	-7.611085e+001	-4.859681e-002	2.081208e+000
18.289	-6.681550e-002	1.852386e+000	-2.959593e+001	-7.620472e+001	-2.960072e+001	-7.608274e+001	-4.818446e-002	2.062896e+000
18.479	-6.644016e-002	1.834838e+000	-2.967605e+001	-7.617625e+001	-2.968090e+001	-7.604932e+001	-4.783251e-002	2.046017e+000
18.669	-6.608660e-002	1.817776e+000	-2.975626e+001	-7.614166e+001	-2.976103e+001	-7.601776e+001	-4.747647e-002	2.028641e+000
18.859	-6.565131e-002	1.801145e+000	-2.983538e+001	-7.611165e+001	-2.984013e+001	-7.598692e+001	-4.712547e-002	2.011164e+000
19.082	-6.697436e-002	1.780907e+000	-2.992019e+001	-7.573491e+001	-2.992766e+001	-7.563017e+001	-4.821996e-002	1.991466e+000
19.344	-6.470654e-002	1.759191e+000	-3.003680e+001	-7.604172e+001	-3.004112e+001	-7.591420e+001	-4.600463e-002	1.969555e+000
19.606	-6.422083e-002	1.737925e+000	-3.014019e+001	-7.597920e+001	-3.014588e+001	-7.585527e+001	-4.565884e-002	1.947558e+000
19.868	-6.388701e-002	1.716684e+000	-3.024415e+001	-7.594269e+001	-3.024891e+001	-7.581700e+001	-4.517524e-002	1.926520e+000
20.130	-6.345073e-002	1.696019e+000	-3.034631e+001	-7.588939e+001	-3.035138e+001	-7.576453e+001	-4.475823e-002	1.906614e+000
20.392	-6.294159e-002	1.675536e+000	-3.044777e+001	-7.584257e+001	-3.045312e+001	-7.571516e+001	-4.427002e-002	1.886616e+000
20.655	-6.256778e-002	1.656045e+000	-3.054796e+001	-7.579498e+001	-3.055319e+001	-7.566857e+001	-4.388704e-002	1.866516e+000
20.917	-6.218936e-002	1.636744e+000	-3.064686e+001	-7.574640e+001	-3.065220e+001	-7.562399e+001	-4.343380e-002	1.847298e+000
21.179	-6.169345e-002	1.617549e+000	-3.074515e+001	-7.569780e+001	-3.074996e+001	-7.557319e+001	-4.296071e-002	1.828154e+000
21.441	-6.138474e-002	1.599901e+000	-3.084065e+001	-7.564700e+001	-3.084617e+001	-7.552045e+001	-4.260175e-002	1.810182e+000
21.703	-6.087931e-002	1.581342e+000	-3.093610e+001	-7.559365e+001	-3.094172e+001	-7.547055e+001	-4.221666e-002	1.792245e+000
21.965	-6.050693e-002	1.563914e+000	-3.103070e+001	-7.554507e+001	-3.103569e+001	-7.541808e+001	-4.177948e-002	1.774803e+000
22.228	-6.017904e-002	1.546607e+000	-3.112339e+001	-7.549224e+001	-3.112868e+001	-7.536938e+001	-4.139326e-002	1.757400e+000
22.490	-5.992544e-002	1.529968e+000	-3.121469e+001	-7.544126e+001	-3.122037e+001	-7.531711e+001	-4.106488e-002	1.740915e+000
22.752	-5.955542e-002	1.514105e+000	-3.130621e+001	-7.539114e+001	-3.131156e+001	-7.526803e+001	-4.071504e-002	1.724346e+000
23.014	-5.930672e-002	1.498284e+000	-3.139603e+001	-7.533392e+001	-3.140121e+001	-7.521005e+001	-4.026814e-002	1.707882e+000
23.276	-5.884964e-002	1.482163e+000	-3.148529e+001	-7.528082e+001	-3.149039e+001	-7.515617e+001	-3.991766e-002	1.692645e+000
23.538	-5.858280e-002	1.467174e+000	-3.157278e+001	-7.522572e+001	-3.157821e+001	-7.510398e+001	-3.960033e-002	1.677315e+000
23.801	-5.808760e-002	1.451935e+000	-3.165983e+001	-7.517168e+001	-3.166470e+001	-7.504948e+001	-3.927806e-002	1.661499e+000
24.063	-5.783636e-002	1.437152e+000	-3.174564e+001	-7.511645e+001	-3.175078e+001	-7.499102e+001	-3.895103e-002	1.646934e+000
24.325	-5.742274e-002	1.422599e+000	-3.182999e+001	-7.506632e+001	-3.183566e+001	-7.494155e+001	-3.873131e-002	1.632611e+000
24.587	-5.730422e-002	1.408381e+000	-3.191436e+001	-7.500638e+001	-3.192009e+001	-7.488355e+001	-3.836237e-002	1.618394e+000
24.849	-5.693330e-002	1.394241e+000	-3.199748e+001	-7.495311e+001	-3.200300e+001	-7.482747e+001	-3.807986e-002	1.604958e+000
25.111	-5.658095e-002	1.380886e+000	-3.207961e+001	-7.489651e+001	-3.208501e+001	-7.477181e+001	-3.784025e-002	1.591024e+000
25.374	-5.634969e-002	1.367642e+000	-3.216120e+001	-7.484112e+001	-3.216657e+001	-7.471563e+001	-3.751224e-002	1.578068e+000
25.636	-5.602501e-002	1.354462e+000	-3.224187e+001	-7.477986e+001	-3.224716e+001	-7.465620e+001	-3.737166e-002	1.565048e+000
25.898	-5.573292e-002	1.341739e+000	-3.232110e+001	-7.472593e+001	-3.232675e+001	-7.460046e+001	-3.707687e-002	1.552228e+000
26.204	-5.444311e-002	1.326334e+000	-3.242715e+001	-7.491026e+001	-3.243137e+001	-7.476376e+001	-3.573562e-002	1.536560e+000
26.564	-5.533101e-002	1.310111e+000	-3.252185e+001	-7.456962e+001	-3.252737e+001	-7.445071e+001	-3.642126e-002	1.520269e+000
26.924	-5.494701e-002	1.293437e+000	-3.262570e+001	-7.449168e+001	-3.263158e+001	-7.436816e+001	-3.616815e-002	1.503920e+000
27.284	-5.459779e-002	1.277991e+000	-3.273086e+001	-7.441152e+001	-3.273601e+001	-7.428637e+001	-3.573189e-002	1.488045e+000
27.644	-5.430946e-002	1.262141e+000	-3.283390e+001	-7.433253e+001	-3.283912e+001	-7.420957e+001	-3.544810e-002	1.472100e+000
28.004	-5.396518e-002	1.246917e+000	-3.293470e+001	-7.424397e+001	-3.294010e+001	-7.411980e+001	-3.511118e-002	1.457488e+000
28.364	-5.364262e-002	1.232219e+000	-3.303510e+001	-7.416215e+001	-3.304108e+001	-7.403853e+001	-3.480447e-002	1.442200e+000
28.724	-5.346231e-002	1.217654e+000	-3.313368e+001	-7.408101e+001	-3.313881e+001	-7.395465e+001	-3.450758e-002	1.427461e+000
29.084	-5.314982e-002	1.204131e+000	-3.323124e+001	-7.399274e+001	-3.323687e+001	-7.386632e+001	-3.426200e-002	1.414070e+000
29.444	-5.303597e-002	1.190327e+000	-3.332748e+001	-7.390551e+001	-3.333312e+001	-7.378329e+001	-3.392036e-002	1.400688e+000
29.804	-5.270194e-002	1.177415e+000	-3.342151e+001	-7.382158e+001	-3.342775e+001	-7.369542e+001	-3.374175e-002	1.387793e+000
30.164	-5.241464e-002	1.163983e+000	-3.351562e+001	-7.374185e+001	-3.352108e+001	-7.360950e+001	-3.346788e-002	1.373964e+000
30.524	-5.225327e-002	1.150829e+000	-3.360820e+001	-7.365040e+001	-3.361341e+001	-7.352633e+001	-3.325590e-002	1.362025e+000
30.884	-5.191027e-002	1.137922e+000	-3.369983e+001	-7.356323e+001	-3.370591e+001	-7.343660e+001	-3.301446e-002	1.348729e+000
31.244	-5.159198e-002	1.125133e+000	-3.379053e+001	-7.347239e+001	-3.379580e+001	-7.335226e+001	-3.273359e-002	1.336108e+000
31.605	-5.147590e-002	1.113172e+000	-3.387960e+001	-7.338383e+001	-3.388471e+001	-7.325893e+001	-3.254486e-002	1.323773e+000
31.965	-5.117551e-002	1.101545e+000	-3.396745e+001	-7.329781e+001	-3.397350e+001	-7.316884e+001	-3.229983e-002	1.311741e+000
32.325	-5.100768e-002	1.090017e+000	-3.405426e+001	-7.320824e+001	-3.405923e+001	-7.308686e+001	-3.214885e-002	1.299866e+000
32.685	-5.079322e-002	1.078273e+000	-3.414198e+001	-7.312028e+001	-3.414593e+001	-7.300188e+001	-3.179417e-002	1.288354e+000
33.045	-5.051110e-002	1.067852e+000	-3.422552e+001	-7.302742e+001	-3.423066e+001	-7.290504e+001	-3.162521e-002	1.277094e+000
33.405	-5.032163e-002	1.056760e+000	-3.431027e+001	-7.294427e+001	-3.431459e+001	-7.281733e+001	-3.149078e-002	1.266830e+000
33.765	-5.009342e-002	1.045777e+000	-3.439312e+001	-7.284763e+001	-3.439789e+001	-7.272458e+001	-3.125424e-002	1.256049e+000
34.125	-4.991086e-002	1.035716e+000	-3.447572e+001	-7.276077e+001	-3.448105e+001	-7.264410e+001	-3.099668e-002	1.245764e+000
34.485	-4.974057e-002	1.024794e+000	-3.455586e+001	-7.267525e+001	-3.456168e+001	-7.254855e+001	-3.087609e-002	1.235100e+000
34.845	-4.961173e-002	1.015580e+000	-3.463607e+001	-7.257778e+001	-3.464230e+001	-7.244829e+001	-3.074736e-002	1.224929e+000
35.205	-4.939167e-002	1.005734e+000	-3.471586e+001	-7.248114e+001	-3.472184e+001	-7.236006e+001	-3.052812e-002	1.215732e+000
35.565	-4.922936e-002	9.962713e-001	-3.479512e+001	-7.239299e+001	-3.479988e+001	-7.227581e+001	-3.034757e-002	1.205592e+000
35.985	-4.817148e-002	9.848630e-001	-3.489367e+001	-7.248107e+001	-3.489881e+001	-7.234424e+001	-2.959797e-002	1.195222e+000
36.483	-4.866982e-002	9.722717e-001	-3.499411e+001	-7.217050e+001	-3.499951e+001	-7.205026e+001	-2.992732e-002	1.181702e+000
36.980	-4.853512e-002	9.598414e-001	-3.509594e+001	-7.202941e+001	-3.510214e+001	-7.190670e+001	-2.976301e-002	1.169483e+000
37.478	-4.824420e-002	9.482502e-001	-3.519814e+001	-7.190206e+001	-3.520349e+001	-7.177849e+001	-2.960253e-002	1.158288e+000
37.975	-4.808207e-002	9.366766e-001	-3.529891e+001	-7.177966e+001	-3.530620e+001	-7.165827e+001	-2.938534e-002	1.145908e+000
38.473	-4.792578e-002	9.250195e-001	-3.539977e+001	-7.164759e+001	-3.540557e+001	-7.153234e+001	-2.922005e-002	1.134875e+000
38.970	-4.763080e-002	9.140946e-001	-3.549879e+001	-7.151096e+001	-3.550523e+001	-7.139191e+001	-2.904754e-002	1.123505e+000
39.468	-4.747460e-002	9.036093e-001	-3.559509e+001	-7.139245e+001	-3.560080e+001	-7.126977e+001	-2.882779e-002	1.113396e+000
39.965	-4.738134e-002	8.927377e-001	-3.569084e+001	-7.125350e+001	-3.569819e+001	-7.112943e+001	-2.860865e-002	1.102154e+000
40.463	-4.716662e-002	8.820355e-001	-3.578556e+001	-7.114076e+001	-3.579104e+001	-7.100848e+001	-2.847007e-002	1.092217e+000
40.960	-4.706222e-002	8.717736e-001	-3.587837e+001	-7.099931e+001	-3.588392e+001	-7.087402e+001	-2.835035e-002	1.081494e+000
41.458	-4.686984e-002	8.617556e-001	-3.597049e+001	-7.086606e+001	-3.597669e+001	-7.074775e+001	-2.818532e-002	1.072293e+000
41.955	-4.683137e-002	8.510983e-001	-3.606142e+001	-7.074221e+001	-3.606660e+001	-7.061743e+001	-2.800107e-002	1.062782e+000
42.452	-4.677505e-002	8.428021e-001	-3.614984e+001	-7.060853e+001	-3.615585e+001	-7.048348e+001	-2.782451e-002	1.053345e+000
42.950	-4.669358e-002	8.335453e-001	-3.623872e+001	-7.047943e+001	-3.624356e+001	-7.035185e+001	-2.775445e-002	1.043946e+000
43.447	-4.650681e-002	8.249222e-001	-3.632540e+001	-7.034125e+001	-3.633141e+001	-7.022332e+001	-2.766605e-002	1.034716e+000
43.945	-4.634590e-002	8.152907e-001	-3.641201e+001	-7.021932e+001	-3.641649e+001	-7.008995e+001	-2.742204e-002	1.025650e+000
44.442	-4.616495e-002	8.070203e-001	-3.649569e+001	-7.008565e+001	-3.650178e+001	-6.995964e+001	-2.739025e-002	1.017814e+000
44.940	-4.610879e-002	7.988157e-001	-3.658043e+001	-6.995152e+001	-3.658603e+001	-6.982880e+001	-2.727613e-002	1.008132e+000
45.437	-4.594905e-002	7.901519e-001	-3.666274e+001	-6.981744e+001	-3.666852e+001	-6.970384e+001	-2.710675e-002	1.000747e+000
45.935	-4.584312e-002	7.817585e-001	-3.674287e+001	-6.968811e+001	-3.674930e+001	-6.957375e+001	-2.703673e-002	9.919869e-001
46.432	-4.570376e-002	7.740919e-001	-3.682439e+001	-6.956056e+001	-3.683026e+001	-6.944053e+001	-2.695618e-002	9.844440e-001
46.930	-4.566946e-002	7.664902e-001	-3.690319e+001	-6.943099e+001	-3.691015e+001	-6.930030e+001	-2.687031e-002	9.765969e-001
47.427	-4.548800e-002	7.585195e-001	-3.698347e+001	-6.930521e+001	-3.698745e+001	-6.916669e+001	-2.675576e-002	9.689479e-001
47.925	-4.535480e-002	7.521007e-001	-3.706154e+001	-6.916022e+001	-3.706361e+001	-6.904418e+001	-2.653169e-002	9.611497e-001
48.422	-4.521042e-002	7.440554e-001	-3.713616e+001	-6.902581e+001	-3.714290e+001	-6.891800e+001	-2.632835e-002	9.537005e-001
48.920	-4.511242e-002	7.369859e-001	-3.721340e+001	-6.890774e+001	-3.721689e+001	-6.877930e+001	-2.620793e-002	9.471012e-001
49.417	-4.507228e-002	7.299667e-001	-3.728754e+001	-6.876041e+001	-3.729305e+001	-6.865632e+001	-2.613099e-002	9.401184e-001
50.001	-4.492496e-002	7.217351e-001	-3.738307e+001	-6.865039e+001	-3.738611e+001	-6.853430e+001	-2.576090e-002	9.316122e-001
50.688	-4.473233e-002	7.128344e-001	-3.747361e+001	-6.842850e+001	-3.747845e+001	-6.833377e+001	-2.579079e-002	9.231391e-001
51.375	-4.463331e-002	7.031699e-001	-3.757301e+001	-6.823509e+001	-3.758072e+001	-6.814052e+001	-2.569505e-002	9.132800e-001
52.062	-4.459536e-002	6.950100e-001	-3.766901e+001	-6.808522e+001	-3.767916e+001	-6.793799e+001	-2.542359e-002	9.045445e-001
52.749	-4.443730e-002	6.864636e-001	-3.776915e+001	-6.790681e+001	-3.777091e+001	-6.774358e+001	-2.543486e-002	8.958685e-001
53.436	-4.428203e-002	6.776358e-001	-3.786295e+001	-6.769259e+001	-3.786511e+001	-6.761482e+001	-2.527265e-002	8.886543e-001
54.123	-4.410652e-002	6.711373e-001	-3.794977e+001	-6.753115e+001	-3.796421e+001	-6.738528e+001	-2.526150e-002	8.798637e-001
54.810	-4.406964e-002	6.622158e-001	-3.804784e+001	-6.733783e+001	-3.804505e+001	-6.723617e+001	-2.501127e-002	8.728814e-001
55.497	-4.397586e-002	6.546993e-001	-3.812995e+001	-6.718142e+001	-3.814478e+001	-6.702540e+001	-2.499842e-002	8.640120e-001
56.184	-4.396081e-002	6.467526e-001	-3.822492e+001	-6.696096e+001	-3.822583e+001	-6.690170e+001	-2.489386e-002	8.574502e-001
56.871	-4.376547e-002	6.400993e-001	-3.831333e+001	-6.683206e+001	-3.831088e+001	-6.664585e+001	-2.491852e-002	8.503926e-001
57.558	-4.374910e-002	6.323941e-001	-3.839153e+001	-6.665183e+001	-3.840787e+001	-6.647554e+001	-2.475531e-002	8.421899e-001
58.245	-4.362024e-002	6.255106e-001	-3.847564e+001	-6.641603e+001	-3.849211e+001	-6.635501e+001	-2.458722e-002	8.353049e-001
58.932	-4.350452e-002	6.176595e-001	-3.856447e+001	-6.623605e+001	-3.856993e+001	-6.620101e+001	-2.450531e-002	8.291824e-001
59.619	-4.343390e-002	6.110845e-001	-3.864864e+001	-6.604546e+001	-3.864772e+001	-6.602023e+001	-2.441551e-002	8.231561e-001
60.306	-4.334613e-002	6.053277e-001	-3.872940e+001	-6.588324e+001	-3.872712e+001	-6.584197e+001	-2.429416e-002	8.162446e-001
60.993	-4.322293e-002	5.994365e-001	-3.880854e+001	-6.569306e+001	-3.881070e+001	-6.567221e+001	-2.421315e-002	8.094158e-001
61.680	-4.313396e-002	5.931031e-001	-3.888123e+001	-6.552820e+001	-3.889415e+001	-6.549306e+001	-2.412049e-002	8.031728e-001
62.367	-4.299674e-002	5.861137e-001	-3.895688e+001	-6.540463e+001	-3.897566e+001	-6.524243e+001	-2.424325e-002	7.959876e-001
63.054	-4.295337e-002	5.801219e-001	-3.904109e+001	-6.524699e+001	-3.904033e+001	-6.504838e+001	-2.427476e-002	7.904750e-001
