!Agilent Technologies,E5061B,MY49204007,A.02.12
!Date: Wed Jul 23 12:06:26 2025
!Data & Calibration Information:
!Freq	S11:SOLT2(ON)	S21:SOLT2(ON)	S12:SOLT2(ON)	S22:SOLT2(ON)
# Hz S dB R 50
10.000	-1.006862e-001	3.209449e+000	-2.489210e+001	-7.708164e+001	-2.489855e+001	-7.696524e+001	-8.157138e-002	3.420009e+000
10.137	-9.936345e-002	3.166540e+000	-2.500998e+001	-7.709385e+001	-2.501541e+001	-7.696943e+001	-8.037902e-002	3.376004e+000
10.275	-9.836493e-002	3.127005e+000	-2.511811e+001	-7.708729e+001	-2.512235e+001	-7.696522e+001	-7.936480e-002	3.336547e+000
10.412	-9.732356e-002	3.088620e+000	-2.522337e+001	-7.708593e+001	-2.522709e+001	-7.695880e+001	-7.833181e-002	3.298069e+000
10.550	-9.632998e-002	3.051810e+000	-2.532591e+001	-7.708294e+001	-2.532969e+001	-7.695654e+001	-7.737416e-002	3.260938e+000
10.687	-9.552945e-002	3.015548e+000	-2.542659e+001	-7.707998e+001	-2.543054e+001	-7.695354e+001	-7.647773e-002	3.225885e+000
10.824	-9.471665e-002	2.981684e+000	-2.552559e+001	-7.707815e+001	-2.552992e+001	-7.695340e+001	-7.559820e-002	3.190262e+000
10.962	-9.369415e-002	2.947911e+000	-2.562450e+001	-7.707077e+001	-2.562854e+001	-7.693946e+001	-7.475470e-002	3.156908e+000
11.099	-9.297840e-002	2.915440e+000	-2.571982e+001	-7.706316e+001	-2.572379e+001	-7.693811e+001	-7.387376e-002	3.124098e+000
11.237	-9.212180e-002	2.882448e+000	-2.581600e+001	-7.705274e+001	-2.581939e+001	-7.692535e+001	-7.309959e-002	3.091923e+000
11.374	-9.127843e-002	2.851318e+000	-2.591024e+001	-7.704964e+001	-2.591390e+001	-7.691987e+001	-7.227759e-002	3.059902e+000
11.511	-9.048811e-002	2.820318e+000	-2.600250e+001	-7.704203e+001	-2.600683e+001	-7.691206e+001	-7.151942e-002	3.029845e+000
11.649	-8.963918e-002	2.790367e+000	-2.609428e+001	-7.703295e+001	-2.609877e+001	-7.690229e+001	-7.073592e-002	2.999475e+000
11.786	-8.895085e-002	2.760936e+000	-2.618484e+001	-7.702189e+001	-2.618894e+001	-7.689237e+001	-7.000945e-002	2.970514e+000
11.924	-8.819346e-002	2.732574e+000	-2.627383e+001	-7.701174e+001	-2.627771e+001	-7.688684e+001	-6.931209e-002	2.941653e+000
12.061	-8.738998e-002	2.704701e+000	-2.636278e+001	-7.700573e+001	-2.636741e+001	-7.687444e+001	-6.853907e-002	2.913449e+000
12.198	-8.681287e-002	2.677223e+000	-2.644945e+001	-7.698985e+001	-2.645356e+001	-7.686647e+001	-6.783949e-002	2.886648e+000
12.336	-8.615965e-002	2.649557e+000	-2.653681e+001	-7.697856e+001	-2.654046e+001	-7.685204e+001	-6.712053e-002	2.859338e+000
12.473	-8.550758e-002	2.623589e+000	-2.662243e+001	-7.697300e+001	-2.662649e+001	-7.684060e+001	-6.645039e-002	2.832806e+000
12.611	-8.489878e-002	2.597366e+000	-2.670712e+001	-7.696059e+001	-2.671123e+001	-7.683010e+001	-6.576591e-002	2.806957e+000
12.748	-8.427685e-002	2.572067e+000	-2.679072e+001	-7.694753e+001	-2.679456e+001	-7.681892e+001	-6.504993e-002	2.781898e+000
12.885	-8.371828e-002	2.547781e+000	-2.687321e+001	-7.693585e+001	-2.687697e+001	-7.680841e+001	-6.453601e-002	2.756485e+000
13.023	-8.303667e-002	2.523631e+000	-2.695500e+001	-7.692673e+001	-2.695964e+001	-7.679813e+001	-6.386628e-002	2.732634e+000
13.160	-8.253944e-002	2.499386e+000	-2.703666e+001	-7.690966e+001	-2.704049e+001	-7.678116e+001	-6.339250e-002	2.708615e+000
13.298	-8.190250e-002	2.476397e+000	-2.711675e+001	-7.690128e+001	-2.712124e+001	-7.677110e+001	-6.275895e-002	2.685318e+000
13.435	-8.127282e-002	2.453883e+000	-2.719559e+001	-7.688639e+001	-2.720045e+001	-7.676128e+001	-6.229490e-002	2.662418e+000
13.572	-8.077419e-002	2.431171e+000	-2.727441e+001	-7.687265e+001	-2.727919e+001	-7.674517e+001	-6.175547e-002	2.640557e+000
13.733	-8.092232e-002	2.405018e+000	-2.736327e+001	-7.673411e+001	-2.737160e+001	-7.680535e+001	-6.068068e-002	2.615324e+000
13.923	-7.951929e-002	2.376360e+000	-2.747181e+001	-7.683709e+001	-2.747690e+001	-7.671121e+001	-6.044363e-002	2.585109e+000
14.112	-7.875586e-002	2.347148e+000	-2.757716e+001	-7.681447e+001	-2.758216e+001	-7.668657e+001	-5.977634e-002	2.555692e+000
14.302	-7.809510e-002	2.318712e+000	-2.768062e+001	-7.679945e+001	-2.768549e+001	-7.666982e+001	-5.915059e-002	2.528037e+000
14.492	-7.740911e-002	2.291538e+000	-2.778232e+001	-7.677305e+001	-2.778748e+001	-7.664576e+001	-5.843514e-002	2.500192e+000
14.682	-7.674326e-002	2.264294e+000	-2.788329e+001	-7.674926e+001	-2.788825e+001	-7.662230e+001	-5.779456e-002	2.473366e+000
14.872	-7.603193e-002	2.238034e+000	-2.798282e+001	-7.672951e+001	-2.798811e+001	-7.660016e+001	-5.708835e-002	2.447190e+000
15.062	-7.541086e-002	2.212405e+000	-2.808133e+001	-7.671284e+001	-2.808682e+001	-7.658032e+001	-5.651133e-002	2.421544e+000
15.251	-7.483126e-002	2.187350e+000	-2.817895e+001	-7.668466e+001	-2.818433e+001	-7.655477e+001	-5.592350e-002	2.396694e+000
15.441	-7.425246e-002	2.162734e+000	-2.827498e+001	-7.666289e+001	-2.828033e+001	-7.653504e+001	-5.530320e-002	2.372248e+000
15.631	-7.369569e-002	2.139452e+000	-2.836967e+001	-7.663767e+001	-2.837470e+001	-7.651061e+001	-5.470254e-002	2.348198e+000
15.821	-7.310480e-002	2.115571e+000	-2.846348e+001	-7.661565e+001	-2.846874e+001	-7.648523e+001	-5.411954e-002	2.324709e+000
16.011	-7.252979e-002	2.092872e+000	-2.855661e+001	-7.658890e+001	-2.856156e+001	-7.645907e+001	-5.352668e-002	2.301748e+000
16.201	-7.198754e-002	2.070483e+000	-2.864834e+001	-7.656164e+001	-2.865337e+001	-7.643079e+001	-5.309614e-002	2.280143e+000
16.391	-7.142428e-002	2.048822e+000	-2.873843e+001	-7.653783e+001	-2.874379e+001	-7.640967e+001	-5.251132e-002	2.258036e+000
16.580	-7.096188e-002	2.027308e+000	-2.882797e+001	-7.650944e+001	-2.883324e+001	-7.637985e+001	-5.200836e-002	2.236712e+000
16.770	-7.043936e-002	2.006604e+000	-2.891675e+001	-7.648083e+001	-2.892210e+001	-7.635260e+001	-5.148563e-002	2.215760e+000
16.960	-7.003311e-002	1.986106e+000	-2.900442e+001	-7.645297e+001	-2.900994e+001	-7.632528e+001	-5.101071e-002	2.195318e+000
17.150	-6.931429e-002	1.966329e+000	-2.908918e+001	-7.645739e+001	-2.909477e+001	-7.633363e+001	-5.040807e-002	2.175853e+000
17.340	-6.896791e-002	1.946445e+000	-2.917563e+001	-7.639737e+001	-2.918077e+001	-7.627013e+001	-5.000122e-002	2.155681e+000
17.530	-6.857250e-002	1.927236e+000	-2.926035e+001	-7.636999e+001	-2.926613e+001	-7.624137e+001	-4.958180e-002	2.136400e+000
17.720	-6.808589e-002	1.908144e+000	-2.934431e+001	-7.634080e+001	-2.935012e+001	-7.621350e+001	-4.906291e-002	2.117483e+000
17.909	-6.760058e-002	1.889581e+000	-2.942786e+001	-7.631267e+001	-2.943352e+001	-7.618186e+001	-4.860949e-002	2.098711e+000
18.099	-6.720946e-002	1.871674e+000	-2.951037e+001	-7.628308e+001	-2.951583e+001	-7.615589e+001	-4.824737e-002	2.080069e+000
18.289	-6.668774e-002	1.853203e+000	-2.959220e+001	-7.625463e+001	-2.959773e+001	-7.612506e+001	-4.775595e-002	2.062306e+000
18.479	-6.629419e-002	1.836316e+000	-2.967253e+001	-7.622155e+001	-2.967816e+001	-7.609422e+001	-4.733438e-002	2.044609e+000
18.669	-6.590870e-002	1.818936e+000	-2.975227e+001	-7.619051e+001	-2.975815e+001	-7.606236e+001	-4.702894e-002	2.027766e+000
18.859	-6.545082e-002	1.801717e+000	-2.983169e+001	-7.616087e+001	-2.983749e+001	-7.603100e+001	-4.659347e-002	2.010708e+000
19.082	-6.678340e-002	1.781931e+000	-2.991644e+001	-7.578724e+001	-2.992438e+001	-7.567454e+001	-4.785097e-002	1.990001e+000
19.344	-6.463345e-002	1.760311e+000	-3.003296e+001	-7.608812e+001	-3.003799e+001	-7.596212e+001	-4.558271e-002	1.968676e+000
19.606	-6.420050e-002	1.739023e+000	-3.013627e+001	-7.602805e+001	-3.014271e+001	-7.590149e+001	-4.522103e-002	1.946698e+000
19.868	-6.377156e-002	1.718307e+000	-3.024025e+001	-7.599160e+001	-3.024614e+001	-7.586425e+001	-4.477324e-002	1.926348e+000
20.130	-6.331257e-002	1.697248e+000	-3.034237e+001	-7.594086e+001	-3.034874e+001	-7.581325e+001	-4.428900e-002	1.905624e+000
20.392	-6.280938e-002	1.676908e+000	-3.044412e+001	-7.589497e+001	-3.045000e+001	-7.576533e+001	-4.381670e-002	1.885603e+000
20.655	-6.237702e-002	1.657057e+000	-3.054360e+001	-7.584719e+001	-3.054980e+001	-7.571948e+001	-4.336310e-002	1.865621e+000
20.917	-6.197875e-002	1.638071e+000	-3.064282e+001	-7.580121e+001	-3.064851e+001	-7.567162e+001	-4.300414e-002	1.846304e+000
21.179	-6.153085e-002	1.619093e+000	-3.074076e+001	-7.575651e+001	-3.074700e+001	-7.562440e+001	-4.256634e-002	1.827307e+000
21.441	-6.115432e-002	1.600750e+000	-3.083653e+001	-7.570529e+001	-3.084273e+001	-7.557414e+001	-4.225391e-002	1.809618e+000
21.703	-6.074958e-002	1.582441e+000	-3.093213e+001	-7.565357e+001	-3.093833e+001	-7.552522e+001	-4.191303e-002	1.791451e+000
21.965	-6.046040e-002	1.565041e+000	-3.102632e+001	-7.560399e+001	-3.103260e+001	-7.547376e+001	-4.154071e-002	1.773978e+000
22.228	-6.006604e-002	1.548136e+000	-3.111904e+001	-7.555201e+001	-3.112587e+001	-7.541947e+001	-4.115113e-002	1.756821e+000
22.490	-5.972454e-002	1.531473e+000	-3.121039e+001	-7.550061e+001	-3.121673e+001	-7.537059e+001	-4.079300e-002	1.740479e+000
22.752	-5.924646e-002	1.515132e+000	-3.130168e+001	-7.545242e+001	-3.130831e+001	-7.532250e+001	-4.042980e-002	1.723777e+000
23.014	-5.906028e-002	1.499358e+000	-3.139133e+001	-7.539742e+001	-3.139756e+001	-7.526820e+001	-4.006543e-002	1.707685e+000
23.276	-5.866013e-002	1.483622e+000	-3.148012e+001	-7.534406e+001	-3.148642e+001	-7.521414e+001	-3.967740e-002	1.692220e+000
23.538	-5.825718e-002	1.468517e+000	-3.156830e+001	-7.528896e+001	-3.157477e+001	-7.516245e+001	-3.935558e-002	1.677012e+000
23.801	-5.785426e-002	1.452880e+000	-3.165501e+001	-7.523996e+001	-3.166151e+001	-7.510798e+001	-3.900939e-002	1.661584e+000
24.063	-5.764603e-002	1.438393e+000	-3.174046e+001	-7.518148e+001	-3.174733e+001	-7.505497e+001	-3.870059e-002	1.647241e+000
24.325	-5.728681e-002	1.423808e+000	-3.182538e+001	-7.513101e+001	-3.183174e+001	-7.500339e+001	-3.832541e-002	1.633061e+000
24.587	-5.710629e-002	1.409790e+000	-3.190974e+001	-7.507299e+001	-3.191568e+001	-7.494432e+001	-3.805882e-002	1.619244e+000
24.849	-5.671016e-002	1.395693e+000	-3.199242e+001	-7.502107e+001	-3.199903e+001	-7.488885e+001	-3.772060e-002	1.605416e+000
25.111	-5.644617e-002	1.382153e+000	-3.207465e+001	-7.496402e+001	-3.208116e+001	-7.483370e+001	-3.748692e-002	1.591331e+000
25.374	-5.614950e-002	1.368932e+000	-3.215569e+001	-7.490602e+001	-3.216232e+001	-7.478085e+001	-3.726352e-002	1.578104e+000
25.636	-5.583805e-002	1.356067e+000	-3.223646e+001	-7.485052e+001	-3.224316e+001	-7.472199e+001	-3.706754e-002	1.565136e+000
25.898	-5.553864e-002	1.343425e+000	-3.231561e+001	-7.479370e+001	-3.232240e+001	-7.466702e+001	-3.671121e-002	1.552144e+000
26.204	-5.433061e-002	1.328296e+000	-3.242193e+001	-7.498281e+001	-3.242663e+001	-7.483482e+001	-3.540319e-002	1.537432e+000
26.564	-5.505130e-002	1.311287e+000	-3.251630e+001	-7.464801e+001	-3.252347e+001	-7.452418e+001	-3.603935e-002	1.520388e+000
26.924	-5.475797e-002	1.295161e+000	-3.262040e+001	-7.456601e+001	-3.262759e+001	-7.443792e+001	-3.575106e-002	1.504091e+000
27.284	-5.433157e-002	1.279474e+000	-3.272489e+001	-7.448620e+001	-3.273130e+001	-7.435968e+001	-3.539078e-002	1.488184e+000
27.644	-5.420060e-002	1.263744e+000	-3.282774e+001	-7.441153e+001	-3.283430e+001	-7.428151e+001	-3.510817e-002	1.472784e+000
28.004	-5.380491e-002	1.248946e+000	-3.292850e+001	-7.432402e+001	-3.293540e+001	-7.419549e+001	-3.476979e-002	1.457910e+000
28.364	-5.343019e-002	1.234107e+000	-3.302909e+001	-7.424448e+001	-3.303634e+001	-7.411229e+001	-3.446109e-002	1.442476e+000
28.724	-5.316798e-002	1.218937e+000	-3.312727e+001	-7.416312e+001	-3.313460e+001	-7.403156e+001	-3.416357e-002	1.427936e+000
29.084	-5.283037e-002	1.205112e+000	-3.322489e+001	-7.407928e+001	-3.323193e+001	-7.394611e+001	-3.388899e-002	1.413827e+000
29.444	-5.263465e-002	1.191379e+000	-3.332093e+001	-7.399130e+001	-3.332768e+001	-7.386092e+001	-3.363275e-002	1.401088e+000
29.804	-5.245927e-002	1.179001e+000	-3.341573e+001	-7.390769e+001	-3.342200e+001	-7.377310e+001	-3.339357e-002	1.388165e+000
30.164	-5.208085e-002	1.165446e+000	-3.350939e+001	-7.382788e+001	-3.351584e+001	-7.369244e+001	-3.315833e-002	1.375091e+000
30.524	-5.199688e-002	1.152700e+000	-3.360169e+001	-7.373641e+001	-3.360785e+001	-7.360869e+001	-3.288859e-002	1.361731e+000
30.884	-5.168973e-002	1.139608e+000	-3.369291e+001	-7.365087e+001	-3.369947e+001	-7.352110e+001	-3.261620e-002	1.348525e+000
31.244	-5.133333e-002	1.127095e+000	-3.378348e+001	-7.356541e+001	-3.378987e+001	-7.343859e+001	-3.241014e-002	1.336348e+000
31.605	-5.110174e-002	1.115173e+000	-3.387233e+001	-7.347798e+001	-3.387922e+001	-7.334995e+001	-3.214394e-002	1.323564e+000
31.965	-5.100473e-002	1.103152e+000	-3.396001e+001	-7.338639e+001	-3.396770e+001	-7.326181e+001	-3.189337e-002	1.311524e+000
32.325	-5.077249e-002	1.091463e+000	-3.404753e+001	-7.329647e+001	-3.405333e+001	-7.317309e+001	-3.168921e-002	1.300236e+000
32.685	-5.041602e-002	1.080235e+000	-3.413355e+001	-7.322295e+001	-3.413905e+001	-7.309046e+001	-3.145839e-002	1.289679e+000
33.045	-5.029429e-002	1.068945e+000	-3.421855e+001	-7.312947e+001	-3.422511e+001	-7.299887e+001	-3.128300e-002	1.278051e+000
33.405	-5.014007e-002	1.057769e+000	-3.430183e+001	-7.304294e+001	-3.430838e+001	-7.290363e+001	-3.112075e-002	1.267133e+000
33.765	-4.990072e-002	1.046513e+000	-3.438619e+001	-7.295250e+001	-3.439245e+001	-7.281660e+001	-3.088700e-002	1.256785e+000
34.125	-4.962649e-002	1.036805e+000	-3.446773e+001	-7.286718e+001	-3.447348e+001	-7.273797e+001	-3.061980e-002	1.246493e+000
34.485	-4.946416e-002	1.027033e+000	-3.454855e+001	-7.276855e+001	-3.455459e+001	-7.264210e+001	-3.048771e-002	1.236117e+000
34.845	-4.936714e-002	1.017027e+000	-3.462911e+001	-7.267648e+001	-3.463626e+001	-7.255250e+001	-3.031544e-002	1.225428e+000
35.205	-4.901253e-002	1.007914e+000	-3.470833e+001	-7.259412e+001	-3.471500e+001	-7.246759e+001	-3.013901e-002	1.216231e+000
35.565	-4.894402e-002	9.976334e-001	-3.478787e+001	-7.250287e+001	-3.479321e+001	-7.237991e+001	-2.999757e-002	1.206582e+000
35.985	-4.804743e-002	9.868458e-001	-3.488455e+001	-7.258786e+001	-3.489021e+001	-7.244580e+001	-2.931167e-002	1.196409e+000
36.483	-4.855824e-002	9.736297e-001	-3.498449e+001	-7.228531e+001	-3.499100e+001	-7.215423e+001	-2.968418e-002	1.182691e+000
36.980	-4.834672e-002	9.618011e-001	-3.508713e+001	-7.214025e+001	-3.509453e+001	-7.201784e+001	-2.947625e-002	1.170788e+000
37.478	-4.799648e-002	9.496358e-001	-3.518985e+001	-7.201964e+001	-3.519713e+001	-7.189907e+001	-2.922176e-002	1.158690e+000
37.975	-4.795800e-002	9.379908e-001	-3.529148e+001	-7.188952e+001	-3.529844e+001	-7.176974e+001	-2.900328e-002	1.147128e+000
38.473	-4.769930e-002	9.270207e-001	-3.538995e+001	-7.176315e+001	-3.539730e+001	-7.164023e+001	-2.900580e-002	1.136042e+000
38.970	-4.750371e-002	9.153837e-001	-3.549017e+001	-7.163868e+001	-3.549637e+001	-7.151369e+001	-2.877053e-002	1.124548e+000
39.468	-4.732638e-002	9.045711e-001	-3.558643e+001	-7.150416e+001	-3.559357e+001	-7.137813e+001	-2.852904e-002	1.113567e+000
39.965	-4.709390e-002	8.938680e-001	-3.568138e+001	-7.138476e+001	-3.568903e+001	-7.125597e+001	-2.844825e-002	1.103280e+000
40.463	-4.703504e-002	8.836193e-001	-3.577556e+001	-7.125620e+001	-3.578208e+001	-7.112149e+001	-2.815993e-002	1.092664e+000
40.960	-4.688111e-002	8.733343e-001	-3.586957e+001	-7.112399e+001	-3.587583e+001	-7.099928e+001	-2.807272e-002	1.082870e+000
41.458	-4.670726e-002	8.635027e-001	-3.596151e+001	-7.099851e+001	-3.596769e+001	-7.086997e+001	-2.775765e-002	1.073059e+000
41.955	-4.657928e-002	8.535151e-001	-3.605051e+001	-7.087234e+001	-3.605711e+001	-7.074095e+001	-2.764346e-002	1.062665e+000
42.452	-4.645393e-002	8.445545e-001	-3.613920e+001	-7.074209e+001	-3.614652e+001	-7.061322e+001	-2.761400e-002	1.053252e+000
42.950	-4.635641e-002	8.353619e-001	-3.622782e+001	-7.061261e+001	-3.623472e+001	-7.047836e+001	-2.746224e-002	1.044943e+000
43.447	-4.626300e-002	8.265267e-001	-3.631564e+001	-7.048270e+001	-3.632069e+001	-7.035357e+001	-2.734081e-002	1.035698e+000
43.945	-4.610718e-002	8.170678e-001	-3.640141e+001	-7.035668e+001	-3.640684e+001	-7.022342e+001	-2.708242e-002	1.026275e+000
44.442	-4.607013e-002	8.090179e-001	-3.648545e+001	-7.022480e+001	-3.649202e+001	-7.009753e+001	-2.707689e-002	1.017670e+000
44.940	-4.598775e-002	8.005869e-001	-3.656864e+001	-7.009246e+001	-3.657604e+001	-6.996706e+001	-2.690466e-002	1.009726e+000
45.437	-4.572640e-002	7.923240e-001	-3.665154e+001	-6.996166e+001	-3.665847e+001	-6.983941e+001	-2.680194e-002	1.001728e+000
45.935	-4.564360e-002	7.842197e-001	-3.673190e+001	-6.983211e+001	-3.673974e+001	-6.971028e+001	-2.660013e-002	9.925648e-001
46.432	-4.551611e-002	7.759041e-001	-3.681258e+001	-6.970155e+001	-3.682048e+001	-6.958031e+001	-2.654313e-002	9.843717e-001
46.930	-4.545258e-002	7.685702e-001	-3.689128e+001	-6.958188e+001	-3.689921e+001	-6.944773e+001	-2.645726e-002	9.769930e-001
47.427	-4.530646e-002	7.612299e-001	-3.697090e+001	-6.945553e+001	-3.697672e+001	-6.931559e+001	-2.633530e-002	9.689841e-001
47.925	-4.517181e-002	7.532921e-001	-3.704937e+001	-6.931819e+001	-3.705376e+001	-6.919186e+001	-2.620108e-002	9.622807e-001
48.422	-4.510667e-002	7.459625e-001	-3.712428e+001	-6.918651e+001	-3.713113e+001	-6.906962e+001	-2.593423e-002	9.546137e-001
48.920	-4.494389e-002	7.392539e-001	-3.720065e+001	-6.907143e+001	-3.720673e+001	-6.892836e+001	-2.594073e-002	9.479452e-001
49.417	-4.480796e-002	7.322105e-001	-3.727479e+001	-6.892168e+001	-3.728043e+001	-6.880866e+001	-2.574708e-002	9.406335e-001
50.001	-4.454003e-002	7.237674e-001	-3.736969e+001	-6.881185e+001	-3.737399e+001	-6.869718e+001	-2.548563e-002	9.321919e-001
50.688	-4.452673e-002	7.151691e-001	-3.746123e+001	-6.858187e+001	-3.746648e+001	-6.849203e+001	-2.548993e-002	9.238634e-001
51.375	-4.441258e-002	7.056953e-001	-3.755857e+001	-6.840866e+001	-3.756725e+001	-6.830869e+001	-2.524176e-002	9.150292e-001
52.062	-4.426390e-002	6.976332e-001	-3.765430e+001	-6.825628e+001	-3.766626e+001	-6.811553e+001	-2.520416e-002	9.055726e-001
52.749	-4.418913e-002	6.890478e-001	-3.775481e+001	-6.809170e+001	-3.775831e+001	-6.792802e+001	-2.508449e-002	8.975056e-001
53.436	-4.412224e-002	6.797169e-001	-3.784991e+001	-6.785981e+001	-3.785170e+001	-6.777507e+001	-2.490966e-002	8.892668e-001
54.123	-4.393680e-002	6.727532e-001	-3.793421e+001	-6.772596e+001	-3.794915e+001	-6.756749e+001	-2.483754e-002	8.802951e-001
54.810	-4.381754e-002	6.649757e-001	-3.803497e+001	-6.752576e+001	-3.803115e+001	-6.740563e+001	-2.481199e-002	8.734935e-001
55.497	-4.359077e-002	6.570693e-001	-3.811556e+001	-6.737678e+001	-3.813130e+001	-6.721167e+001	-2.461833e-002	8.650300e-001
56.184	-4.358768e-002	6.491004e-001	-3.821048e+001	-6.715175e+001	-3.821181e+001	-6.708596e+001	-2.455764e-002	8.582231e-001
56.871	-4.347060e-002	6.416289e-001	-3.829872e+001	-6.703369e+001	-3.829857e+001	-6.684701e+001	-2.445160e-002	8.508563e-001
57.558	-4.338303e-002	6.354656e-001	-3.837493e+001	-6.685345e+001	-3.839156e+001	-6.667398e+001	-2.428612e-002	8.435499e-001
58.245	-4.343027e-002	6.277158e-001	-3.846010e+001	-6.662621e+001	-3.847569e+001	-6.655114e+001	-2.419680e-002	8.362476e-001
58.932	-4.324770e-002	6.197271e-001	-3.854693e+001	-6.642885e+001	-3.855293e+001	-6.639017e+001	-2.409926e-002	8.300038e-001
59.619	-4.312569e-002	6.135937e-001	-3.863202e+001	-6.625533e+001	-3.863199e+001	-6.620781e+001	-2.405877e-002	8.233116e-001
60.306	-4.318978e-002	6.070910e-001	-3.871230e+001	-6.608021e+001	-3.871100e+001	-6.603546e+001	-2.394274e-002	8.167795e-001
60.993	-4.304647e-002	6.007801e-001	-3.879002e+001	-6.590657e+001	-3.879402e+001	-6.586828e+001	-2.387562e-002	8.104755e-001
61.680	-4.287394e-002	5.954149e-001	-3.886244e+001	-6.576202e+001	-3.887575e+001	-6.569255e+001	-2.380437e-002	8.037447e-001
62.367	-4.282449e-002	5.891216e-001	-3.893741e+001	-6.564160e+001	-3.895673e+001	-6.548090e+001	-2.375664e-002	7.975332e-001
63.054	-4.272699e-002	5.816721e-001	-3.902737e+001	-6.547299e+001	-3.902572e+001	-6.526681e+001	-2.371952e-002	7.921849e-001
