!Agilent Technologies,E5061B,MY49204007,A.02.12
!Date: Wed Jul 23 12:08:36 2025
!Data & Calibration Information:
!Freq	S11:SOLT2(ON)	S21:SOLT2(ON)	S12:SOLT2(ON)	S22:SOLT2(ON)
# Hz S dB R 50
10.000	-1.005069e-001	3.209352e+000	-2.489078e+001	-7.711301e+001	-2.489734e+001	-7.699427e+001	-8.113454e-002	3.422704e+000
10.137	-9.923183e-002	3.166947e+000	-2.500908e+001	-7.712423e+001	-2.501428e+001	-7.699631e+001	-8.005969e-002	3.379384e+000
10.275	-9.811368e-002	3.127529e+000	-2.511694e+001	-7.711739e+001	-2.512116e+001	-7.699177e+001	-7.899104e-002	3.339583e+000
10.412	-9.714674e-002	3.089455e+000	-2.522216e+001	-7.711566e+001	-2.522554e+001	-7.698804e+001	-7.799105e-002	3.300921e+000
10.550	-9.617946e-002	3.052393e+000	-2.532487e+001	-7.711430e+001	-2.532826e+001	-7.698598e+001	-7.701353e-002	3.264202e+000
10.687	-9.526498e-002	3.016483e+000	-2.542551e+001	-7.710985e+001	-2.542909e+001	-7.698342e+001	-7.613211e-002	3.228340e+000
10.824	-9.440204e-002	2.982067e+000	-2.552456e+001	-7.711132e+001	-2.552858e+001	-7.698440e+001	-7.523874e-002	3.193310e+000
10.962	-9.347521e-002	2.947783e+000	-2.562313e+001	-7.710335e+001	-2.562698e+001	-7.697027e+001	-7.439350e-002	3.159543e+000
11.099	-9.278351e-002	2.915309e+000	-2.571876e+001	-7.709579e+001	-2.572262e+001	-7.696943e+001	-7.352125e-002	3.126516e+000
11.237	-9.191340e-002	2.883285e+000	-2.581486e+001	-7.708635e+001	-2.581794e+001	-7.695694e+001	-7.278835e-002	3.094836e+000
11.374	-9.105434e-002	2.851974e+000	-2.590861e+001	-7.708414e+001	-2.591256e+001	-7.695098e+001	-7.204293e-002	3.063276e+000
11.511	-9.032273e-002	2.821165e+000	-2.600127e+001	-7.707753e+001	-2.600528e+001	-7.694542e+001	-7.119254e-002	3.032752e+000
11.649	-8.955349e-002	2.791060e+000	-2.609327e+001	-7.707006e+001	-2.609693e+001	-7.693669e+001	-7.039410e-002	3.003191e+000
11.786	-8.886740e-002	2.761318e+000	-2.618372e+001	-7.705805e+001	-2.618729e+001	-7.692530e+001	-6.964488e-002	2.973675e+000
11.924	-8.822827e-002	2.733387e+000	-2.627266e+001	-7.704620e+001	-2.627618e+001	-7.691968e+001	-6.899415e-002	2.944833e+000
12.061	-8.738426e-002	2.705316e+000	-2.636152e+001	-7.704190e+001	-2.636558e+001	-7.691015e+001	-6.815852e-002	2.916764e+000
12.198	-8.682552e-002	2.677833e+000	-2.644823e+001	-7.702873e+001	-2.645204e+001	-7.690306e+001	-6.745164e-002	2.889217e+000
12.336	-8.616841e-002	2.650635e+000	-2.653543e+001	-7.701786e+001	-2.653902e+001	-7.688597e+001	-6.676778e-002	2.862561e+000
12.473	-8.549403e-002	2.624110e+000	-2.662114e+001	-7.700886e+001	-2.662498e+001	-7.687729e+001	-6.610993e-002	2.836050e+000
12.611	-8.484083e-002	2.598599e+000	-2.670552e+001	-7.699840e+001	-2.670956e+001	-7.686637e+001	-6.541861e-002	2.810208e+000
12.748	-8.423959e-002	2.573050e+000	-2.678938e+001	-7.698594e+001	-2.679306e+001	-7.685408e+001	-6.473466e-002	2.785072e+000
12.885	-8.363158e-002	2.548758e+000	-2.687160e+001	-7.697368e+001	-2.687523e+001	-7.684539e+001	-6.405843e-002	2.760130e+000
13.023	-8.287365e-002	2.524464e+000	-2.695341e+001	-7.696632e+001	-2.695777e+001	-7.683692e+001	-6.351060e-002	2.735984e+000
13.160	-8.241557e-002	2.500538e+000	-2.703514e+001	-7.694944e+001	-2.703892e+001	-7.682005e+001	-6.300788e-002	2.712069e+000
13.298	-8.180528e-002	2.476935e+000	-2.711521e+001	-7.694064e+001	-2.711956e+001	-7.681031e+001	-6.242624e-002	2.689512e+000
13.435	-8.119076e-002	2.454588e+000	-2.719444e+001	-7.692797e+001	-2.719872e+001	-7.679924e+001	-6.184749e-002	2.666613e+000
13.572	-8.063934e-002	2.432118e+000	-2.727274e+001	-7.691262e+001	-2.727728e+001	-7.678548e+001	-6.135796e-002	2.644010e+000
13.733	-8.084964e-002	2.406144e+000	-2.736145e+001	-7.677443e+001	-2.736945e+001	-7.684430e+001	-6.035344e-002	2.619264e+000
13.923	-7.934331e-002	2.377137e+000	-2.747032e+001	-7.687930e+001	-2.747525e+001	-7.675296e+001	-6.011336e-002	2.588762e+000
14.112	-7.850046e-002	2.347606e+000	-2.757536e+001	-7.685712e+001	-2.758032e+001	-7.672846e+001	-5.946912e-002	2.559729e+000
14.302	-7.787381e-002	2.319490e+000	-2.767876e+001	-7.684221e+001	-2.768320e+001	-7.671333e+001	-5.883160e-002	2.532127e+000
14.492	-7.715948e-002	2.292148e+000	-2.778053e+001	-7.681703e+001	-2.778554e+001	-7.668754e+001	-5.820158e-002	2.504782e+000
14.682	-7.650378e-002	2.264867e+000	-2.788145e+001	-7.679634e+001	-2.788645e+001	-7.666749e+001	-5.755536e-002	2.477232e+000
14.872	-7.582243e-002	2.238848e+000	-2.798131e+001	-7.677576e+001	-2.798591e+001	-7.664479e+001	-5.688398e-002	2.451508e+000
15.062	-7.521516e-002	2.212863e+000	-2.807982e+001	-7.675697e+001	-2.808447e+001	-7.662676e+001	-5.621805e-002	2.425653e+000
15.251	-7.460518e-002	2.187876e+000	-2.817725e+001	-7.673021e+001	-2.818202e+001	-7.660002e+001	-5.563080e-002	2.400520e+000
15.441	-7.407417e-002	2.163319e+000	-2.827333e+001	-7.671220e+001	-2.827792e+001	-7.658184e+001	-5.503646e-002	2.375905e+000
15.631	-7.343495e-002	2.139510e+000	-2.836761e+001	-7.668589e+001	-2.837258e+001	-7.655855e+001	-5.442110e-002	2.352467e+000
15.821	-7.287289e-002	2.116666e+000	-2.846135e+001	-7.666210e+001	-2.846640e+001	-7.653328e+001	-5.387811e-002	2.329053e+000
16.011	-7.223273e-002	2.093619e+000	-2.855417e+001	-7.663985e+001	-2.855918e+001	-7.650843e+001	-5.327432e-002	2.306144e+000
16.201	-7.179021e-002	2.071544e+000	-2.864588e+001	-7.660984e+001	-2.865105e+001	-7.647928e+001	-5.278243e-002	2.283999e+000
16.391	-7.126146e-002	2.049602e+000	-2.873627e+001	-7.658876e+001	-2.874146e+001	-7.646049e+001	-5.221804e-002	2.261666e+000
16.580	-7.080111e-002	2.028619e+000	-2.882591e+001	-7.655903e+001	-2.883084e+001	-7.643075e+001	-5.179034e-002	2.240662e+000
16.770	-7.025056e-002	2.007299e+000	-2.891426e+001	-7.653399e+001	-2.891964e+001	-7.640556e+001	-5.125597e-002	2.220142e+000
16.960	-6.970508e-002	1.986915e+000	-2.900207e+001	-7.650740e+001	-2.900740e+001	-7.637727e+001	-5.074560e-002	2.199074e+000
17.150	-6.903704e-002	1.967218e+000	-2.908679e+001	-7.650842e+001	-2.909227e+001	-7.638923e+001	-5.005996e-002	2.180045e+000
17.340	-6.878180e-002	1.947536e+000	-2.917331e+001	-7.645449e+001	-2.917791e+001	-7.632510e+001	-4.981401e-002	2.159967e+000
17.530	-6.825041e-002	1.928131e+000	-2.925798e+001	-7.642503e+001	-2.926283e+001	-7.629838e+001	-4.940607e-002	2.140607e+000
17.720	-6.782866e-002	1.908882e+000	-2.934206e+001	-7.639563e+001	-2.934732e+001	-7.626893e+001	-4.884922e-002	2.121584e+000
17.909	-6.738109e-002	1.890389e+000	-2.942548e+001	-7.636847e+001	-2.943074e+001	-7.623943e+001	-4.846012e-002	2.103173e+000
18.099	-6.693314e-002	1.872121e+000	-2.950764e+001	-7.633914e+001	-2.951292e+001	-7.620946e+001	-4.800654e-002	2.085063e+000
18.289	-6.646315e-002	1.854128e+000	-2.958929e+001	-7.631217e+001	-2.959484e+001	-7.618259e+001	-4.756586e-002	2.066969e+000
18.479	-6.604777e-002	1.837041e+000	-2.966967e+001	-7.628016e+001	-2.967516e+001	-7.615161e+001	-4.713416e-002	2.049437e+000
18.669	-6.557165e-002	1.819670e+000	-2.974966e+001	-7.624998e+001	-2.975519e+001	-7.612131e+001	-4.671786e-002	2.032918e+000
18.859	-6.523835e-002	1.803145e+000	-2.982875e+001	-7.621931e+001	-2.983447e+001	-7.609062e+001	-4.637725e-002	2.015417e+000
19.082	-6.669685e-002	1.782544e+000	-2.991363e+001	-7.584565e+001	-2.992122e+001	-7.573748e+001	-4.757916e-002	1.995401e+000
19.344	-6.442836e-002	1.761328e+000	-3.002995e+001	-7.615280e+001	-3.003477e+001	-7.602482e+001	-4.527042e-002	1.973930e+000
19.606	-6.393203e-002	1.740478e+000	-3.013334e+001	-7.609265e+001	-3.013911e+001	-7.596638e+001	-4.499077e-002	1.952008e+000
19.868	-6.352229e-002	1.719136e+000	-3.023699e+001	-7.605656e+001	-3.024255e+001	-7.592540e+001	-4.451113e-002	1.931401e+000
20.130	-6.311029e-002	1.698447e+000	-3.033907e+001	-7.600753e+001	-3.034522e+001	-7.587790e+001	-4.412343e-002	1.910853e+000
20.392	-6.258249e-002	1.678288e+000	-3.044054e+001	-7.596037e+001	-3.044633e+001	-7.583156e+001	-4.373498e-002	1.890352e+000
20.655	-6.212865e-002	1.658071e+000	-3.054075e+001	-7.591385e+001	-3.054616e+001	-7.578478e+001	-4.325423e-002	1.871080e+000
20.917	-6.169899e-002	1.639041e+000	-3.063923e+001	-7.586789e+001	-3.064537e+001	-7.574035e+001	-4.285386e-002	1.851697e+000
21.179	-6.117590e-002	1.620462e+000	-3.073696e+001	-7.582123e+001	-3.074320e+001	-7.569393e+001	-4.235571e-002	1.832550e+000
21.441	-6.088692e-002	1.601902e+000	-3.083321e+001	-7.577473e+001	-3.083854e+001	-7.564405e+001	-4.192771e-002	1.814843e+000
21.703	-6.047645e-002	1.583885e+000	-3.092843e+001	-7.571948e+001	-3.093465e+001	-7.559197e+001	-4.154358e-002	1.796871e+000
21.965	-6.010054e-002	1.566325e+000	-3.102248e+001	-7.567357e+001	-3.102839e+001	-7.555223e+001	-4.107601e-002	1.778643e+000
22.228	-5.975351e-002	1.548968e+000	-3.111532e+001	-7.562157e+001	-3.112105e+001	-7.549902e+001	-4.081463e-002	1.761672e+000
22.490	-5.945870e-002	1.532226e+000	-3.120678e+001	-7.557554e+001	-3.121276e+001	-7.544604e+001	-4.030787e-002	1.744774e+000
22.752	-5.895424e-002	1.516511e+000	-3.129768e+001	-7.552360e+001	-3.130377e+001	-7.539927e+001	-3.997389e-002	1.728527e+000
23.014	-5.867220e-002	1.500598e+000	-3.138729e+001	-7.547080e+001	-3.139277e+001	-7.534752e+001	-3.961669e-002	1.712579e+000
23.276	-5.828605e-002	1.484626e+000	-3.147625e+001	-7.541955e+001	-3.148234e+001	-7.529340e+001	-3.927789e-002	1.696898e+000
23.538	-5.801488e-002	1.469194e+000	-3.156422e+001	-7.536878e+001	-3.156994e+001	-7.524045e+001	-3.893690e-002	1.681874e+000
23.801	-5.767100e-002	1.454849e+000	-3.165051e+001	-7.531773e+001	-3.165677e+001	-7.518935e+001	-3.864997e-002	1.666970e+000
24.063	-5.729973e-002	1.439724e+000	-3.173630e+001	-7.526121e+001	-3.174248e+001	-7.513381e+001	-3.826551e-002	1.652103e+000
24.325	-5.700157e-002	1.425282e+000	-3.182079e+001	-7.521254e+001	-3.182689e+001	-7.508284e+001	-3.781734e-002	1.637624e+000
24.587	-5.669808e-002	1.411076e+000	-3.190498e+001	-7.515396e+001	-3.191079e+001	-7.502718e+001	-3.760281e-002	1.623514e+000
24.849	-5.639160e-002	1.396925e+000	-3.198804e+001	-7.510366e+001	-3.199434e+001	-7.497315e+001	-3.729430e-002	1.609587e+000
25.111	-5.612016e-002	1.383304e+000	-3.207000e+001	-7.504874e+001	-3.207612e+001	-7.492058e+001	-3.708348e-002	1.596203e+000
25.374	-5.584374e-002	1.370218e+000	-3.215131e+001	-7.499231e+001	-3.215717e+001	-7.486720e+001	-3.679515e-002	1.582744e+000
25.636	-5.554406e-002	1.357546e+000	-3.223183e+001	-7.493550e+001	-3.223761e+001	-7.480878e+001	-3.657811e-002	1.570140e+000
25.898	-5.529748e-002	1.344562e+000	-3.231116e+001	-7.488150e+001	-3.231725e+001	-7.475507e+001	-3.632832e-002	1.556945e+000
26.204	-5.400272e-002	1.329970e+000	-3.241657e+001	-7.506867e+001	-3.242171e+001	-7.492296e+001	-3.494534e-002	1.542890e+000
26.564	-5.474234e-002	1.313136e+000	-3.251116e+001	-7.473952e+001	-3.251724e+001	-7.461083e+001	-3.569573e-002	1.525765e+000
26.924	-5.445524e-002	1.297138e+000	-3.261529e+001	-7.465378e+001	-3.262126e+001	-7.453134e+001	-3.540335e-002	1.509278e+000
27.284	-5.395150e-002	1.281360e+000	-3.271955e+001	-7.457773e+001	-3.272613e+001	-7.445187e+001	-3.506159e-002	1.493156e+000
27.644	-5.376577e-002	1.265751e+000	-3.282195e+001	-7.450217e+001	-3.282806e+001	-7.437657e+001	-3.476288e-002	1.477849e+000
28.004	-5.344841e-002	1.250039e+000	-3.292319e+001	-7.441713e+001	-3.292949e+001	-7.429225e+001	-3.444016e-002	1.463017e+000
28.364	-5.313383e-002	1.235457e+000	-3.302388e+001	-7.433636e+001	-3.302989e+001	-7.421375e+001	-3.417854e-002	1.447306e+000
28.724	-5.281346e-002	1.221094e+000	-3.312217e+001	-7.425983e+001	-3.312801e+001	-7.412878e+001	-3.389278e-002	1.433529e+000
29.084	-5.253230e-002	1.206879e+000	-3.321872e+001	-7.417548e+001	-3.322589e+001	-7.404708e+001	-3.360601e-002	1.419518e+000
29.444	-5.233098e-002	1.193651e+000	-3.331498e+001	-7.409218e+001	-3.332134e+001	-7.396361e+001	-3.336015e-002	1.405918e+000
29.804	-5.218343e-002	1.180922e+000	-3.340934e+001	-7.401034e+001	-3.341514e+001	-7.387797e+001	-3.306643e-002	1.393606e+000
30.164	-5.182913e-002	1.167640e+000	-3.350277e+001	-7.392701e+001	-3.350935e+001	-7.380222e+001	-3.281478e-002	1.379852e+000
30.524	-5.165023e-002	1.154510e+000	-3.359496e+001	-7.384590e+001	-3.360183e+001	-7.371522e+001	-3.254675e-002	1.366547e+000
30.884	-5.132339e-002	1.141375e+000	-3.368647e+001	-7.375437e+001	-3.369266e+001	-7.363121e+001	-3.219833e-002	1.353740e+000
31.244	-5.108722e-002	1.128542e+000	-3.377679e+001	-7.367588e+001	-3.378344e+001	-7.354602e+001	-3.201208e-002	1.341111e+000
31.605	-5.076419e-002	1.116575e+000	-3.386556e+001	-7.358779e+001	-3.387227e+001	-7.346406e+001	-3.180015e-002	1.329144e+000
31.965	-5.058162e-002	1.104617e+000	-3.395378e+001	-7.350525e+001	-3.395903e+001	-7.337353e+001	-3.155668e-002	1.317433e+000
32.325	-5.037800e-002	1.093109e+000	-3.404043e+001	-7.342119e+001	-3.404659e+001	-7.329271e+001	-3.132119e-002	1.305394e+000
32.685	-5.016730e-002	1.081776e+000	-3.412617e+001	-7.333297e+001	-3.413343e+001	-7.320553e+001	-3.112043e-002	1.294638e+000
33.045	-5.000191e-002	1.070535e+000	-3.421051e+001	-7.325015e+001	-3.421689e+001	-7.311647e+001	-3.099233e-002	1.283287e+000
33.405	-4.974159e-002	1.059564e+000	-3.429460e+001	-7.315479e+001	-3.430139e+001	-7.303539e+001	-3.071843e-002	1.272347e+000
33.765	-4.951244e-002	1.049692e+000	-3.437747e+001	-7.307565e+001	-3.438370e+001	-7.294573e+001	-3.048591e-002	1.261708e+000
34.125	-4.937129e-002	1.038773e+000	-3.445948e+001	-7.297952e+001	-3.446678e+001	-7.285673e+001	-3.026716e-002	1.250955e+000
34.485	-4.914101e-002	1.029039e+000	-3.454188e+001	-7.290279e+001	-3.454675e+001	-7.276870e+001	-3.011614e-002	1.241648e+000
34.845	-4.893787e-002	1.019116e+000	-3.462061e+001	-7.281101e+001	-3.462582e+001	-7.267940e+001	-2.995523e-002	1.230827e+000
35.205	-4.868209e-002	1.009675e+000	-3.469821e+001	-7.271964e+001	-3.470550e+001	-7.259348e+001	-2.969145e-002	1.220922e+000
35.565	-4.861011e-002	1.000023e+000	-3.477835e+001	-7.262774e+001	-3.478599e+001	-7.250396e+001	-2.954349e-002	1.212032e+000
35.985	-4.771166e-002	9.888696e-001	-3.487754e+001	-7.270822e+001	-3.488242e+001	-7.257584e+001	-2.877863e-002	1.201559e+000
36.483	-4.822326e-002	9.756742e-001	-3.497591e+001	-7.241183e+001	-3.498209e+001	-7.229568e+001	-2.912097e-002	1.188411e+000
36.980	-4.797126e-002	9.631378e-001	-3.507759e+001	-7.227535e+001	-3.508577e+001	-7.214675e+001	-2.910684e-002	1.175175e+000
37.478	-4.757312e-002	9.524491e-001	-3.517983e+001	-7.215057e+001	-3.518772e+001	-7.203008e+001	-2.887414e-002	1.163497e+000
37.975	-4.759109e-002	9.405176e-001	-3.528189e+001	-7.204193e+001	-3.528874e+001	-7.191634e+001	-2.875680e-002	1.152569e+000
38.473	-4.738831e-002	9.285985e-001	-3.538186e+001	-7.190336e+001	-3.538848e+001	-7.178151e+001	-2.861619e-002	1.141230e+000
38.970	-4.715464e-002	9.179520e-001	-3.547928e+001	-7.177667e+001	-3.548680e+001	-7.165956e+001	-2.835190e-002	1.129918e+000
39.468	-4.692294e-002	9.065520e-001	-3.557699e+001	-7.165640e+001	-3.558221e+001	-7.153929e+001	-2.809518e-002	1.118765e+000
39.965	-4.687612e-002	8.962595e-001	-3.567167e+001	-7.152714e+001	-3.567923e+001	-7.140561e+001	-2.794299e-002	1.108449e+000
40.463	-4.677593e-002	8.859535e-001	-3.576541e+001	-7.140849e+001	-3.577194e+001	-7.128362e+001	-2.783131e-002	1.098169e+000
40.960	-4.662699e-002	8.756447e-001	-3.585851e+001	-7.128743e+001	-3.586365e+001	-7.115960e+001	-2.759209e-002	1.087871e+000
41.458	-4.644509e-002	8.652959e-001	-3.594978e+001	-7.115068e+001	-3.595697e+001	-7.102431e+001	-2.744633e-002	1.077851e+000
41.955	-4.625778e-002	8.557743e-001	-3.604060e+001	-7.103008e+001	-3.604566e+001	-7.090665e+001	-2.729783e-002	1.068181e+000
42.452	-4.616840e-002	8.465459e-001	-3.612905e+001	-7.090451e+001	-3.613516e+001	-7.078356e+001	-2.718261e-002	1.059655e+000
42.950	-4.610622e-002	8.370253e-001	-3.621727e+001	-7.077708e+001	-3.622252e+001	-7.065490e+001	-2.698921e-002	1.049981e+000
43.447	-4.598804e-002	8.284559e-001	-3.630425e+001	-7.065190e+001	-3.630915e+001	-7.052619e+001	-2.685217e-002	1.041223e+000
43.945	-4.570198e-002	8.193988e-001	-3.638839e+001	-7.052252e+001	-3.639543e+001	-7.040245e+001	-2.675708e-002	1.032262e+000
44.442	-4.551018e-002	8.109221e-001	-3.647266e+001	-7.040527e+001	-3.647951e+001	-7.027448e+001	-2.658761e-002	1.023360e+000
44.940	-4.546414e-002	8.026774e-001	-3.655590e+001	-7.027310e+001	-3.656291e+001	-7.014772e+001	-2.638934e-002	1.015203e+000
45.437	-4.532580e-002	7.944065e-001	-3.663935e+001	-7.014637e+001	-3.664648e+001	-7.002287e+001	-2.640193e-002	1.006906e+000
45.935	-4.521272e-002	7.864011e-001	-3.672041e+001	-7.001484e+001	-3.672633e+001	-6.989394e+001	-2.630517e-002	9.981366e-001
46.432	-4.506712e-002	7.781444e-001	-3.679912e+001	-6.988793e+001	-3.680697e+001	-6.977302e+001	-2.609656e-002	9.905618e-001
46.930	-4.503406e-002	7.702786e-001	-3.687847e+001	-6.976483e+001	-3.688644e+001	-6.963503e+001	-2.607441e-002	9.833759e-001
47.427	-4.489662e-002	7.631260e-001	-3.695816e+001	-6.964618e+001	-3.696345e+001	-6.951001e+001	-2.593384e-002	9.752463e-001
47.925	-4.475492e-002	7.554087e-001	-3.703596e+001	-6.950841e+001	-3.703861e+001	-6.939186e+001	-2.573951e-002	9.687183e-001
48.422	-4.468112e-002	7.484696e-001	-3.711046e+001	-6.938360e+001	-3.711859e+001	-6.927070e+001	-2.559396e-002	9.607692e-001
48.920	-4.451489e-002	7.419241e-001	-3.718693e+001	-6.926567e+001	-3.719188e+001	-6.912392e+001	-2.554983e-002	9.534397e-001
49.417	-4.439446e-002	7.350606e-001	-3.726029e+001	-6.911929e+001	-3.726727e+001	-6.901940e+001	-2.539526e-002	9.467109e-001
50.001	-4.411173e-002	7.260600e-001	-3.735566e+001	-6.902208e+001	-3.735851e+001	-6.891697e+001	-2.508946e-002	9.390839e-001
50.688	-4.403745e-002	7.170321e-001	-3.744631e+001	-6.880085e+001	-3.745088e+001	-6.870866e+001	-2.507201e-002	9.292585e-001
51.375	-4.393975e-002	7.075761e-001	-3.754467e+001	-6.863067e+001	-3.755362e+001	-6.853471e+001	-2.497058e-002	9.200030e-001
52.062	-4.380202e-002	6.997999e-001	-3.763808e+001	-6.847561e+001	-3.765170e+001	-6.832322e+001	-2.479120e-002	9.119420e-001
52.749	-4.376464e-002	6.915717e-001	-3.773938e+001	-6.830169e+001	-3.774143e+001	-6.813704e+001	-2.473858e-002	9.037521e-001
53.436	-4.354151e-002	6.822850e-001	-3.783223e+001	-6.810204e+001	-3.783278e+001	-6.801923e+001	-2.453662e-002	8.951910e-001
54.123	-4.340445e-002	6.761305e-001	-3.791961e+001	-6.795336e+001	-3.793499e+001	-6.779851e+001	-2.442329e-002	8.863600e-001
54.810	-4.347444e-002	6.673290e-001	-3.801780e+001	-6.775088e+001	-3.801304e+001	-6.765461e+001	-2.429216e-002	8.794675e-001
55.497	-4.324851e-002	6.603214e-001	-3.809997e+001	-6.762048e+001	-3.811603e+001	-6.745100e+001	-2.417064e-002	8.712621e-001
56.184	-4.318478e-002	6.518339e-001	-3.819261e+001	-6.739214e+001	-3.819245e+001	-6.734682e+001	-2.398272e-002	8.649921e-001
56.871	-4.304997e-002	6.448907e-001	-3.828208e+001	-6.728042e+001	-3.827912e+001	-6.707909e+001	-2.412334e-002	8.568310e-001
57.558	-4.288073e-002	6.377515e-001	-3.835834e+001	-6.710525e+001	-3.837710e+001	-6.691893e+001	-2.389521e-002	8.495802e-001
58.245	-4.278974e-002	6.306596e-001	-3.844084e+001	-6.690173e+001	-3.845927e+001	-6.683183e+001	-2.362386e-002	8.424760e-001
58.932	-4.277053e-002	6.234755e-001	-3.852897e+001	-6.671210e+001	-3.853581e+001	-6.668276e+001	-2.360103e-002	8.362847e-001
59.619	-4.257087e-002	6.166991e-001	-3.861218e+001	-6.653534e+001	-3.861286e+001	-6.649137e+001	-2.354302e-002	8.308306e-001
60.306	-4.263266e-002	6.103717e-001	-3.869241e+001	-6.636381e+001	-3.869185e+001	-6.633108e+001	-2.354327e-002	8.241083e-001
60.993	-4.252094e-002	6.040327e-001	-3.876916e+001	-6.619013e+001	-3.877467e+001	-6.616653e+001	-2.340217e-002	8.181415e-001
61.680	-4.235034e-002	5.976319e-001	-3.884449e+001	-6.604142e+001	-3.885962e+001	-6.598718e+001	-2.314076e-002	8.108535e-001
62.367	-4.230332e-002	5.913285e-001	-3.892190e+001	-6.592295e+001	-3.894001e+001	-6.575822e+001	-2.327894e-002	8.039327e-001
63.054	-4.223200e-002	5.854089e-001	-3.900423e+001	-6.574685e+001	-3.900309e+001	-6.554467e+001	-2.324416e-002	7.987351e-001
