!Agilent Technologies,E5061B,MY49204007,A.02.12
!Date: Wed Jul 23 12:10:58 2025
!Data & Calibration Information:
!Freq	S11:SOLT2(ON)	S21:SOLT2(ON)	S12:SOLT2(ON)	S22:SOLT2(ON)
# Hz S dB R 50
10.000	-9.996250e-002	3.210966e+000	-2.488973e+001	-7.715402e+001	-2.489573e+001	-7.704307e+001	-8.067872e-002	3.428485e+000
10.137	-9.870555e-002	3.168818e+000	-2.500777e+001	-7.716854e+001	-2.501237e+001	-7.704516e+001	-7.949837e-002	3.384824e+000
10.275	-9.767840e-002	3.128643e+000	-2.511560e+001	-7.716304e+001	-2.511921e+001	-7.704301e+001	-7.845334e-002	3.345074e+000
10.412	-9.664156e-002	3.090060e+000	-2.522075e+001	-7.716126e+001	-2.522393e+001	-7.703883e+001	-7.745730e-002	3.306777e+000
10.550	-9.568453e-002	3.053421e+000	-2.532352e+001	-7.715991e+001	-2.532656e+001	-7.703766e+001	-7.649712e-002	3.270039e+000
10.687	-9.478177e-002	3.017699e+000	-2.542388e+001	-7.715823e+001	-2.542717e+001	-7.703515e+001	-7.557082e-002	3.234414e+000
10.824	-9.395355e-002	2.983446e+000	-2.552284e+001	-7.715774e+001	-2.552678e+001	-7.703585e+001	-7.468469e-002	3.199174e+000
10.962	-9.297516e-002	2.949090e+000	-2.562156e+001	-7.715164e+001	-2.562511e+001	-7.702398e+001	-7.379587e-002	3.166015e+000
11.099	-9.232906e-002	2.916523e+000	-2.571700e+001	-7.714400e+001	-2.572065e+001	-7.702431e+001	-7.284950e-002	3.133149e+000
11.237	-9.145583e-002	2.884307e+000	-2.581297e+001	-7.713692e+001	-2.581610e+001	-7.701171e+001	-7.208647e-002	3.100765e+000
11.374	-9.054982e-002	2.852886e+000	-2.590702e+001	-7.713582e+001	-2.591062e+001	-7.700679e+001	-7.129787e-002	3.069114e+000
11.511	-8.981006e-002	2.822479e+000	-2.599968e+001	-7.712865e+001	-2.600338e+001	-7.700262e+001	-7.050820e-002	3.038427e+000
11.649	-8.900085e-002	2.792204e+000	-2.609133e+001	-7.712082e+001	-2.609506e+001	-7.699228e+001	-6.975220e-002	3.009230e+000
11.786	-8.836847e-002	2.762766e+000	-2.618183e+001	-7.710982e+001	-2.618535e+001	-7.698521e+001	-6.903441e-002	2.979543e+000
11.924	-8.767489e-002	2.734268e+000	-2.627061e+001	-7.710038e+001	-2.627409e+001	-7.697800e+001	-6.826914e-002	2.950945e+000
12.061	-8.678614e-002	2.706476e+000	-2.635980e+001	-7.709702e+001	-2.636341e+001	-7.697027e+001	-6.749928e-002	2.922799e+000
12.198	-8.618868e-002	2.678937e+000	-2.644661e+001	-7.708278e+001	-2.644997e+001	-7.696138e+001	-6.676072e-002	2.895905e+000
12.336	-8.554012e-002	2.651707e+000	-2.653336e+001	-7.707371e+001	-2.653689e+001	-7.694844e+001	-6.611915e-002	2.868350e+000
12.473	-8.483646e-002	2.625279e+000	-2.661931e+001	-7.706615e+001	-2.662271e+001	-7.693889e+001	-6.542296e-002	2.842401e+000
12.611	-8.415080e-002	2.599414e+000	-2.670375e+001	-7.705735e+001	-2.670734e+001	-7.692955e+001	-6.474539e-002	2.816232e+000
12.748	-8.355415e-002	2.574240e+000	-2.678731e+001	-7.704458e+001	-2.679069e+001	-7.691959e+001	-6.409552e-002	2.790837e+000
12.885	-8.301492e-002	2.549814e+000	-2.686960e+001	-7.703343e+001	-2.687327e+001	-7.690973e+001	-6.340017e-002	2.766074e+000
13.023	-8.234449e-002	2.526043e+000	-2.695142e+001	-7.702650e+001	-2.695564e+001	-7.690133e+001	-6.278472e-002	2.742199e+000
13.160	-8.186489e-002	2.501905e+000	-2.703306e+001	-7.700945e+001	-2.703672e+001	-7.688616e+001	-6.226371e-002	2.718090e+000
13.298	-8.122261e-002	2.478818e+000	-2.711313e+001	-7.700391e+001	-2.711723e+001	-7.687686e+001	-6.173319e-002	2.694853e+000
13.435	-8.053839e-002	2.455828e+000	-2.719214e+001	-7.699075e+001	-2.719619e+001	-7.686772e+001	-6.122941e-002	2.672313e+000
13.572	-8.003635e-002	2.433677e+000	-2.727052e+001	-7.697608e+001	-2.727511e+001	-7.685312e+001	-6.077575e-002	2.650133e+000
13.733	-8.027089e-002	2.407173e+000	-2.735961e+001	-7.683888e+001	-2.736731e+001	-7.691108e+001	-5.963729e-002	2.624407e+000
13.923	-7.873842e-002	2.377911e+000	-2.746773e+001	-7.694421e+001	-2.747269e+001	-7.682188e+001	-5.945246e-002	2.595171e+000
14.112	-7.790337e-002	2.348910e+000	-2.757350e+001	-7.692426e+001	-2.757801e+001	-7.679974e+001	-5.877854e-002	2.565846e+000
14.302	-7.721749e-002	2.321154e+000	-2.767632e+001	-7.691076e+001	-2.768089e+001	-7.678531e+001	-5.801805e-002	2.537915e+000
14.492	-7.649555e-002	2.293311e+000	-2.777808e+001	-7.688575e+001	-2.778295e+001	-7.676255e+001	-5.741885e-002	2.510389e+000
14.682	-7.585409e-002	2.266591e+000	-2.787902e+001	-7.686468e+001	-2.788371e+001	-7.674087e+001	-5.675667e-002	2.483449e+000
14.872	-7.517117e-002	2.240233e+000	-2.797880e+001	-7.684347e+001	-2.798330e+001	-7.672212e+001	-5.612284e-002	2.457187e+000
15.062	-7.454976e-002	2.214861e+000	-2.807717e+001	-7.682734e+001	-2.808171e+001	-7.670283e+001	-5.545233e-002	2.431967e+000
15.251	-7.393060e-002	2.189562e+000	-2.817479e+001	-7.680273e+001	-2.817952e+001	-7.667779e+001	-5.487290e-002	2.406541e+000
15.441	-7.332198e-002	2.164948e+000	-2.827036e+001	-7.678537e+001	-2.827545e+001	-7.665960e+001	-5.430142e-002	2.381852e+000
15.631	-7.279320e-002	2.141436e+000	-2.836500e+001	-7.676138e+001	-2.836985e+001	-7.663760e+001	-5.377169e-002	2.358199e+000
15.821	-7.214770e-002	2.118113e+000	-2.845871e+001	-7.673854e+001	-2.846333e+001	-7.661500e+001	-5.313362e-002	2.334855e+000
16.011	-7.159678e-002	2.095497e+000	-2.855141e+001	-7.671520e+001	-2.855663e+001	-7.659210e+001	-5.255944e-002	2.311710e+000
16.201	-7.112532e-002	2.073001e+000	-2.864310e+001	-7.668784e+001	-2.864822e+001	-7.656446e+001	-5.213890e-002	2.290231e+000
16.391	-7.055060e-002	2.051214e+000	-2.873350e+001	-7.666814e+001	-2.873848e+001	-7.654399e+001	-5.158091e-002	2.268043e+000
16.580	-7.011556e-002	2.030054e+000	-2.882273e+001	-7.664085e+001	-2.882792e+001	-7.651560e+001	-5.104583e-002	2.246637e+000
16.770	-6.954061e-002	2.009279e+000	-2.891121e+001	-7.661299e+001	-2.891633e+001	-7.649083e+001	-5.055859e-002	2.225921e+000
16.960	-6.907718e-002	1.987818e+000	-2.899887e+001	-7.658859e+001	-2.900419e+001	-7.646401e+001	-5.010048e-002	2.205651e+000
17.150	-6.842932e-002	1.968806e+000	-2.908377e+001	-7.659274e+001	-2.908925e+001	-7.647540e+001	-4.938509e-002	2.186641e+000
17.340	-6.811871e-002	1.948747e+000	-2.916980e+001	-7.653903e+001	-2.917488e+001	-7.641576e+001	-4.907342e-002	2.166106e+000
17.530	-6.761289e-002	1.929655e+000	-2.925473e+001	-7.651153e+001	-2.926000e+001	-7.638859e+001	-4.852568e-002	2.146100e+000
17.720	-6.710614e-002	1.910402e+000	-2.933921e+001	-7.648336e+001	-2.934474e+001	-7.636095e+001	-4.813341e-002	2.127324e+000
17.909	-6.674781e-002	1.891819e+000	-2.942229e+001	-7.645657e+001	-2.942737e+001	-7.633372e+001	-4.765676e-002	2.109027e+000
18.099	-6.634355e-002	1.873601e+000	-2.950466e+001	-7.642989e+001	-2.950976e+001	-7.630465e+001	-4.713862e-002	2.090998e+000
18.289	-6.588469e-002	1.855640e+000	-2.958638e+001	-7.639927e+001	-2.959154e+001	-7.627733e+001	-4.674940e-002	2.073031e+000
18.479	-6.537730e-002	1.838158e+000	-2.966622e+001	-7.637395e+001	-2.967165e+001	-7.624882e+001	-4.633302e-002	2.055659e+000
18.669	-6.507681e-002	1.821310e+000	-2.974646e+001	-7.634157e+001	-2.975152e+001	-7.621809e+001	-4.582083e-002	2.038374e+000
18.859	-6.472811e-002	1.804307e+000	-2.982540e+001	-7.631252e+001	-2.983062e+001	-7.619129e+001	-4.550515e-002	2.021396e+000
19.082	-6.602873e-002	1.784019e+000	-2.991058e+001	-7.594243e+001	-2.991783e+001	-7.583798e+001	-4.677732e-002	2.001060e+000
19.344	-6.373846e-002	1.762641e+000	-3.002630e+001	-7.624897e+001	-3.003120e+001	-7.612572e+001	-4.452675e-002	1.979304e+000
19.606	-6.330066e-002	1.741821e+000	-3.012963e+001	-7.619134e+001	-3.013582e+001	-7.606872e+001	-4.412205e-002	1.957915e+000
19.868	-6.297337e-002	1.720751e+000	-3.023356e+001	-7.615390e+001	-3.023914e+001	-7.602976e+001	-4.360991e-002	1.936349e+000
20.130	-6.247065e-002	1.700036e+000	-3.033561e+001	-7.610540e+001	-3.034118e+001	-7.598454e+001	-4.324917e-002	1.916517e+000
20.392	-6.199875e-002	1.679626e+000	-3.043687e+001	-7.606169e+001	-3.044302e+001	-7.593909e+001	-4.285595e-002	1.896057e+000
20.655	-6.154135e-002	1.659811e+000	-3.053678e+001	-7.601700e+001	-3.054238e+001	-7.589596e+001	-4.242573e-002	1.876579e+000
20.917	-6.113075e-002	1.640761e+000	-3.063572e+001	-7.597576e+001	-3.064123e+001	-7.585342e+001	-4.197997e-002	1.857653e+000
21.179	-6.062120e-002	1.622106e+000	-3.073347e+001	-7.592815e+001	-3.073898e+001	-7.580622e+001	-4.155086e-002	1.838646e+000
21.441	-6.028783e-002	1.603590e+000	-3.082917e+001	-7.587976e+001	-3.083452e+001	-7.575857e+001	-4.107263e-002	1.820559e+000
21.703	-5.989144e-002	1.585209e+000	-3.092415e+001	-7.583054e+001	-3.093011e+001	-7.570897e+001	-4.069620e-002	1.802997e+000
21.965	-5.947458e-002	1.567893e+000	-3.101842e+001	-7.578571e+001	-3.102408e+001	-7.566336e+001	-4.031523e-002	1.784769e+000
22.228	-5.909714e-002	1.550924e+000	-3.111086e+001	-7.573685e+001	-3.111714e+001	-7.561190e+001	-3.996114e-002	1.768140e+000
22.490	-5.883325e-002	1.534304e+000	-3.120258e+001	-7.568984e+001	-3.120844e+001	-7.556478e+001	-3.957772e-002	1.751096e+000
22.752	-5.837836e-002	1.517845e+000	-3.129327e+001	-7.564226e+001	-3.129971e+001	-7.551956e+001	-3.920386e-002	1.734635e+000
23.014	-5.820958e-002	1.501632e+000	-3.138301e+001	-7.558814e+001	-3.138895e+001	-7.546556e+001	-3.886955e-002	1.718643e+000
23.276	-5.776365e-002	1.486008e+000	-3.147174e+001	-7.554035e+001	-3.147806e+001	-7.541837e+001	-3.848632e-002	1.703192e+000
23.538	-5.739986e-002	1.470668e+000	-3.155959e+001	-7.548847e+001	-3.156564e+001	-7.536574e+001	-3.817146e-002	1.688160e+000
23.801	-5.713378e-002	1.455338e+000	-3.164630e+001	-7.543857e+001	-3.165254e+001	-7.531622e+001	-3.792720e-002	1.673179e+000
24.063	-5.678549e-002	1.441124e+000	-3.173214e+001	-7.538649e+001	-3.173756e+001	-7.526581e+001	-3.753389e-002	1.658350e+000
24.325	-5.638671e-002	1.426288e+000	-3.181579e+001	-7.533933e+001	-3.182221e+001	-7.521566e+001	-3.717137e-002	1.643892e+000
24.587	-5.619561e-002	1.412703e+000	-3.190041e+001	-7.528135e+001	-3.190585e+001	-7.516191e+001	-3.678786e-002	1.629389e+000
24.849	-5.582583e-002	1.398502e+000	-3.198313e+001	-7.523258e+001	-3.198914e+001	-7.510969e+001	-3.657218e-002	1.615764e+000
25.111	-5.547936e-002	1.384793e+000	-3.206473e+001	-7.517831e+001	-3.207127e+001	-7.505549e+001	-3.629590e-002	1.602774e+000
25.374	-5.517493e-002	1.371404e+000	-3.214641e+001	-7.512507e+001	-3.215241e+001	-7.500368e+001	-3.608287e-002	1.589228e+000
25.636	-5.492719e-002	1.358758e+000	-3.222674e+001	-7.507242e+001	-3.223278e+001	-7.494901e+001	-3.578674e-002	1.576229e+000
25.898	-5.467105e-002	1.346367e+000	-3.230603e+001	-7.501864e+001	-3.231212e+001	-7.489410e+001	-3.550594e-002	1.563428e+000
26.204	-5.344749e-002	1.331157e+000	-3.241131e+001	-7.520390e+001	-3.241645e+001	-7.506463e+001	-3.423478e-002	1.548320e+000
26.564	-5.410866e-002	1.314475e+000	-3.250556e+001	-7.487462e+001	-3.251250e+001	-7.475969e+001	-3.478485e-002	1.531370e+000
26.924	-5.382003e-002	1.298818e+000	-3.260980e+001	-7.479674e+001	-3.261625e+001	-7.467570e+001	-3.452876e-002	1.515950e+000
27.284	-5.334655e-002	1.282474e+000	-3.271399e+001	-7.472356e+001	-3.272021e+001	-7.460255e+001	-3.425943e-002	1.500110e+000
27.644	-5.313763e-002	1.266697e+000	-3.281688e+001	-7.465084e+001	-3.282294e+001	-7.452804e+001	-3.393440e-002	1.484403e+000
28.004	-5.282991e-002	1.251073e+000	-3.291740e+001	-7.456703e+001	-3.292341e+001	-7.444648e+001	-3.358105e-002	1.468742e+000
28.364	-5.248057e-002	1.236593e+000	-3.301750e+001	-7.449071e+001	-3.302429e+001	-7.436844e+001	-3.322010e-002	1.453625e+000
28.724	-5.219692e-002	1.221834e+000	-3.311522e+001	-7.441220e+001	-3.312177e+001	-7.428819e+001	-3.288944e-002	1.439158e+000
29.084	-5.195033e-002	1.208290e+000	-3.321325e+001	-7.433279e+001	-3.321913e+001	-7.420965e+001	-3.269258e-002	1.425504e+000
29.444	-5.166270e-002	1.194651e+000	-3.330865e+001	-7.424904e+001	-3.331425e+001	-7.412512e+001	-3.238366e-002	1.412282e+000
29.804	-5.156114e-002	1.181708e+000	-3.340245e+001	-7.417236e+001	-3.340933e+001	-7.404966e+001	-3.219502e-002	1.399614e+000
30.164	-5.119745e-002	1.168497e+000	-3.349703e+001	-7.409162e+001	-3.350321e+001	-7.396967e+001	-3.190495e-002	1.386304e+000
30.524	-5.096129e-002	1.155544e+000	-3.358886e+001	-7.400664e+001	-3.359449e+001	-7.388113e+001	-3.168348e-002	1.373549e+000
30.884	-5.067572e-002	1.142696e+000	-3.367971e+001	-7.392466e+001	-3.368598e+001	-7.380341e+001	-3.134638e-002	1.360206e+000
31.244	-5.043530e-002	1.130194e+000	-3.377046e+001	-7.384171e+001	-3.377581e+001	-7.372369e+001	-3.110058e-002	1.347206e+000
31.605	-5.025316e-002	1.118163e+000	-3.385992e+001	-7.376432e+001	-3.386538e+001	-7.364024e+001	-3.089407e-002	1.334903e+000
31.965	-5.007273e-002	1.105789e+000	-3.394568e+001	-7.367442e+001	-3.395273e+001	-7.355378e+001	-3.062286e-002	1.323646e+000
32.325	-4.980722e-002	1.094174e+000	-3.403301e+001	-7.359198e+001	-3.403831e+001	-7.347458e+001	-3.043555e-002	1.312010e+000
32.685	-4.958119e-002	1.083265e+000	-3.411933e+001	-7.351629e+001	-3.412558e+001	-7.338612e+001	-3.024040e-002	1.300896e+000
33.045	-4.943773e-002	1.072157e+000	-3.420415e+001	-7.342573e+001	-3.420994e+001	-7.329816e+001	-2.999127e-002	1.289357e+000
33.405	-4.921059e-002	1.061407e+000	-3.428771e+001	-7.334599e+001	-3.429384e+001	-7.322294e+001	-2.980603e-002	1.279035e+000
33.765	-4.896155e-002	1.051016e+000	-3.437130e+001	-7.325689e+001	-3.437684e+001	-7.312924e+001	-2.963796e-002	1.268327e+000
34.125	-4.865940e-002	1.039991e+000	-3.445230e+001	-7.317558e+001	-3.445855e+001	-7.305349e+001	-2.951501e-002	1.257535e+000
34.485	-4.857277e-002	1.030306e+000	-3.453233e+001	-7.308331e+001	-3.453809e+001	-7.296724e+001	-2.932244e-002	1.248236e+000
34.845	-4.825488e-002	1.020431e+000	-3.461273e+001	-7.299914e+001	-3.461857e+001	-7.287722e+001	-2.915252e-002	1.237911e+000
35.205	-4.802386e-002	1.011459e+000	-3.469255e+001	-7.292342e+001	-3.469905e+001	-7.279694e+001	-2.888943e-002	1.228194e+000
35.565	-4.797709e-002	1.001705e+000	-3.477097e+001	-7.282752e+001	-3.477641e+001	-7.270857e+001	-2.871859e-002	1.218563e+000
35.985	-4.713596e-002	9.908254e-001	-3.486779e+001	-7.292363e+001	-3.487239e+001	-7.279016e+001	-2.802523e-002	1.207862e+000
36.483	-4.746909e-002	9.779691e-001	-3.496743e+001	-7.262406e+001	-3.497455e+001	-7.250096e+001	-2.832628e-002	1.195454e+000
36.980	-4.734454e-002	9.655639e-001	-3.506908e+001	-7.248771e+001	-3.507664e+001	-7.236982e+001	-2.821529e-002	1.182984e+000
37.478	-4.701403e-002	9.533755e-001	-3.517187e+001	-7.236865e+001	-3.517906e+001	-7.225154e+001	-2.794329e-002	1.171366e+000
37.975	-4.698486e-002	9.418080e-001	-3.527311e+001	-7.224813e+001	-3.527946e+001	-7.213222e+001	-2.786343e-002	1.159086e+000
38.473	-4.669977e-002	9.305322e-001	-3.537227e+001	-7.212536e+001	-3.537782e+001	-7.200524e+001	-2.765153e-002	1.148451e+000
38.970	-4.649639e-002	9.192758e-001	-3.547163e+001	-7.200100e+001	-3.547749e+001	-7.188665e+001	-2.741800e-002	1.136728e+000
39.468	-4.640068e-002	9.088217e-001	-3.556679e+001	-7.187410e+001	-3.557309e+001	-7.176090e+001	-2.732214e-002	1.125638e+000
39.965	-4.617295e-002	8.979445e-001	-3.566240e+001	-7.176430e+001	-3.566918e+001	-7.164985e+001	-2.716382e-002	1.115083e+000
40.463	-4.608980e-002	8.876519e-001	-3.575496e+001	-7.163753e+001	-3.576211e+001	-7.151772e+001	-2.698388e-002	1.105244e+000
40.960	-4.596228e-002	8.769106e-001	-3.584965e+001	-7.152431e+001	-3.585430e+001	-7.139318e+001	-2.686344e-002	1.095016e+000
41.458	-4.573285e-002	8.674289e-001	-3.594036e+001	-7.139340e+001	-3.594687e+001	-7.128108e+001	-2.667228e-002	1.084798e+000
41.955	-4.570082e-002	8.569312e-001	-3.602985e+001	-7.128175e+001	-3.603584e+001	-7.116032e+001	-2.635668e-002	1.074845e+000
42.452	-4.548852e-002	8.482976e-001	-3.611785e+001	-7.115326e+001	-3.612438e+001	-7.103058e+001	-2.627685e-002	1.065730e+000
42.950	-4.541905e-002	8.391154e-001	-3.620690e+001	-7.102786e+001	-3.621228e+001	-7.090430e+001	-2.620383e-002	1.057025e+000
43.447	-4.523689e-002	8.301515e-001	-3.629332e+001	-7.090816e+001	-3.629833e+001	-7.078496e+001	-2.603717e-002	1.047585e+000
43.945	-4.513856e-002	8.209087e-001	-3.637773e+001	-7.078650e+001	-3.638322e+001	-7.065808e+001	-2.588689e-002	1.039359e+000
44.442	-4.490347e-002	8.128855e-001	-3.646202e+001	-7.066451e+001	-3.646972e+001	-7.054310e+001	-2.570667e-002	1.030800e+000
44.940	-4.491280e-002	8.046214e-001	-3.654485e+001	-7.053436e+001	-3.655210e+001	-7.042246e+001	-2.559606e-002	1.021991e+000
45.437	-4.466700e-002	7.964437e-001	-3.662713e+001	-7.041477e+001	-3.663357e+001	-7.030316e+001	-2.546027e-002	1.014372e+000
45.935	-4.462793e-002	7.885247e-001	-3.670852e+001	-7.028503e+001	-3.671399e+001	-7.017609e+001	-2.535149e-002	1.005730e+000
46.432	-4.451353e-002	7.800542e-001	-3.678704e+001	-7.016583e+001	-3.679481e+001	-7.005982e+001	-2.523875e-002	9.977430e-001
46.930	-4.434552e-002	7.723281e-001	-3.686626e+001	-7.004737e+001	-3.687521e+001	-6.993112e+001	-2.512510e-002	9.894259e-001
47.427	-4.432674e-002	7.658762e-001	-3.694551e+001	-6.993033e+001	-3.695190e+001	-6.979253e+001	-2.501245e-002	9.821314e-001
47.925	-4.410893e-002	7.580086e-001	-3.702486e+001	-6.980168e+001	-3.702778e+001	-6.967824e+001	-2.488013e-002	9.744378e-001
48.422	-4.397873e-002	7.509036e-001	-3.709793e+001	-6.967426e+001	-3.710531e+001	-6.956199e+001	-2.481478e-002	9.674682e-001
48.920	-4.387770e-002	7.437374e-001	-3.717437e+001	-6.956630e+001	-3.718063e+001	-6.942754e+001	-2.474052e-002	9.607491e-001
49.417	-4.377853e-002	7.370071e-001	-3.724720e+001	-6.942538e+001	-3.725298e+001	-6.931572e+001	-2.456224e-002	9.536686e-001
50.001	-4.361224e-002	7.283429e-001	-3.734274e+001	-6.931636e+001	-3.734526e+001	-6.921062e+001	-2.423840e-002	9.453196e-001
50.688	-4.349617e-002	7.196714e-001	-3.743314e+001	-6.910505e+001	-3.743527e+001	-6.901784e+001	-2.411571e-002	9.371374e-001
51.375	-4.345640e-002	7.103137e-001	-3.753016e+001	-6.894035e+001	-3.753862e+001	-6.885157e+001	-2.393184e-002	9.278253e-001
52.062	-4.328446e-002	7.019207e-001	-3.762557e+001	-6.880344e+001	-3.763862e+001	-6.867106e+001	-2.380353e-002	9.185268e-001
52.749	-4.301926e-002	6.941581e-001	-3.772551e+001	-6.863620e+001	-3.772957e+001	-6.846310e+001	-2.379745e-002	9.102036e-001
53.436	-4.302913e-002	6.845879e-001	-3.781951e+001	-6.841110e+001	-3.781722e+001	-6.833941e+001	-2.361630e-002	9.032661e-001
54.123	-4.280657e-002	6.772621e-001	-3.790370e+001	-6.829730e+001	-3.792099e+001	-6.816321e+001	-2.353144e-002	8.941683e-001
54.810	-4.283253e-002	6.692518e-001	-3.800577e+001	-6.809496e+001	-3.799871e+001	-6.797703e+001	-2.357350e-002	8.873188e-001
55.497	-4.256544e-002	6.628109e-001	-3.808238e+001	-6.796814e+001	-3.810169e+001	-6.782369e+001	-2.320882e-002	8.782393e-001
56.184	-4.255720e-002	6.530578e-001	-3.817742e+001	-6.772526e+001	-3.817437e+001	-6.768747e+001	-2.308288e-002	8.717580e-001
56.871	-4.245542e-002	6.471114e-001	-3.826861e+001	-6.764980e+001	-3.826764e+001	-6.742924e+001	-2.322700e-002	8.637719e-001
57.558	-4.238899e-002	6.406123e-001	-3.834083e+001	-6.748321e+001	-3.836123e+001	-6.731445e+001	-2.301144e-002	8.570690e-001
58.245	-4.238466e-002	6.336240e-001	-3.842286e+001	-6.723881e+001	-3.843951e+001	-6.721496e+001	-2.285272e-002	8.501543e-001
58.932	-4.206350e-002	6.253709e-001	-3.851064e+001	-6.705573e+001	-3.851349e+001	-6.705115e+001	-2.282964e-002	8.439240e-001
59.619	-4.205983e-002	6.196830e-001	-3.859757e+001	-6.688862e+001	-3.859172e+001	-6.686978e+001	-2.269871e-002	8.386365e-001
60.306	-4.205319e-002	6.125695e-001	-3.867682e+001	-6.671934e+001	-3.867155e+001	-6.669317e+001	-2.259533e-002	8.310393e-001
60.993	-4.197209e-002	6.065065e-001	-3.875126e+001	-6.655995e+001	-3.875327e+001	-6.654806e+001	-2.249375e-002	8.249836e-001
61.680	-4.181523e-002	6.008118e-001	-3.882459e+001	-6.642911e+001	-3.883921e+001	-6.640053e+001	-2.239913e-002	8.174130e-001
62.367	-4.170417e-002	5.953105e-001	-3.890040e+001	-6.633936e+001	-3.892189e+001	-6.618521e+001	-2.243268e-002	8.109930e-001
63.054	-4.158788e-002	5.881777e-001	-3.899028e+001	-6.616749e+001	-3.899066e+001	-6.595137e+001	-2.237398e-002	8.060236e-001
