!Agilent Technologies,E5061B,MY49204007,A.02.12
!Date: Wed Jul 23 12:13:16 2025
!Data & Calibration Information:
!Freq	S11:SOLT2(ON)	S21:SOLT2(ON)	S12:SOLT2(ON)	S22:SOLT2(ON)
# Hz S dB R 50
10.000	-6.501360e-002	3.219105e+000	-2.495375e+001	-8.114962e+001	-2.495902e+001	-8.103881e+001	-4.562700e-002	3.438775e+000
10.137	-6.380193e-002	3.176081e+000	-2.507325e+001	-8.122078e+001	-2.507759e+001	-8.109593e+001	-4.448264e-002	3.394810e+000
10.275	-6.272248e-002	3.135930e+000	-2.518256e+001	-8.126434e+001	-2.518587e+001	-8.114376e+001	-4.347557e-002	3.354842e+000
10.412	-6.163162e-002	3.097293e+000	-2.528957e+001	-8.131527e+001	-2.529208e+001	-8.119087e+001	-4.246191e-002	3.315842e+000
10.550	-6.074929e-002	3.060523e+000	-2.539369e+001	-8.136157e+001	-2.539611e+001	-8.123635e+001	-4.150721e-002	3.278876e+000
10.687	-5.990210e-002	3.024376e+000	-2.549599e+001	-8.140821e+001	-2.549816e+001	-8.128632e+001	-4.050693e-002	3.243242e+000
10.824	-5.900382e-002	2.990033e+000	-2.559608e+001	-8.145746e+001	-2.559926e+001	-8.133439e+001	-3.956829e-002	3.207935e+000
10.962	-5.802392e-002	2.955324e+000	-2.569663e+001	-8.150176e+001	-2.569918e+001	-8.137397e+001	-3.874887e-002	3.173957e+000
11.099	-5.730017e-002	2.922807e+000	-2.579331e+001	-8.154277e+001	-2.579616e+001	-8.142069e+001	-3.792691e-002	3.141586e+000
11.237	-5.639892e-002	2.890208e+000	-2.589065e+001	-8.158331e+001	-2.589312e+001	-8.145784e+001	-3.717190e-002	3.109237e+000
11.374	-5.557133e-002	2.858819e+000	-2.598638e+001	-8.163052e+001	-2.598911e+001	-8.150144e+001	-3.635748e-002	3.077359e+000
11.511	-5.476478e-002	2.827575e+000	-2.608020e+001	-8.167213e+001	-2.608337e+001	-8.154493e+001	-3.555064e-002	3.046861e+000
11.649	-5.395452e-002	2.797953e+000	-2.617343e+001	-8.171378e+001	-2.617662e+001	-8.158444e+001	-3.475587e-002	3.016504e+000
11.786	-5.326980e-002	2.768202e+000	-2.626555e+001	-8.175136e+001	-2.626835e+001	-8.162429e+001	-3.408192e-002	2.987448e+000
11.924	-5.266376e-002	2.740125e+000	-2.635603e+001	-8.178871e+001	-2.635858e+001	-8.166567e+001	-3.328596e-002	2.958429e+000
12.061	-5.175490e-002	2.711639e+000	-2.644644e+001	-8.183356e+001	-2.644937e+001	-8.170474e+001	-3.257503e-002	2.930310e+000
12.198	-5.123367e-002	2.683883e+000	-2.653438e+001	-8.186851e+001	-2.653738e+001	-8.174546e+001	-3.185434e-002	2.902879e+000
12.336	-5.056005e-002	2.656497e+000	-2.662309e+001	-8.190650e+001	-2.662576e+001	-8.178011e+001	-3.114995e-002	2.875698e+000
12.473	-4.984168e-002	2.629724e+000	-2.671015e+001	-8.194730e+001	-2.671319e+001	-8.181850e+001	-3.055108e-002	2.849443e+000
12.611	-4.912223e-002	2.604058e+000	-2.679627e+001	-8.198480e+001	-2.679921e+001	-8.185749e+001	-2.988827e-002	2.823450e+000
12.748	-4.855580e-002	2.579246e+000	-2.688142e+001	-8.202045e+001	-2.688425e+001	-8.189330e+001	-2.917603e-002	2.797733e+000
12.885	-4.805743e-002	2.554036e+000	-2.696543e+001	-8.205727e+001	-2.696822e+001	-8.193251e+001	-2.850487e-002	2.773032e+000
13.023	-4.731612e-002	2.529937e+000	-2.704853e+001	-8.209650e+001	-2.705189e+001	-8.197453e+001	-2.790681e-002	2.748749e+000
13.160	-4.692542e-002	2.506028e+000	-2.713173e+001	-8.212983e+001	-2.713482e+001	-8.200366e+001	-2.736335e-002	2.724493e+000
13.298	-4.627787e-002	2.482347e+000	-2.721318e+001	-8.217072e+001	-2.721661e+001	-8.204366e+001	-2.672322e-002	2.700746e+000
13.435	-4.564583e-002	2.459803e+000	-2.729371e+001	-8.220424e+001	-2.729712e+001	-8.207911e+001	-2.625534e-002	2.678762e+000
13.572	-4.511280e-002	2.437059e+000	-2.737370e+001	-8.223917e+001	-2.737728e+001	-8.211441e+001	-2.564599e-002	2.656000e+000
13.733	-4.528806e-002	2.411158e+000	-2.746591e+001	-8.215237e+001	-2.747018e+001	-8.223018e+001	-2.462568e-002	2.630480e+000
13.923	-4.380475e-002	2.381553e+000	-2.757483e+001	-8.232798e+001	-2.757858e+001	-8.220509e+001	-2.448132e-002	2.600244e+000
14.112	-4.299345e-002	2.352246e+000	-2.768237e+001	-8.237361e+001	-2.768596e+001	-8.224854e+001	-2.371712e-002	2.570995e+000
14.302	-4.229650e-002	2.324003e+000	-2.778733e+001	-8.242528e+001	-2.779121e+001	-8.229807e+001	-2.303885e-002	2.542953e+000
14.492	-4.159048e-002	2.296381e+000	-2.789139e+001	-8.246504e+001	-2.789493e+001	-8.234174e+001	-2.245804e-002	2.515561e+000
14.682	-4.101563e-002	2.269518e+000	-2.799455e+001	-8.250812e+001	-2.799830e+001	-8.238521e+001	-2.182718e-002	2.488209e+000
14.872	-4.029797e-002	2.242902e+000	-2.809608e+001	-8.255665e+001	-2.810011e+001	-8.243029e+001	-2.109892e-002	2.461716e+000
15.062	-3.968379e-002	2.216885e+000	-2.819635e+001	-8.260478e+001	-2.820050e+001	-8.247799e+001	-2.050035e-002	2.435889e+000
15.251	-3.909599e-002	2.191743e+000	-2.829610e+001	-8.264239e+001	-2.830028e+001	-8.251820e+001	-1.992259e-002	2.411045e+000
15.441	-3.853163e-002	2.167139e+000	-2.839413e+001	-8.269036e+001	-2.839807e+001	-8.256579e+001	-1.938146e-002	2.386278e+000
15.631	-3.794012e-002	2.143511e+000	-2.849088e+001	-8.273289e+001	-2.849500e+001	-8.260639e+001	-1.874433e-002	2.362564e+000
15.821	-3.744046e-002	2.119642e+000	-2.858690e+001	-8.277387e+001	-2.859098e+001	-8.264741e+001	-1.819009e-002	2.339018e+000
16.011	-3.673336e-002	2.096868e+000	-2.868194e+001	-8.281651e+001	-2.868585e+001	-8.269060e+001	-1.762196e-002	2.315467e+000
16.201	-3.623595e-002	2.074432e+000	-2.877543e+001	-8.285421e+001	-2.877968e+001	-8.272949e+001	-1.715144e-002	2.293734e+000
16.391	-3.575300e-002	2.052490e+000	-2.886812e+001	-8.289806e+001	-2.887191e+001	-8.277335e+001	-1.663883e-002	2.271490e+000
16.580	-3.527639e-002	2.031236e+000	-2.895964e+001	-8.293492e+001	-2.896350e+001	-8.281003e+001	-1.600823e-002	2.250445e+000
16.770	-3.472413e-002	2.010266e+000	-2.905054e+001	-8.297393e+001	-2.905445e+001	-8.284934e+001	-1.554668e-002	2.229288e+000
16.960	-3.425368e-002	1.989333e+000	-2.914017e+001	-8.301228e+001	-2.914422e+001	-8.288575e+001	-1.506819e-002	2.208485e+000
17.150	-3.363370e-002	1.969696e+000	-2.922631e+001	-8.308044e+001	-2.923085e+001	-8.296317e+001	-1.439371e-002	2.188994e+000
17.340	-3.328882e-002	1.949377e+000	-2.931532e+001	-8.309166e+001	-2.931968e+001	-8.296699e+001	-1.404900e-002	2.169028e+000
17.530	-3.286626e-002	1.929924e+000	-2.940266e+001	-8.312617e+001	-2.940671e+001	-8.300241e+001	-1.356238e-002	2.149853e+000
17.720	-3.231609e-002	1.910916e+000	-2.948883e+001	-8.316427e+001	-2.949297e+001	-8.303728e+001	-1.321460e-002	2.130701e+000
17.909	-3.189706e-002	1.892498e+000	-2.957439e+001	-8.320197e+001	-2.957875e+001	-8.307801e+001	-1.268480e-002	2.111625e+000
18.099	-3.146046e-002	1.874669e+000	-2.965898e+001	-8.323857e+001	-2.966338e+001	-8.311629e+001	-1.235718e-002	2.093752e+000
18.289	-3.100151e-002	1.855685e+000	-2.974282e+001	-8.327552e+001	-2.974722e+001	-8.315108e+001	-1.188796e-002	2.075651e+000
18.479	-3.062807e-002	1.838664e+000	-2.982548e+001	-8.331097e+001	-2.982961e+001	-8.318536e+001	-1.144803e-002	2.058277e+000
18.669	-3.020143e-002	1.821350e+000	-2.990739e+001	-8.334546e+001	-2.991200e+001	-8.322121e+001	-1.110195e-002	2.040879e+000
18.859	-2.973451e-002	1.804949e+000	-2.998902e+001	-8.338094e+001	-2.999324e+001	-8.325584e+001	-1.073248e-002	2.023495e+000
19.082	-3.114793e-002	1.784104e+000	-3.008318e+001	-8.307236e+001	-3.008929e+001	-8.296536e+001	-1.180528e-002	2.003161e+000
19.344	-2.897058e-002	1.762827e+000	-3.019530e+001	-8.347875e+001	-3.019956e+001	-8.336032e+001	-9.606574e-003	1.981425e+000
19.606	-2.847717e-002	1.741320e+000	-3.030259e+001	-8.351187e+001	-3.030777e+001	-8.338884e+001	-9.281531e-003	1.959546e+000
19.868	-2.810813e-002	1.719975e+000	-3.040930e+001	-8.356350e+001	-3.041375e+001	-8.344078e+001	-8.740218e-003	1.938306e+000
20.130	-2.763064e-002	1.698880e+000	-3.051438e+001	-8.360233e+001	-3.051928e+001	-8.347935e+001	-8.233253e-003	1.918150e+000
20.392	-2.721289e-002	1.678716e+000	-3.061952e+001	-8.364699e+001	-3.062431e+001	-8.352507e+001	-7.745176e-003	1.897456e+000
20.655	-2.679739e-002	1.658693e+000	-3.072242e+001	-8.368932e+001	-3.072726e+001	-8.356806e+001	-7.436145e-003	1.878011e+000
20.917	-2.639945e-002	1.639290e+000	-3.082418e+001	-8.373891e+001	-3.082906e+001	-8.361112e+001	-6.931334e-003	1.858603e+000
21.179	-2.588036e-002	1.620546e+000	-3.092563e+001	-8.377801e+001	-3.093000e+001	-8.365547e+001	-6.598113e-003	1.839427e+000
21.441	-2.550346e-002	1.602372e+000	-3.102463e+001	-8.381859e+001	-3.102965e+001	-8.369442e+001	-6.226898e-003	1.821738e+000
21.703	-2.510417e-002	1.583716e+000	-3.112347e+001	-8.385680e+001	-3.112805e+001	-8.373237e+001	-5.805121e-003	1.803450e+000
21.965	-2.468509e-002	1.566214e+000	-3.122082e+001	-8.389717e+001	-3.122562e+001	-8.377542e+001	-5.401974e-003	1.785205e+000
22.228	-2.437160e-002	1.548989e+000	-3.131714e+001	-8.393651e+001	-3.132224e+001	-8.381506e+001	-5.101418e-003	1.768059e+000
22.490	-2.403886e-002	1.532357e+000	-3.141170e+001	-8.397689e+001	-3.141686e+001	-8.385214e+001	-4.594960e-003	1.751371e+000
22.752	-2.365800e-002	1.516039e+000	-3.150623e+001	-8.401704e+001	-3.151086e+001	-8.389319e+001	-4.206857e-003	1.734679e+000
23.014	-2.339062e-002	1.499856e+000	-3.159975e+001	-8.405022e+001	-3.160423e+001	-8.392942e+001	-3.948431e-003	1.718665e+000
23.276	-2.297611e-002	1.484170e+000	-3.169204e+001	-8.408859e+001	-3.169681e+001	-8.396631e+001	-3.589346e-003	1.703273e+000
23.538	-2.268526e-002	1.468310e+000	-3.178291e+001	-8.412726e+001	-3.178745e+001	-8.400405e+001	-3.256001e-003	1.688026e+000
23.801	-2.235245e-002	1.453358e+000	-3.187291e+001	-8.416083e+001	-3.187794e+001	-8.403994e+001	-2.917231e-003	1.672584e+000
24.063	-2.206558e-002	1.438580e+000	-3.196224e+001	-8.419627e+001	-3.196708e+001	-8.407177e+001	-2.608399e-003	1.657828e+000
24.325	-2.166395e-002	1.423846e+000	-3.205044e+001	-8.423620e+001	-3.205498e+001	-8.410906e+001	-2.311891e-003	1.643779e+000
24.587	-2.141435e-002	1.409465e+000	-3.213763e+001	-8.426623e+001	-3.214308e+001	-8.414478e+001	-2.028741e-003	1.628972e+000
24.849	-2.113105e-002	1.395390e+000	-3.222435e+001	-8.430253e+001	-3.222913e+001	-8.417884e+001	-1.819729e-003	1.615813e+000
25.111	-2.077072e-002	1.381739e+000	-3.231009e+001	-8.433567e+001	-3.231527e+001	-8.421028e+001	-1.541982e-003	1.601714e+000
25.374	-2.054123e-002	1.368523e+000	-3.239489e+001	-8.436781e+001	-3.239970e+001	-8.424559e+001	-1.261550e-003	1.588554e+000
25.636	-2.029768e-002	1.355598e+000	-3.247902e+001	-8.440052e+001	-3.248386e+001	-8.427728e+001	-1.042143e-003	1.574705e+000
25.898	-1.997711e-002	1.342708e+000	-3.256190e+001	-8.443452e+001	-3.256716e+001	-8.431143e+001	-7.743809e-004	1.562130e+000
26.204	-1.872530e-002	1.327442e+000	-3.266525e+001	-8.474445e+001	-3.266952e+001	-8.460144e+001	5.893154e-004	1.547016e+000
26.564	-1.939676e-002	1.310853e+000	-3.277214e+001	-8.451412e+001	-3.277625e+001	-8.439685e+001	-1.204985e-004	1.530158e+000
26.924	-1.908565e-002	1.294681e+000	-3.288088e+001	-8.455005e+001	-3.288567e+001	-8.442938e+001	2.746204e-004	1.514019e+000
27.284	-1.870831e-002	1.278242e+000	-3.299064e+001	-8.459816e+001	-3.299542e+001	-8.447205e+001	6.190716e-004	1.497672e+000
27.644	-1.851233e-002	1.262848e+000	-3.309795e+001	-8.463773e+001	-3.310317e+001	-8.451444e+001	8.014154e-004	1.481433e+000
28.004	-1.805262e-002	1.247440e+000	-3.320401e+001	-8.467245e+001	-3.320936e+001	-8.455312e+001	1.153546e-003	1.466276e+000
28.364	-1.778314e-002	1.232436e+000	-3.331008e+001	-8.471593e+001	-3.331566e+001	-8.459381e+001	1.498772e-003	1.451284e+000
28.724	-1.750079e-002	1.217398e+000	-3.341387e+001	-8.475575e+001	-3.341868e+001	-8.463318e+001	1.761974e-003	1.436353e+000
29.084	-1.726587e-002	1.203414e+000	-3.351694e+001	-8.479349e+001	-3.352108e+001	-8.467011e+001	2.100167e-003	1.422720e+000
29.444	-1.698565e-002	1.189904e+000	-3.361715e+001	-8.482651e+001	-3.362281e+001	-8.470066e+001	2.360196e-003	1.409739e+000
29.804	-1.686583e-002	1.176993e+000	-3.371700e+001	-8.486456e+001	-3.372245e+001	-8.474265e+001	2.581934e-003	1.396002e+000
30.164	-1.644901e-002	1.163458e+000	-3.381690e+001	-8.490260e+001	-3.382204e+001	-8.477598e+001	2.868442e-003	1.383112e+000
30.524	-1.628684e-002	1.150198e+000	-3.391440e+001	-8.493245e+001	-3.391927e+001	-8.480851e+001	3.174523e-003	1.370192e+000
30.884	-1.603266e-002	1.136855e+000	-3.401126e+001	-8.497016e+001	-3.401658e+001	-8.484633e+001	3.407113e-003	1.356612e+000
31.244	-1.569125e-002	1.124236e+000	-3.410730e+001	-8.500200e+001	-3.411254e+001	-8.487527e+001	3.661409e-003	1.344041e+000
31.605	-1.551494e-002	1.112061e+000	-3.420256e+001	-8.503299e+001	-3.420850e+001	-8.491442e+001	3.844710e-003	1.331653e+000
31.965	-1.530167e-002	1.099705e+000	-3.429563e+001	-8.506850e+001	-3.430111e+001	-8.494609e+001	4.020598e-003	1.320031e+000
32.325	-1.510651e-002	1.088224e+000	-3.438636e+001	-8.509869e+001	-3.439279e+001	-8.497879e+001	4.273190e-003	1.307886e+000
32.685	-1.481025e-002	1.076844e+000	-3.448033e+001	-8.513056e+001	-3.448435e+001	-8.501035e+001	4.536480e-003	1.296718e+000
33.045	-1.470190e-002	1.065404e+000	-3.457123e+001	-8.515814e+001	-3.457606e+001	-8.503642e+001	4.571324e-003	1.285286e+000
33.405	-1.442326e-002	1.054832e+000	-3.466056e+001	-8.519419e+001	-3.466483e+001	-8.506461e+001	4.853671e-003	1.274432e+000
33.765	-1.421018e-002	1.043764e+000	-3.475011e+001	-8.521559e+001	-3.475527e+001	-8.509572e+001	5.103200e-003	1.263596e+000
34.125	-1.403799e-002	1.033829e+000	-3.483667e+001	-8.525238e+001	-3.484192e+001	-8.512608e+001	5.285086e-003	1.253056e+000
34.485	-1.383848e-002	1.023406e+000	-3.492307e+001	-8.527678e+001	-3.492923e+001	-8.515396e+001	5.493189e-003	1.242878e+000
34.845	-1.368918e-002	1.013566e+000	-3.501009e+001	-8.530471e+001	-3.501593e+001	-8.518949e+001	5.712518e-003	1.232626e+000
35.205	-1.336918e-002	1.003857e+000	-3.509600e+001	-8.533319e+001	-3.510158e+001	-8.521420e+001	5.721847e-003	1.222909e+000
35.565	-1.320253e-002	9.937772e-001	-3.518041e+001	-8.536484e+001	-3.518417e+001	-8.524429e+001	5.977182e-003	1.212944e+000
35.985	-1.231505e-002	9.832244e-001	-3.527773e+001	-8.560349e+001	-3.528304e+001	-8.546499e+001	6.680787e-003	1.202392e+000
36.483	-1.276599e-002	9.702486e-001	-3.539301e+001	-8.544504e+001	-3.539764e+001	-8.531915e+001	6.257862e-003	1.189501e+000
36.980	-1.255262e-002	9.572409e-001	-3.550424e+001	-8.547011e+001	-3.550950e+001	-8.534373e+001	6.452294e-003	1.176540e+000
37.478	-1.232748e-002	9.455694e-001	-3.561671e+001	-8.551015e+001	-3.562041e+001	-8.538440e+001	6.734074e-003	1.164954e+000
37.975	-1.231305e-002	9.341076e-001	-3.572648e+001	-8.553717e+001	-3.573185e+001	-8.542859e+001	6.866414e-003	1.152801e+000
38.473	-1.201208e-002	9.221791e-001	-3.583291e+001	-8.556400e+001	-3.583942e+001	-8.544283e+001	7.085536e-003	1.141823e+000
38.970	-1.181458e-002	9.107114e-001	-3.594239e+001	-8.560613e+001	-3.594686e+001	-8.547988e+001	7.158840e-003	1.130173e+000
39.468	-1.176594e-002	9.001855e-001	-3.604788e+001	-8.563604e+001	-3.605464e+001	-8.551064e+001	7.265409e-003	1.119464e+000
39.965	-1.146981e-002	8.889541e-001	-3.615298e+001	-8.567000e+001	-3.615765e+001	-8.554638e+001	7.607387e-003	1.108601e+000
40.463	-1.143565e-002	8.784525e-001	-3.625519e+001	-8.569166e+001	-3.626131e+001	-8.556875e+001	7.705441e-003	1.097925e+000
40.960	-1.134308e-002	8.682079e-001	-3.635759e+001	-8.572500e+001	-3.636158e+001	-8.560961e+001	7.962113e-003	1.087277e+000
41.458	-1.110619e-002	8.581641e-001	-3.645816e+001	-8.576266e+001	-3.646304e+001	-8.563528e+001	8.091732e-003	1.076992e+000
41.955	-1.095888e-002	8.474946e-001	-3.655683e+001	-8.578831e+001	-3.656278e+001	-8.566368e+001	8.286568e-003	1.067985e+000
42.452	-1.089673e-002	8.385307e-001	-3.665626e+001	-8.581260e+001	-3.666190e+001	-8.569005e+001	8.444474e-003	1.057932e+000
42.950	-1.078887e-002	8.289475e-001	-3.675468e+001	-8.583864e+001	-3.675951e+001	-8.571798e+001	8.593153e-003	1.048322e+000
43.447	-1.077588e-002	8.197667e-001	-3.684962e+001	-8.587135e+001	-3.685442e+001	-8.574296e+001	8.727626e-003	1.039703e+000
43.945	-1.044795e-002	8.104349e-001	-3.694667e+001	-8.589612e+001	-3.695037e+001	-8.577445e+001	8.917675e-003	1.030356e+000
44.442	-1.039358e-002	8.019459e-001	-3.704002e+001	-8.592323e+001	-3.704510e+001	-8.579928e+001	8.786677e-003	1.021902e+000
44.940	-1.033182e-002	7.942423e-001	-3.713395e+001	-8.594829e+001	-3.713881e+001	-8.582498e+001	9.135673e-003	1.013323e+000
45.437	-1.009103e-002	7.857447e-001	-3.722552e+001	-8.598021e+001	-3.723100e+001	-8.585482e+001	9.239726e-003	1.004494e+000
45.935	-9.928815e-003	7.774143e-001	-3.731650e+001	-8.600927e+001	-3.732156e+001	-8.588354e+001	9.294136e-003	9.961385e-001
46.432	-9.923715e-003	7.685623e-001	-3.740740e+001	-8.603077e+001	-3.741249e+001	-8.590373e+001	9.399365e-003	9.873108e-001
46.930	-9.710794e-003	7.608575e-001	-3.749922e+001	-8.604981e+001	-3.750226e+001	-8.591866e+001	9.514109e-003	9.798165e-001
47.427	-9.616668e-003	7.545711e-001	-3.758582e+001	-8.605812e+001	-3.758859e+001	-8.593771e+001	9.537181e-003	9.728101e-001
47.925	-9.521469e-003	7.466730e-001	-3.767167e+001	-8.608540e+001	-3.767567e+001	-8.598195e+001	9.816200e-003	9.649954e-001
48.422	-9.387782e-003	7.384848e-001	-3.775863e+001	-8.612922e+001	-3.776503e+001	-8.599620e+001	9.889390e-003	9.576074e-001
48.920	-9.318047e-003	7.321648e-001	-3.784628e+001	-8.612621e+001	-3.784821e+001	-8.601442e+001	1.004918e-002	9.504112e-001
49.417	-9.202648e-003	7.246101e-001	-3.792934e+001	-8.616747e+001	-3.793561e+001	-8.604314e+001	1.022161e-002	9.431108e-001
50.001	-8.937953e-003	7.161125e-001	-3.803145e+001	-8.625233e+001	-3.803967e+001	-8.614247e+001	1.045151e-002	9.340967e-001
50.688	-8.797689e-003	7.076500e-001	-3.813966e+001	-8.623137e+001	-3.814821e+001	-8.612020e+001	1.053181e-002	9.257976e-001
51.375	-8.690727e-003	6.973355e-001	-3.825765e+001	-8.626047e+001	-3.826536e+001	-8.612898e+001	1.056282e-002	9.161366e-001
52.062	-8.711438e-003	6.882694e-001	-3.837416e+001	-8.628638e+001	-3.837575e+001	-8.612866e+001	1.072133e-002	9.070994e-001
52.749	-8.681883e-003	6.797602e-001	-3.847968e+001	-8.626900e+001	-3.847931e+001	-8.615997e+001	1.076803e-002	8.991114e-001
53.436	-8.429896e-003	6.712531e-001	-3.858308e+001	-8.634684e+001	-3.859321e+001	-8.624675e+001	1.110571e-002	8.900531e-001
54.123	-8.210151e-003	6.625220e-001	-3.870227e+001	-8.634827e+001	-3.870353e+001	-8.619106e+001	1.113957e-002	8.820740e-001
54.810	-8.312221e-003	6.560033e-001	-3.879443e+001	-8.634976e+001	-3.880058e+001	-8.627927e+001	1.128082e-002	8.742590e-001
55.497	-7.960019e-003	6.472015e-001	-3.891516e+001	-8.640825e+001	-3.891568e+001	-8.623150e+001	1.123816e-002	8.658395e-001
56.184	-7.908394e-003	6.397377e-001	-3.900284e+001	-8.644441e+001	-3.901551e+001	-8.635084e+001	1.147597e-002	8.590315e-001
56.871	-8.005270e-003	6.321839e-001	-3.911303e+001	-8.638029e+001	-3.910936e+001	-8.629265e+001	1.150116e-002	8.513509e-001
57.558	-7.751466e-003	6.237948e-001	-3.922371e+001	-8.647991e+001	-3.922390e+001	-8.627749e+001	1.150428e-002	8.436635e-001
58.245	-7.595294e-003	6.174862e-001	-3.931674e+001	-8.655672e+001	-3.932899e+001	-8.638771e+001	1.169598e-002	8.363770e-001
58.932	-7.525118e-003	6.098565e-001	-3.940604e+001	-8.657259e+001	-3.942237e+001	-8.644941e+001	1.189098e-002	8.297750e-001
59.619	-7.460017e-003	6.035232e-001	-3.950235e+001	-8.656043e+001	-3.951741e+001	-8.647486e+001	1.183183e-002	8.234509e-001
60.306	-7.401039e-003	5.971584e-001	-3.959653e+001	-8.658575e+001	-3.961260e+001	-8.649334e+001	1.202673e-002	8.161560e-001
60.993	-7.219905e-003	5.906103e-001	-3.969633e+001	-8.663126e+001	-3.971063e+001	-8.651758e+001	1.200111e-002	8.099086e-001
61.680	-7.137068e-003	5.833506e-001	-3.979961e+001	-8.667435e+001	-3.981368e+001	-8.649458e+001	1.206750e-002	8.023744e-001
62.367	-7.254239e-003	5.762855e-001	-3.990277e+001	-8.662947e+001	-3.990136e+001	-8.643546e+001	1.204090e-002	7.962127e-001
63.054	-7.263041e-003	5.707612e-001	-3.998518e+001	-8.656647e+001	-3.997935e+001	-8.647195e+001	1.206752e-002	7.915021e-001
