!Agilent Technologies,E5061B,MY49204007,A.02.12
!Date: Wed Jul 23 11:09:47 2025
!Data & Calibration Information:
!Freq	S11:SOLT2(ON)	S21:SOLT2(ON)	S12:SOLT2(ON)	S22:SOLT2(ON)
# Hz S dB R 50
10.000	-2.691794e+000	1.096511e+001	-1.008355e+001	-2.667035e+001	-1.008058e+001	-2.657140e+001	-2.676886e+000	1.115941e+001
10.137	-2.676486e+000	1.100798e+001	-1.010311e+001	-2.689267e+001	-1.010003e+001	-2.679809e+001	-2.661411e+000	1.120187e+001
10.275	-2.660810e+000	1.104936e+001	-1.012252e+001	-2.711907e+001	-1.011960e+001	-2.702635e+001	-2.645764e+000	1.124313e+001
10.412	-2.645337e+000	1.109108e+001	-1.014222e+001	-2.734488e+001	-1.013919e+001	-2.725404e+001	-2.630325e+000	1.128431e+001
10.550	-2.629792e+000	1.113195e+001	-1.016193e+001	-2.757235e+001	-1.015891e+001	-2.748205e+001	-2.614765e+000	1.132494e+001
10.687	-2.614364e+000	1.117154e+001	-1.018195e+001	-2.780041e+001	-1.017867e+001	-2.770930e+001	-2.599276e+000	1.136481e+001
10.824	-2.598926e+000	1.121137e+001	-1.020174e+001	-2.802842e+001	-1.019846e+001	-2.793829e+001	-2.583635e+000	1.140393e+001
10.962	-2.583304e+000	1.125005e+001	-1.022163e+001	-2.825474e+001	-1.021854e+001	-2.816483e+001	-2.568146e+000	1.144228e+001
11.099	-2.568050e+000	1.128800e+001	-1.024192e+001	-2.848296e+001	-1.023853e+001	-2.839323e+001	-2.552521e+000	1.148025e+001
11.237	-2.552408e+000	1.132349e+001	-1.026214e+001	-2.870929e+001	-1.025872e+001	-2.861990e+001	-2.537113e+000	1.151721e+001
11.374	-2.536915e+000	1.135927e+001	-1.028250e+001	-2.893597e+001	-1.027933e+001	-2.884617e+001	-2.521607e+000	1.155274e+001
11.511	-2.521564e+000	1.139433e+001	-1.030305e+001	-2.916306e+001	-1.029978e+001	-2.907305e+001	-2.506161e+000	1.158727e+001
11.649	-2.505976e+000	1.142894e+001	-1.032360e+001	-2.938878e+001	-1.032041e+001	-2.929914e+001	-2.490631e+000	1.162125e+001
11.786	-2.490576e+000	1.146198e+001	-1.034432e+001	-2.961551e+001	-1.034116e+001	-2.952534e+001	-2.475176e+000	1.165470e+001
11.924	-2.475292e+000	1.149481e+001	-1.036499e+001	-2.984090e+001	-1.036193e+001	-2.975224e+001	-2.459659e+000	1.168628e+001
12.061	-2.459801e+000	1.152596e+001	-1.038568e+001	-3.006640e+001	-1.038294e+001	-2.997637e+001	-2.444291e+000	1.171739e+001
12.198	-2.444584e+000	1.155660e+001	-1.040666e+001	-3.029180e+001	-1.040381e+001	-3.020237e+001	-2.428784e+000	1.174803e+001
12.336	-2.429348e+000	1.158531e+001	-1.042792e+001	-3.051595e+001	-1.042488e+001	-3.042622e+001	-2.413537e+000	1.177754e+001
12.473	-2.413935e+000	1.161390e+001	-1.044919e+001	-3.073989e+001	-1.044608e+001	-3.064995e+001	-2.398118e+000	1.180614e+001
12.611	-2.398729e+000	1.164201e+001	-1.047055e+001	-3.096285e+001	-1.046747e+001	-3.087362e+001	-2.382897e+000	1.183398e+001
12.748	-2.383492e+000	1.166937e+001	-1.049193e+001	-3.118604e+001	-1.048880e+001	-3.109663e+001	-2.367620e+000	1.186122e+001
12.885	-2.368375e+000	1.169566e+001	-1.051344e+001	-3.140825e+001	-1.051016e+001	-3.132017e+001	-2.352372e+000	1.188676e+001
13.023	-2.353181e+000	1.172092e+001	-1.053484e+001	-3.163069e+001	-1.053202e+001	-3.154168e+001	-2.337277e+000	1.191241e+001
13.160	-2.338217e+000	1.174479e+001	-1.055668e+001	-3.185101e+001	-1.055360e+001	-3.176283e+001	-2.322242e+000	1.193623e+001
13.298	-2.323039e+000	1.176818e+001	-1.057846e+001	-3.207271e+001	-1.057571e+001	-3.198362e+001	-2.307147e+000	1.195928e+001
13.435	-2.308057e+000	1.179044e+001	-1.060034e+001	-3.229223e+001	-1.059768e+001	-3.220367e+001	-2.292058e+000	1.198197e+001
13.572	-2.293211e+000	1.181270e+001	-1.062232e+001	-3.251152e+001	-1.061976e+001	-3.242317e+001	-2.277159e+000	1.200350e+001
13.733	-2.275613e+000	1.182945e+001	-1.065046e+001	-3.275477e+001	-1.064577e+001	-3.267678e+001	-2.259929e+000	1.202725e+001
13.923	-2.255373e+000	1.186482e+001	-1.067871e+001	-3.306747e+001	-1.067663e+001	-3.297857e+001	-2.239496e+000	1.205538e+001
14.112	-2.234978e+000	1.188988e+001	-1.070962e+001	-3.336483e+001	-1.070745e+001	-3.327725e+001	-2.219129e+000	1.208011e+001
14.302	-2.214842e+000	1.191440e+001	-1.074083e+001	-3.366414e+001	-1.073858e+001	-3.357664e+001	-2.198801e+000	1.210446e+001
14.492	-2.194689e+000	1.193674e+001	-1.077187e+001	-3.396068e+001	-1.076976e+001	-3.387277e+001	-2.178715e+000	1.212705e+001
14.682	-2.174583e+000	1.195717e+001	-1.080319e+001	-3.425571e+001	-1.080110e+001	-3.416808e+001	-2.158673e+000	1.214816e+001
14.872	-2.154722e+000	1.197695e+001	-1.083476e+001	-3.454934e+001	-1.083268e+001	-3.446144e+001	-2.138828e+000	1.216766e+001
15.062	-2.134975e+000	1.199563e+001	-1.086650e+001	-3.484131e+001	-1.086445e+001	-3.475500e+001	-2.118954e+000	1.218521e+001
15.251	-2.115277e+000	1.201183e+001	-1.089834e+001	-3.513081e+001	-1.089624e+001	-3.504418e+001	-2.099268e+000	1.220214e+001
15.441	-2.095757e+000	1.202628e+001	-1.093041e+001	-3.542107e+001	-1.092840e+001	-3.533403e+001	-2.079739e+000	1.221706e+001
15.631	-2.076318e+000	1.204069e+001	-1.096245e+001	-3.570815e+001	-1.096053e+001	-3.562163e+001	-2.060407e+000	1.223058e+001
15.821	-2.057084e+000	1.205310e+001	-1.099470e+001	-3.599453e+001	-1.099289e+001	-3.590703e+001	-2.041171e+000	1.224341e+001
16.011	-2.037956e+000	1.206390e+001	-1.102708e+001	-3.627776e+001	-1.102526e+001	-3.619126e+001	-2.022029e+000	1.225425e+001
16.201	-2.019094e+000	1.207332e+001	-1.105966e+001	-3.655935e+001	-1.105774e+001	-3.647296e+001	-2.003067e+000	1.226371e+001
16.391	-2.000222e+000	1.208198e+001	-1.109235e+001	-3.684071e+001	-1.109052e+001	-3.675505e+001	-1.984219e+000	1.227241e+001
16.580	-1.981563e+000	1.208908e+001	-1.112503e+001	-3.711947e+001	-1.112308e+001	-3.703352e+001	-1.965488e+000	1.227981e+001
16.770	-1.963058e+000	1.209548e+001	-1.115786e+001	-3.739666e+001	-1.115613e+001	-3.731022e+001	-1.946953e+000	1.228495e+001
16.960	-1.944662e+000	1.209997e+001	-1.119065e+001	-3.767211e+001	-1.118923e+001	-3.758518e+001	-1.928637e+000	1.228956e+001
17.150	-1.925867e+000	1.208663e+001	-1.123060e+001	-3.792318e+001	-1.122942e+001	-3.783739e+001	-1.909853e+000	1.227655e+001
17.340	-1.908327e+000	1.210623e+001	-1.125669e+001	-3.821955e+001	-1.125546e+001	-3.813171e+001	-1.892289e+000	1.229584e+001
17.530	-1.890426e+000	1.210815e+001	-1.128980e+001	-3.848996e+001	-1.128867e+001	-3.840259e+001	-1.874399e+000	1.229708e+001
17.720	-1.872646e+000	1.210825e+001	-1.132332e+001	-3.875866e+001	-1.132206e+001	-3.867105e+001	-1.856584e+000	1.229659e+001
17.909	-1.855044e+000	1.210738e+001	-1.135683e+001	-3.902564e+001	-1.135560e+001	-3.893758e+001	-1.838980e+000	1.229590e+001
18.099	-1.837653e+000	1.210560e+001	-1.139029e+001	-3.929100e+001	-1.138901e+001	-3.920287e+001	-1.821444e+000	1.229358e+001
18.289	-1.820346e+000	1.210239e+001	-1.142412e+001	-3.955400e+001	-1.142282e+001	-3.946614e+001	-1.804101e+000	1.229047e+001
18.479	-1.803113e+000	1.209829e+001	-1.145764e+001	-3.981616e+001	-1.145643e+001	-3.972872e+001	-1.786939e+000	1.228637e+001
18.669	-1.786195e+000	1.209330e+001	-1.149151e+001	-4.007532e+001	-1.149029e+001	-3.998791e+001	-1.769971e+000	1.228132e+001
18.859	-1.769384e+000	1.208778e+001	-1.152540e+001	-4.033409e+001	-1.152424e+001	-4.024630e+001	-1.753136e+000	1.227532e+001
19.082	-1.751128e+000	1.203021e+001	-1.158144e+001	-4.052384e+001	-1.158063e+001	-4.043444e+001	-1.734886e+000	1.221759e+001
19.344	-1.727196e+000	1.206889e+001	-1.161255e+001	-4.098650e+001	-1.161121e+001	-4.089943e+001	-1.710791e+000	1.225666e+001
19.606	-1.704865e+000	1.205680e+001	-1.165935e+001	-4.133111e+001	-1.165819e+001	-4.124410e+001	-1.688462e+000	1.224358e+001
19.868	-1.682807e+000	1.204279e+001	-1.170670e+001	-4.167808e+001	-1.170553e+001	-4.159051e+001	-1.666196e+000	1.222976e+001
20.130	-1.660965e+000	1.202725e+001	-1.175369e+001	-4.201781e+001	-1.175264e+001	-4.193118e+001	-1.644492e+000	1.221410e+001
20.392	-1.639461e+000	1.200965e+001	-1.180111e+001	-4.235463e+001	-1.180008e+001	-4.226762e+001	-1.623030e+000	1.219630e+001
20.655	-1.618192e+000	1.199123e+001	-1.184858e+001	-4.268869e+001	-1.184770e+001	-4.260131e+001	-1.601678e+000	1.217794e+001
20.917	-1.597271e+000	1.197185e+001	-1.189612e+001	-4.301957e+001	-1.189533e+001	-4.293274e+001	-1.580777e+000	1.215826e+001
21.179	-1.576623e+000	1.195022e+001	-1.194402e+001	-4.334546e+001	-1.194322e+001	-4.325880e+001	-1.560175e+000	1.213626e+001
21.441	-1.556376e+000	1.192825e+001	-1.199137e+001	-4.367126e+001	-1.199055e+001	-4.358399e+001	-1.539945e+000	1.211454e+001
21.703	-1.536342e+000	1.190447e+001	-1.203899e+001	-4.399150e+001	-1.203831e+001	-4.390310e+001	-1.519850e+000	1.209092e+001
21.965	-1.516508e+000	1.188021e+001	-1.208685e+001	-4.430771e+001	-1.208620e+001	-4.422100e+001	-1.500153e+000	1.206582e+001
22.228	-1.497072e+000	1.185446e+001	-1.213461e+001	-4.462257e+001	-1.213396e+001	-4.453599e+001	-1.480651e+000	1.204015e+001
22.490	-1.477970e+000	1.182851e+001	-1.218238e+001	-4.493430e+001	-1.218153e+001	-4.484759e+001	-1.461385e+000	1.201424e+001
22.752	-1.458897e+000	1.180108e+001	-1.223032e+001	-4.524251e+001	-1.222965e+001	-4.515583e+001	-1.442440e+000	1.198676e+001
23.014	-1.440400e+000	1.177290e+001	-1.227790e+001	-4.554676e+001	-1.227722e+001	-4.546060e+001	-1.423836e+000	1.195792e+001
23.276	-1.421963e+000	1.174337e+001	-1.232579e+001	-4.584774e+001	-1.232522e+001	-4.576097e+001	-1.405363e+000	1.192867e+001
23.538	-1.403781e+000	1.171337e+001	-1.237365e+001	-4.614591e+001	-1.237310e+001	-4.606010e+001	-1.387329e+000	1.189812e+001
23.801	-1.386044e+000	1.168235e+001	-1.242157e+001	-4.644249e+001	-1.242091e+001	-4.635609e+001	-1.369503e+000	1.186723e+001
24.063	-1.368546e+000	1.165122e+001	-1.246926e+001	-4.673377e+001	-1.246856e+001	-4.664837e+001	-1.351965e+000	1.183588e+001
24.325	-1.351086e+000	1.161958e+001	-1.251695e+001	-4.702474e+001	-1.251644e+001	-4.693921e+001	-1.334638e+000	1.180371e+001
24.587	-1.334067e+000	1.158605e+001	-1.256472e+001	-4.731038e+001	-1.256408e+001	-4.722444e+001	-1.317618e+000	1.177080e+001
24.849	-1.317376e+000	1.155223e+001	-1.261276e+001	-4.759430e+001	-1.261212e+001	-4.750793e+001	-1.300862e+000	1.173719e+001
25.111	-1.300783e+000	1.151825e+001	-1.266018e+001	-4.787465e+001	-1.265979e+001	-4.778834e+001	-1.284354e+000	1.170310e+001
25.374	-1.284566e+000	1.148349e+001	-1.270794e+001	-4.815319e+001	-1.270744e+001	-4.806652e+001	-1.268093e+000	1.166794e+001
25.636	-1.268737e+000	1.144888e+001	-1.275555e+001	-4.842549e+001	-1.275509e+001	-4.834113e+001	-1.252049e+000	1.163262e+001
25.898	-1.252890e+000	1.141311e+001	-1.280295e+001	-4.869892e+001	-1.280272e+001	-4.861256e+001	-1.236299e+000	1.159720e+001
26.204	-1.237889e+000	1.132885e+001	-1.287400e+001	-4.886355e+001	-1.287360e+001	-4.878401e+001	-1.221033e+000	1.151283e+001
26.564	-1.213946e+000	1.132122e+001	-1.292389e+001	-4.937779e+001	-1.292349e+001	-4.929116e+001	-1.197247e+000	1.150409e+001
26.924	-1.193461e+000	1.126934e+001	-1.298925e+001	-4.973731e+001	-1.298881e+001	-4.965145e+001	-1.176794e+000	1.145247e+001
27.284	-1.173442e+000	1.121774e+001	-1.305400e+001	-5.008715e+001	-1.305389e+001	-5.000212e+001	-1.156866e+000	1.139961e+001
27.644	-1.153832e+000	1.116572e+001	-1.311901e+001	-5.044034e+001	-1.311875e+001	-5.035398e+001	-1.137206e+000	1.134801e+001
28.004	-1.134769e+000	1.111265e+001	-1.318354e+001	-5.077953e+001	-1.318344e+001	-5.069395e+001	-1.118151e+000	1.129427e+001
28.364	-1.115865e+000	1.105865e+001	-1.324855e+001	-5.111834e+001	-1.324860e+001	-5.103284e+001	-1.099408e+000	1.123983e+001
28.724	-1.097497e+000	1.100432e+001	-1.331305e+001	-5.145288e+001	-1.331315e+001	-5.136810e+001	-1.080933e+000	1.118585e+001
29.084	-1.079531e+000	1.094991e+001	-1.337724e+001	-5.178315e+001	-1.337731e+001	-5.169618e+001	-1.062936e+000	1.113152e+001
29.444	-1.061984e+000	1.089554e+001	-1.344113e+001	-5.210607e+001	-1.344123e+001	-5.201907e+001	-1.045359e+000	1.107765e+001
29.804	-1.044877e+000	1.084164e+001	-1.350491e+001	-5.242808e+001	-1.350499e+001	-5.233834e+001	-1.028098e+000	1.102382e+001
30.164	-1.027879e+000	1.078589e+001	-1.356927e+001	-5.274337e+001	-1.356929e+001	-5.265415e+001	-1.011165e+000	1.096777e+001
30.524	-1.011436e+000	1.073112e+001	-1.363233e+001	-5.305347e+001	-1.363245e+001	-5.296576e+001	-9.946320e-001	1.091224e+001
30.884	-9.951565e-001	1.067428e+001	-1.369587e+001	-5.335722e+001	-1.369612e+001	-5.327059e+001	-9.784906e-001	1.085556e+001
31.244	-9.792463e-001	1.061819e+001	-1.375943e+001	-5.366054e+001	-1.375964e+001	-5.357259e+001	-9.627084e-001	1.079915e+001
31.605	-9.636692e-001	1.056187e+001	-1.382219e+001	-5.395771e+001	-1.382242e+001	-5.387066e+001	-9.471292e-001	1.074315e+001
31.965	-9.485864e-001	1.050636e+001	-1.388486e+001	-5.425129e+001	-1.388532e+001	-5.416339e+001	-9.320906e-001	1.068706e+001
32.325	-9.337622e-001	1.045095e+001	-1.394728e+001	-5.454261e+001	-1.394772e+001	-5.445496e+001	-9.172502e-001	1.063166e+001
32.685	-9.190365e-001	1.039470e+001	-1.400997e+001	-5.482819e+001	-1.401040e+001	-5.474102e+001	-9.025216e-001	1.057550e+001
33.045	-9.049024e-001	1.033915e+001	-1.407183e+001	-5.510752e+001	-1.407222e+001	-5.501925e+001	-8.883568e-001	1.052074e+001
33.405	-8.908683e-001	1.028294e+001	-1.413391e+001	-5.538371e+001	-1.413444e+001	-5.529558e+001	-8.744612e-001	1.046381e+001
33.765	-8.771726e-001	1.022690e+001	-1.419592e+001	-5.565873e+001	-1.419635e+001	-5.556995e+001	-8.607865e-001	1.040808e+001
34.125	-8.638024e-001	1.017163e+001	-1.425742e+001	-5.592889e+001	-1.425787e+001	-5.584040e+001	-8.473903e-001	1.035205e+001
34.485	-8.507474e-001	1.011606e+001	-1.431873e+001	-5.619420e+001	-1.431907e+001	-5.610591e+001	-8.343448e-001	1.029606e+001
34.845	-8.379291e-001	1.006081e+001	-1.437938e+001	-5.645385e+001	-1.437984e+001	-5.636732e+001	-8.214823e-001	1.024082e+001
35.205	-8.252673e-001	1.000578e+001	-1.444018e+001	-5.671465e+001	-1.444078e+001	-5.662742e+001	-8.088608e-001	1.018607e+001
35.565	-8.130611e-001	9.950278e+000	-1.450098e+001	-5.696866e+001	-1.450151e+001	-5.688018e+001	-7.966318e-001	1.013041e+001
35.985	-7.954470e-001	9.911202e+000	-1.456080e+001	-5.740817e+001	-1.456113e+001	-5.732024e+001	-7.791589e-001	1.009184e+001
36.483	-7.826762e-001	9.811684e+000	-1.465388e+001	-5.760383e+001	-1.465475e+001	-5.751858e+001	-7.662970e-001	9.991273e+000
36.980	-7.668197e-001	9.735962e+000	-1.473670e+001	-5.793964e+001	-1.473755e+001	-5.785196e+001	-7.505062e-001	9.915862e+000
37.478	-7.515475e-001	9.661952e+000	-1.481865e+001	-5.826423e+001	-1.481943e+001	-5.817678e+001	-7.353665e-001	9.841839e+000
37.975	-7.365728e-001	9.587623e+000	-1.490041e+001	-5.859354e+001	-1.490137e+001	-5.850301e+001	-7.204252e-001	9.767886e+000
38.473	-7.221640e-001	9.514417e+000	-1.498087e+001	-5.890421e+001	-1.498190e+001	-5.881583e+001	-7.059815e-001	9.694206e+000
38.970	-7.079541e-001	9.441205e+000	-1.506212e+001	-5.921275e+001	-1.506317e+001	-5.912451e+001	-6.919320e-001	9.620837e+000
39.468	-6.942380e-001	9.368286e+000	-1.514238e+001	-5.951813e+001	-1.514337e+001	-5.943088e+001	-6.781923e-001	9.547569e+000
39.965	-6.809989e-001	9.296551e+000	-1.522216e+001	-5.981800e+001	-1.522294e+001	-5.972831e+001	-6.648334e-001	9.476082e+000
40.463	-6.681418e-001	9.225812e+000	-1.530074e+001	-6.011218e+001	-1.530165e+001	-6.002290e+001	-6.519029e-001	9.405811e+000
40.960	-6.554128e-001	9.155801e+000	-1.537948e+001	-6.040392e+001	-1.538032e+001	-6.031722e+001	-6.391104e-001	9.334620e+000
41.458	-6.430096e-001	9.084583e+000	-1.545832e+001	-6.068325e+001	-1.545911e+001	-6.059412e+001	-6.269640e-001	9.264567e+000
41.955	-6.311442e-001	9.014897e+000	-1.553595e+001	-6.096704e+001	-1.553662e+001	-6.087814e+001	-6.148685e-001	9.195247e+000
42.452	-6.195308e-001	8.947441e+000	-1.561287e+001	-6.123831e+001	-1.561363e+001	-6.114871e+001	-6.033209e-001	9.126218e+000
42.950	-6.082538e-001	8.879097e+000	-1.568969e+001	-6.150648e+001	-1.569051e+001	-6.141498e+001	-5.920594e-001	9.058672e+000
43.447	-5.970645e-001	8.811510e+000	-1.576603e+001	-6.177173e+001	-1.576699e+001	-6.168006e+001	-5.809030e-001	8.991105e+000
43.945	-5.864303e-001	8.744961e+000	-1.584184e+001	-6.203214e+001	-1.584269e+001	-6.194083e+001	-5.700781e-001	8.924728e+000
44.442	-5.757289e-001	8.678811e+000	-1.591771e+001	-6.228497e+001	-1.591870e+001	-6.219434e+001	-5.595427e-001	8.858477e+000
44.940	-5.656676e-001	8.613212e+000	-1.599252e+001	-6.253427e+001	-1.599337e+001	-6.244360e+001	-5.494052e-001	8.792561e+000
45.437	-5.554616e-001	8.548540e+000	-1.606730e+001	-6.278251e+001	-1.606831e+001	-6.269152e+001	-5.393428e-001	8.728030e+000
45.935	-5.458593e-001	8.484810e+000	-1.614082e+001	-6.302707e+001	-1.614176e+001	-6.293431e+001	-5.297013e-001	8.663712e+000
46.432	-5.364374e-001	8.420872e+000	-1.621442e+001	-6.326183e+001	-1.621518e+001	-6.317022e+001	-5.202863e-001	8.600775e+000
46.930	-5.271413e-001	8.358458e+000	-1.628739e+001	-6.349556e+001	-1.628830e+001	-6.340374e+001	-5.110463e-001	8.538124e+000
47.427	-5.181340e-001	8.297979e+000	-1.635966e+001	-6.372445e+001	-1.636099e+001	-6.363690e+001	-5.020034e-001	8.475865e+000
47.925	-5.092546e-001	8.235857e+000	-1.643218e+001	-6.395346e+001	-1.643369e+001	-6.386305e+001	-4.930883e-001	8.414134e+000
48.422	-5.007474e-001	8.175105e+000	-1.650414e+001	-6.417264e+001	-1.650516e+001	-6.408032e+001	-4.847174e-001	8.353638e+000
48.920	-4.922643e-001	8.115224e+000	-1.657499e+001	-6.439463e+001	-1.657634e+001	-6.430367e+001	-4.761413e-001	8.294572e+000
49.417	-4.840148e-001	8.056965e+000	-1.664570e+001	-6.460985e+001	-1.664694e+001	-6.451566e+001	-4.678764e-001	8.235148e+000
50.001	-4.801326e-001	7.963250e+000	-1.674035e+001	-6.458594e+001	-1.674175e+001	-6.449719e+001	-4.638747e-001	8.142224e+000
50.688	-4.638940e-001	7.906600e+000	-1.682536e+001	-6.514269e+001	-1.682653e+001	-6.504746e+001	-4.478580e-001	8.085241e+000
51.375	-4.535499e-001	7.828138e+000	-1.692127e+001	-6.542862e+001	-1.692212e+001	-6.533097e+001	-4.374405e-001	8.006327e+000
52.062	-4.436693e-001	7.751254e+000	-1.701557e+001	-6.570032e+001	-1.701588e+001	-6.560819e+001	-4.276138e-001	7.930810e+000
52.749	-4.340227e-001	7.676128e+000	-1.710840e+001	-6.596684e+001	-1.710969e+001	-6.588062e+001	-4.178612e-001	7.854752e+000
53.436	-4.244721e-001	7.600083e+000	-1.720225e+001	-6.623322e+001	-1.720434e+001	-6.613624e+001	-4.085174e-001	7.777953e+000
54.123	-4.157703e-001	7.527076e+000	-1.729437e+001	-6.647547e+001	-1.729528e+001	-6.638328e+001	-3.998063e-001	7.705017e+000
54.810	-4.068768e-001	7.456255e+000	-1.738445e+001	-6.674032e+001	-1.738700e+001	-6.664907e+001	-3.906645e-001	7.633197e+000
55.497	-3.984051e-001	7.382203e+000	-1.747710e+001	-6.697194e+001	-1.747724e+001	-6.687997e+001	-3.825428e-001	7.562013e+000
56.184	-3.899506e-001	7.313106e+000	-1.756653e+001	-6.723168e+001	-1.756873e+001	-6.713070e+001	-3.738915e-001	7.490607e+000
56.871	-3.822468e-001	7.245177e+000	-1.765371e+001	-6.745466e+001	-1.765587e+001	-6.737081e+001	-3.659645e-001	7.424093e+000
57.558	-3.746066e-001	7.175630e+000	-1.774392e+001	-6.768011e+001	-1.774365e+001	-6.758942e+001	-3.585178e-001	7.355778e+000
58.245	-3.668009e-001	7.108237e+000	-1.783206e+001	-6.791679e+001	-1.783308e+001	-6.781207e+001	-3.510860e-001	7.286675e+000
58.932	-3.593724e-001	7.041844e+000	-1.791913e+001	-6.814554e+001	-1.792108e+001	-6.804130e+001	-3.436099e-001	7.220404e+000
59.619	-3.521998e-001	6.977932e+000	-1.800505e+001	-6.836188e+001	-1.800769e+001	-6.825606e+001	-3.364324e-001	7.155653e+000
60.306	-3.454541e-001	6.914171e+000	-1.808963e+001	-6.857463e+001	-1.809241e+001	-6.846970e+001	-3.296933e-001	7.091752e+000
60.993	-3.387211e-001	6.850321e+000	-1.817556e+001	-6.878056e+001	-1.817791e+001	-6.867374e+001	-3.230498e-001	7.028479e+000
61.680	-3.322454e-001	6.788336e+000	-1.826003e+001	-6.898328e+001	-1.826068e+001	-6.887672e+001	-3.166106e-001	6.967382e+000
62.367	-3.263371e-001	6.727526e+000	-1.834299e+001	-6.917395e+001	-1.834256e+001	-6.907887e+001	-3.104438e-001	6.907834e+000
63.054	-3.201368e-001	6.669766e+000	-1.842364e+001	-6.937135e+001	-1.842525e+001	-6.928763e+001	-3.039768e-001	6.848107e+000
