!Agilent Technologies,E5061B,MY49204007,A.02.12
!Date: Wed Jul 23 10:57:11 2025
!Data & Calibration Information:
!Freq	S11:SOLT2(ON)	S21:SOLT2(ON)	S12:SOLT2(ON)	S22:SOLT2(ON)
# Hz S dB R 50
10.000	-2.050813e+000	1.156200e+001	-1.116344e+001	-3.514769e+001	-1.114466e+001	-3.510235e+001	-2.038505e+000	1.178330e+001
10.137	-2.031954e+000	1.157533e+001	-1.119671e+001	-3.543095e+001	-1.117857e+001	-3.538861e+001	-2.019344e+000	1.179348e+001
10.275	-2.013113e+000	1.158692e+001	-1.122982e+001	-3.571447e+001	-1.121241e+001	-3.567331e+001	-2.000328e+000	1.180331e+001
10.412	-1.994391e+000	1.159745e+001	-1.126314e+001	-3.599596e+001	-1.124618e+001	-3.595598e+001	-1.981464e+000	1.181135e+001
10.550	-1.975858e+000	1.160611e+001	-1.129675e+001	-3.627830e+001	-1.128021e+001	-3.623705e+001	-1.962815e+000	1.181911e+001
10.687	-1.957436e+000	1.161398e+001	-1.133035e+001	-3.655918e+001	-1.131427e+001	-3.651680e+001	-1.944323e+000	1.182597e+001
10.824	-1.939343e+000	1.162213e+001	-1.136393e+001	-3.683922e+001	-1.134836e+001	-3.679654e+001	-1.925935e+000	1.183168e+001
10.962	-1.921072e+000	1.162689e+001	-1.139751e+001	-3.711585e+001	-1.138252e+001	-3.707068e+001	-1.907733e+000	1.183704e+001
11.099	-1.903248e+000	1.163264e+001	-1.143125e+001	-3.739278e+001	-1.141682e+001	-3.734911e+001	-1.889580e+000	1.184122e+001
11.237	-1.885296e+000	1.163579e+001	-1.146517e+001	-3.766541e+001	-1.145093e+001	-3.762192e+001	-1.871624e+000	1.184346e+001
11.374	-1.867538e+000	1.163822e+001	-1.149940e+001	-3.793931e+001	-1.148558e+001	-3.789359e+001	-1.853811e+000	1.184500e+001
11.511	-1.849986e+000	1.163958e+001	-1.153372e+001	-3.821124e+001	-1.152006e+001	-3.816524e+001	-1.836124e+000	1.184535e+001
11.649	-1.832492e+000	1.164050e+001	-1.156780e+001	-3.848066e+001	-1.155472e+001	-3.843487e+001	-1.818613e+000	1.184525e+001
11.786	-1.815258e+000	1.163989e+001	-1.160222e+001	-3.874998e+001	-1.158937e+001	-3.870373e+001	-1.801234e+000	1.184422e+001
11.924	-1.798124e+000	1.163927e+001	-1.163656e+001	-3.901602e+001	-1.162398e+001	-3.897125e+001	-1.783913e+000	1.184218e+001
12.061	-1.780952e+000	1.163613e+001	-1.167141e+001	-3.928115e+001	-1.165904e+001	-3.923519e+001	-1.766905e+000	1.183843e+001
12.198	-1.764267e+000	1.163287e+001	-1.170579e+001	-3.954600e+001	-1.169376e+001	-3.950073e+001	-1.749949e+000	1.183438e+001
12.336	-1.747525e+000	1.162774e+001	-1.174055e+001	-3.980841e+001	-1.172879e+001	-3.976117e+001	-1.733156e+000	1.182953e+001
12.473	-1.730950e+000	1.162321e+001	-1.177535e+001	-4.006982e+001	-1.176386e+001	-4.002172e+001	-1.716415e+000	1.182286e+001
12.611	-1.714500e+000	1.161689e+001	-1.181020e+001	-4.033009e+001	-1.179909e+001	-4.028069e+001	-1.699830e+000	1.181618e+001
12.748	-1.698330e+000	1.161012e+001	-1.184498e+001	-4.058788e+001	-1.183414e+001	-4.053748e+001	-1.683491e+000	1.180857e+001
12.885	-1.682219e+000	1.160288e+001	-1.187994e+001	-4.084453e+001	-1.186939e+001	-4.079346e+001	-1.667297e+000	1.180027e+001
13.023	-1.666118e+000	1.159459e+001	-1.191484e+001	-4.109990e+001	-1.190498e+001	-4.104843e+001	-1.651291e+000	1.179086e+001
13.160	-1.650461e+000	1.158490e+001	-1.195022e+001	-4.135120e+001	-1.194012e+001	-4.130028e+001	-1.635569e+000	1.178065e+001
13.298	-1.634661e+000	1.157460e+001	-1.198537e+001	-4.160439e+001	-1.197589e+001	-4.155099e+001	-1.619782e+000	1.176975e+001
13.435	-1.619154e+000	1.156436e+001	-1.202045e+001	-4.185347e+001	-1.201140e+001	-4.180045e+001	-1.604229e+000	1.175884e+001
13.572	-1.603775e+000	1.155263e+001	-1.205567e+001	-4.210124e+001	-1.204695e+001	-4.204746e+001	-1.588828e+000	1.174611e+001
13.733	-1.586407e+000	1.152609e+001	-1.210108e+001	-4.235806e+001	-1.208744e+001	-4.234224e+001	-1.570994e+000	1.173420e+001
13.923	-1.565156e+000	1.152017e+001	-1.214582e+001	-4.272652e+001	-1.213793e+001	-4.267164e+001	-1.550365e+000	1.171160e+001
14.112	-1.544588e+000	1.149979e+001	-1.219487e+001	-4.305854e+001	-1.218735e+001	-4.300217e+001	-1.529834e+000	1.169062e+001
14.302	-1.524362e+000	1.147903e+001	-1.224394e+001	-4.339167e+001	-1.223659e+001	-4.333529e+001	-1.509440e+000	1.166905e+001
14.492	-1.504476e+000	1.145700e+001	-1.229291e+001	-4.371754e+001	-1.228578e+001	-4.366128e+001	-1.489552e+000	1.164642e+001
14.682	-1.484863e+000	1.143350e+001	-1.234215e+001	-4.404134e+001	-1.233531e+001	-4.398403e+001	-1.469860e+000	1.162221e+001
14.872	-1.465430e+000	1.140895e+001	-1.239158e+001	-4.436268e+001	-1.238504e+001	-4.430496e+001	-1.450497e+000	1.159749e+001
15.062	-1.446302e+000	1.138338e+001	-1.244108e+001	-4.468166e+001	-1.243455e+001	-4.462414e+001	-1.431326e+000	1.157156e+001
15.251	-1.427616e+000	1.135686e+001	-1.249056e+001	-4.499326e+001	-1.248412e+001	-4.493559e+001	-1.412529e+000	1.154439e+001
15.441	-1.408891e+000	1.132882e+001	-1.254005e+001	-4.530713e+001	-1.253399e+001	-4.524857e+001	-1.393862e+000	1.151656e+001
15.631	-1.390655e+000	1.130143e+001	-1.258936e+001	-4.561600e+001	-1.258341e+001	-4.555667e+001	-1.375552e+000	1.148816e+001
15.821	-1.372709e+000	1.127204e+001	-1.263884e+001	-4.592135e+001	-1.263312e+001	-4.586160e+001	-1.357602e+000	1.145872e+001
16.011	-1.354933e+000	1.124207e+001	-1.268832e+001	-4.622253e+001	-1.268275e+001	-4.616305e+001	-1.339799e+000	1.142763e+001
16.201	-1.337502e+000	1.121134e+001	-1.273769e+001	-4.651990e+001	-1.273228e+001	-4.646016e+001	-1.322334e+000	1.139661e+001
16.391	-1.320198e+000	1.118023e+001	-1.278720e+001	-4.681753e+001	-1.278200e+001	-4.675782e+001	-1.305082e+000	1.136488e+001
16.580	-1.303352e+000	1.114839e+001	-1.283647e+001	-4.711049e+001	-1.283131e+001	-4.704966e+001	-1.288113e+000	1.133287e+001
16.770	-1.286613e+000	1.111552e+001	-1.288585e+001	-4.739936e+001	-1.288098e+001	-4.733928e+001	-1.271411e+000	1.129942e+001
16.960	-1.270152e+000	1.108190e+001	-1.293516e+001	-4.768613e+001	-1.293039e+001	-4.762534e+001	-1.254957e+000	1.126528e+001
17.150	-1.254241e+000	1.103355e+001	-1.299119e+001	-4.793218e+001	-1.298668e+001	-4.787436e+001	-1.238997e+000	1.121676e+001
17.340	-1.238074e+000	1.101392e+001	-1.303343e+001	-4.825137e+001	-1.302901e+001	-4.819089e+001	-1.222828e+000	1.119704e+001
17.530	-1.222293e+000	1.097924e+001	-1.308255e+001	-4.853061e+001	-1.307819e+001	-4.846827e+001	-1.207141e+000	1.116234e+001
17.720	-1.206778e+000	1.094344e+001	-1.313178e+001	-4.880475e+001	-1.312760e+001	-4.874258e+001	-1.191643e+000	1.112606e+001
17.909	-1.191585e+000	1.090737e+001	-1.318103e+001	-4.907798e+001	-1.317705e+001	-4.901424e+001	-1.176370e+000	1.108984e+001
18.099	-1.176512e+000	1.087153e+001	-1.323000e+001	-4.934623e+001	-1.322601e+001	-4.928368e+001	-1.161377e+000	1.105308e+001
18.289	-1.161750e+000	1.083431e+001	-1.327941e+001	-4.961275e+001	-1.327533e+001	-4.954945e+001	-1.146456e+000	1.101551e+001
18.479	-1.147230e+000	1.079735e+001	-1.332819e+001	-4.987721e+001	-1.332442e+001	-4.981441e+001	-1.131956e+000	1.097827e+001
18.669	-1.132948e+000	1.076012e+001	-1.337707e+001	-5.013715e+001	-1.337339e+001	-5.007425e+001	-1.117737e+000	1.094067e+001
18.859	-1.118794e+000	1.072208e+001	-1.342599e+001	-5.039565e+001	-1.342245e+001	-5.033290e+001	-1.103725e+000	1.090231e+001
19.082	-1.107219e+000	1.062432e+001	-1.350399e+001	-5.048210e+001	-1.350100e+001	-5.041856e+001	-1.091987e+000	1.080385e+001
19.344	-1.083904e+000	1.062480e+001	-1.355109e+001	-5.104525e+001	-1.354750e+001	-5.098263e+001	-1.068597e+000	1.080381e+001
19.606	-1.065739e+000	1.057096e+001	-1.361782e+001	-5.138414e+001	-1.361472e+001	-5.132026e+001	-1.050457e+000	1.074993e+001
19.868	-1.047771e+000	1.051686e+001	-1.368497e+001	-5.172565e+001	-1.368177e+001	-5.166082e+001	-1.032411e+000	1.069567e+001
20.130	-1.030257e+000	1.046263e+001	-1.375134e+001	-5.205659e+001	-1.374835e+001	-5.199220e+001	-1.015010e+000	1.064132e+001
20.392	-1.013153e+000	1.040847e+001	-1.381805e+001	-5.238289e+001	-1.381505e+001	-5.231810e+001	-9.978585e-001	1.058658e+001
20.655	-9.963499e-001	1.035299e+001	-1.388437e+001	-5.270658e+001	-1.388150e+001	-5.264076e+001	-9.810624e-001	1.053197e+001
20.917	-9.799060e-001	1.029815e+001	-1.395061e+001	-5.302706e+001	-1.394781e+001	-5.296163e+001	-9.645684e-001	1.047604e+001
21.179	-9.637475e-001	1.024224e+001	-1.401692e+001	-5.333832e+001	-1.401433e+001	-5.327143e+001	-9.485420e-001	1.042030e+001
21.441	-9.482246e-001	1.018788e+001	-1.408230e+001	-5.364876e+001	-1.407972e+001	-5.358213e+001	-9.327619e-001	1.036549e+001
21.703	-9.327956e-001	1.013138e+001	-1.414775e+001	-5.395122e+001	-1.414529e+001	-5.388380e+001	-9.174412e-001	1.030955e+001
21.965	-9.177371e-001	1.007578e+001	-1.421325e+001	-5.425113e+001	-1.421098e+001	-5.418311e+001	-9.023268e-001	1.025369e+001
22.228	-9.029219e-001	1.002038e+001	-1.427820e+001	-5.454693e+001	-1.427606e+001	-5.447946e+001	-8.875438e-001	1.019746e+001
22.490	-8.886152e-001	9.965234e+000	-1.434310e+001	-5.483988e+001	-1.434089e+001	-5.477143e+001	-8.732122e-001	1.014231e+001
22.752	-8.743208e-001	9.910047e+000	-1.440791e+001	-5.512800e+001	-1.440598e+001	-5.506076e+001	-8.590237e-001	1.008597e+001
23.014	-8.606277e-001	9.854746e+000	-1.447208e+001	-5.540970e+001	-1.446993e+001	-5.534197e+001	-8.452305e-001	1.003109e+001
23.276	-8.470921e-001	9.798681e+000	-1.453641e+001	-5.568742e+001	-1.453451e+001	-5.561991e+001	-8.316915e-001	9.974989e+000
23.538	-8.338486e-001	9.743644e+000	-1.460044e+001	-5.596403e+001	-1.459845e+001	-5.589538e+001	-8.184257e-001	9.919432e+000
23.801	-8.208496e-001	9.688610e+000	-1.466389e+001	-5.623522e+001	-1.466214e+001	-5.616698e+001	-8.054320e-001	9.864423e+000
24.063	-8.082037e-001	9.633868e+000	-1.472717e+001	-5.650263e+001	-1.472532e+001	-5.643411e+001	-7.927772e-001	9.809467e+000
24.325	-7.956138e-001	9.579449e+000	-1.479020e+001	-5.676832e+001	-1.478859e+001	-5.669930e+001	-7.803650e-001	9.755258e+000
24.587	-7.835957e-001	9.524789e+000	-1.485302e+001	-5.702653e+001	-1.485151e+001	-5.695720e+001	-7.682464e-001	9.700289e+000
24.849	-7.715934e-001	9.469861e+000	-1.491573e+001	-5.728403e+001	-1.491436e+001	-5.721340e+001	-7.563434e-001	9.645233e+000
25.111	-7.599470e-001	9.415986e+000	-1.497798e+001	-5.753588e+001	-1.497658e+001	-5.746638e+001	-7.446666e-001	9.590828e+000
25.374	-7.485000e-001	9.362365e+000	-1.504014e+001	-5.778513e+001	-1.503869e+001	-5.771497e+001	-7.331996e-001	9.537593e+000
25.636	-7.373695e-001	9.308685e+000	-1.510189e+001	-5.803020e+001	-1.510043e+001	-5.796038e+001	-7.221218e-001	9.483853e+000
25.898	-7.262911e-001	9.255584e+000	-1.516324e+001	-5.827278e+001	-1.516204e+001	-5.820325e+001	-7.112015e-001	9.429828e+000
26.204	-7.152787e-001	9.182014e+000	-1.524061e+001	-5.848319e+001	-1.523903e+001	-5.841886e+001	-6.997482e-001	9.357911e+000
26.564	-6.996253e-001	9.121706e+000	-1.531859e+001	-5.887519e+001	-1.531754e+001	-5.880400e+001	-6.843954e-001	9.295577e+000
26.924	-6.856395e-001	9.049001e+000	-1.540259e+001	-5.919295e+001	-1.540133e+001	-5.912324e+001	-6.704231e-001	9.222726e+000
27.284	-6.720472e-001	8.977421e+000	-1.548500e+001	-5.949724e+001	-1.548403e+001	-5.942660e+001	-6.569584e-001	9.151359e+000
27.644	-6.589062e-001	8.907519e+000	-1.556705e+001	-5.980954e+001	-1.556603e+001	-5.973589e+001	-6.436833e-001	9.081296e+000
28.004	-6.460901e-001	8.837085e+000	-1.564851e+001	-6.010069e+001	-1.564766e+001	-6.002828e+001	-6.310460e-001	9.010474e+000
28.364	-6.336396e-001	8.766927e+000	-1.573053e+001	-6.039561e+001	-1.572957e+001	-6.032349e+001	-6.184799e-001	8.939876e+000
28.724	-6.215502e-001	8.698535e+000	-1.581123e+001	-6.068424e+001	-1.581027e+001	-6.061274e+001	-6.063256e-001	8.870940e+000
29.084	-6.096769e-001	8.630084e+000	-1.589135e+001	-6.096778e+001	-1.589052e+001	-6.089397e+001	-5.944695e-001	8.803130e+000
29.444	-5.983154e-001	8.563277e+000	-1.597070e+001	-6.124107e+001	-1.597006e+001	-6.116867e+001	-5.830800e-001	8.735967e+000
29.804	-5.872719e-001	8.497835e+000	-1.604916e+001	-6.151569e+001	-1.604866e+001	-6.144105e+001	-5.719600e-001	8.670595e+000
30.164	-5.762497e-001	8.430647e+000	-1.612863e+001	-6.178533e+001	-1.612815e+001	-6.170898e+001	-5.610427e-001	8.603460e+000
30.524	-5.657878e-001	8.365110e+000	-1.620603e+001	-6.204680e+001	-1.620548e+001	-6.197268e+001	-5.505114e-001	8.537612e+000
30.884	-5.553691e-001	8.299505e+000	-1.628416e+001	-6.230245e+001	-1.628355e+001	-6.222745e+001	-5.401988e-001	8.472151e+000
31.244	-5.453500e-001	8.234942e+000	-1.636151e+001	-6.255698e+001	-1.636094e+001	-6.248215e+001	-5.301146e-001	8.407948e+000
31.605	-5.355269e-001	8.172077e+000	-1.643809e+001	-6.280378e+001	-1.643768e+001	-6.273124e+001	-5.203933e-001	8.343966e+000
31.965	-5.261533e-001	8.108852e+000	-1.651403e+001	-6.304945e+001	-1.651354e+001	-6.297462e+001	-5.109750e-001	8.281634e+000
32.325	-5.168110e-001	8.046903e+000	-1.658936e+001	-6.329117e+001	-1.658889e+001	-6.321774e+001	-5.015377e-001	8.219618e+000
32.685	-5.075735e-001	7.985635e+000	-1.666497e+001	-6.352707e+001	-1.666450e+001	-6.345441e+001	-4.925117e-001	8.157385e+000
33.045	-4.989197e-001	7.924909e+000	-1.673913e+001	-6.375970e+001	-1.673845e+001	-6.368498e+001	-4.836814e-001	8.096802e+000
33.405	-4.902341e-001	7.864853e+000	-1.681375e+001	-6.398588e+001	-1.681319e+001	-6.391202e+001	-4.751926e-001	8.036683e+000
33.765	-4.818135e-001	7.805053e+000	-1.688747e+001	-6.421214e+001	-1.688705e+001	-6.413712e+001	-4.666592e-001	7.976906e+000
34.125	-4.735457e-001	7.746595e+000	-1.696031e+001	-6.443280e+001	-1.696025e+001	-6.435918e+001	-4.585153e-001	7.918562e+000
34.485	-4.656782e-001	7.689104e+000	-1.703322e+001	-6.464849e+001	-1.703289e+001	-6.457570e+001	-4.505088e-001	7.860584e+000
34.845	-4.578282e-001	7.632035e+000	-1.710499e+001	-6.486217e+001	-1.710497e+001	-6.478678e+001	-4.428133e-001	7.802575e+000
35.205	-4.501709e-001	7.575669e+000	-1.717665e+001	-6.507353e+001	-1.717648e+001	-6.499855e+001	-4.352133e-001	7.746590e+000
35.565	-4.428285e-001	7.519162e+000	-1.724830e+001	-6.527783e+001	-1.724831e+001	-6.520281e+001	-4.278223e-001	7.690265e+000
35.985	-4.296232e-001	7.474137e+000	-1.732001e+001	-6.575832e+001	-1.731998e+001	-6.567818e+001	-4.148334e-001	7.645898e+000
36.483	-4.247028e-001	7.379963e+000	-1.742765e+001	-6.579355e+001	-1.742758e+001	-6.571771e+001	-4.097840e-001	7.550988e+000
36.980	-4.152435e-001	7.304410e+000	-1.752464e+001	-6.606368e+001	-1.752450e+001	-6.598660e+001	-4.003540e-001	7.475837e+000
37.478	-4.061524e-001	7.232530e+000	-1.761955e+001	-6.631934e+001	-1.761990e+001	-6.624127e+001	-3.915298e-001	7.403388e+000
37.975	-3.973976e-001	7.161097e+000	-1.771396e+001	-6.658565e+001	-1.771457e+001	-6.650531e+001	-3.826553e-001	7.331404e+000
38.473	-3.890704e-001	7.090259e+000	-1.780733e+001	-6.683015e+001	-1.780787e+001	-6.675037e+001	-3.743583e-001	7.261333e+000
38.970	-3.808063e-001	7.020644e+000	-1.790096e+001	-6.707421e+001	-1.790188e+001	-6.699536e+001	-3.661101e-001	7.191500e+000
39.468	-3.728617e-001	6.952258e+000	-1.799314e+001	-6.731748e+001	-1.799366e+001	-6.723756e+001	-3.580900e-001	7.122164e+000
39.965	-3.651651e-001	6.884524e+000	-1.808431e+001	-6.755138e+001	-1.808467e+001	-6.747066e+001	-3.504843e-001	7.055867e+000
40.463	-3.578742e-001	6.818853e+000	-1.817412e+001	-6.777968e+001	-1.817418e+001	-6.770077e+001	-3.429693e-001	6.990782e+000
40.960	-3.504548e-001	6.754592e+000	-1.826345e+001	-6.801256e+001	-1.826400e+001	-6.793495e+001	-3.356331e-001	6.925333e+000
41.458	-3.434670e-001	6.689543e+000	-1.835337e+001	-6.822869e+001	-1.835367e+001	-6.814945e+001	-3.287530e-001	6.861027e+000
41.955	-3.366819e-001	6.626813e+000	-1.844088e+001	-6.845274e+001	-1.844097e+001	-6.837258e+001	-3.218278e-001	6.798268e+000
42.452	-3.302021e-001	6.565817e+000	-1.852799e+001	-6.865951e+001	-1.852808e+001	-6.858092e+001	-3.153064e-001	6.736610e+000
42.950	-3.238293e-001	6.504811e+000	-1.861437e+001	-6.886566e+001	-1.861494e+001	-6.878596e+001	-3.088604e-001	6.675438e+000
43.447	-3.174785e-001	6.444967e+000	-1.870008e+001	-6.907143e+001	-1.870057e+001	-6.899024e+001	-3.025685e-001	6.614968e+000
43.945	-3.114265e-001	6.385865e+000	-1.878513e+001	-6.927108e+001	-1.878554e+001	-6.919246e+001	-2.966067e-001	6.556673e+000
44.442	-3.055258e-001	6.327272e+000	-1.887030e+001	-6.946843e+001	-1.887057e+001	-6.938626e+001	-2.906426e-001	6.498241e+000
44.940	-3.000060e-001	6.270257e+000	-1.895387e+001	-6.965835e+001	-1.895407e+001	-6.957414e+001	-2.850600e-001	6.441338e+000
45.437	-2.942183e-001	6.213712e+000	-1.903706e+001	-6.985144e+001	-1.903781e+001	-6.976829e+001	-2.794575e-001	6.384631e+000
45.935	-2.888640e-001	6.159306e+000	-1.911892e+001	-7.003749e+001	-1.911966e+001	-6.995067e+001	-2.740692e-001	6.329630e+000
46.432	-2.837473e-001	6.104370e+000	-1.920038e+001	-7.021526e+001	-1.920104e+001	-7.013039e+001	-2.689046e-001	6.275029e+000
46.930	-2.787294e-001	6.050527e+000	-1.928148e+001	-7.039151e+001	-1.928124e+001	-7.030792e+001	-2.638082e-001	6.222013e+000
47.427	-2.736499e-001	5.999670e+000	-1.936068e+001	-7.056529e+001	-1.936145e+001	-7.048807e+001	-2.587856e-001	6.169282e+000
47.925	-2.687249e-001	5.947269e+000	-1.944059e+001	-7.074320e+001	-1.944228e+001	-7.066418e+001	-2.538658e-001	6.116835e+000
48.422	-2.640006e-001	5.895231e+000	-1.952053e+001	-7.090734e+001	-1.952141e+001	-7.082309e+001	-2.492646e-001	6.065078e+000
48.920	-2.595551e-001	5.845719e+000	-1.959807e+001	-7.106953e+001	-1.959880e+001	-7.099182e+001	-2.446342e-001	6.016357e+000
49.417	-2.548812e-001	5.796077e+000	-1.967591e+001	-7.123841e+001	-1.967732e+001	-7.115346e+001	-2.401722e-001	5.965485e+000
50.001	-2.519102e-001	5.732407e+000	-1.977004e+001	-7.127824e+001	-1.977165e+001	-7.120127e+001	-2.371246e-001	5.902588e+000
50.688	-2.439754e-001	5.672503e+000	-1.987244e+001	-7.163786e+001	-1.987447e+001	-7.155304e+001	-2.292346e-001	5.841323e+000
51.375	-2.384094e-001	5.606774e+000	-1.997796e+001	-7.185583e+001	-1.997910e+001	-7.176236e+001	-2.236952e-001	5.776269e+000
52.062	-2.332509e-001	5.544046e+000	-2.008010e+001	-7.204724e+001	-2.008094e+001	-7.195899e+001	-2.183735e-001	5.714214e+000
52.749	-2.279547e-001	5.484315e+000	-2.017962e+001	-7.224862e+001	-2.018078e+001	-7.216379e+001	-2.132110e-001	5.653247e+000
53.436	-2.226032e-001	5.421895e+000	-2.028185e+001	-7.246342e+001	-2.028299e+001	-7.237999e+001	-2.078329e-001	5.591949e+000
54.123	-2.180111e-001	5.361717e+000	-2.038250e+001	-7.263128e+001	-2.038454e+001	-7.253709e+001	-2.034686e-001	5.532011e+000
54.810	-2.133967e-001	5.307040e+000	-2.047646e+001	-7.282357e+001	-2.047840e+001	-7.275360e+001	-1.984649e-001	5.476512e+000
55.497	-2.088425e-001	5.246545e+000	-2.057960e+001	-7.299810e+001	-2.058173e+001	-7.290278e+001	-1.942770e-001	5.415775e+000
56.184	-2.042561e-001	5.193590e+000	-2.067164e+001	-7.319887e+001	-2.067559e+001	-7.312481e+001	-1.892895e-001	5.361823e+000
56.871	-2.005036e-001	5.136864e+000	-2.076829e+001	-7.333749e+001	-2.076854e+001	-7.325743e+001	-1.858086e-001	5.308934e+000
57.558	-1.960140e-001	5.081932e+000	-2.086711e+001	-7.352385e+001	-2.086899e+001	-7.342393e+001	-1.816050e-001	5.251556e+000
58.245	-1.917193e-001	5.030039e+000	-2.095927e+001	-7.371670e+001	-2.096366e+001	-7.362228e+001	-1.771582e-001	5.198792e+000
58.932	-1.877836e-001	4.980371e+000	-2.104938e+001	-7.387925e+001	-2.105405e+001	-7.380137e+001	-1.732368e-001	5.148473e+000
59.619	-1.843245e-001	4.930184e+000	-2.113990e+001	-7.402753e+001	-2.114459e+001	-7.395634e+001	-1.695491e-001	5.099218e+000
60.306	-1.807306e-001	4.880124e+000	-2.123045e+001	-7.418802e+001	-2.123471e+001	-7.411362e+001	-1.660154e-001	5.049562e+000
60.993	-1.771855e-001	4.830808e+000	-2.132231e+001	-7.434063e+001	-2.132734e+001	-7.426459e+001	-1.623158e-001	4.999955e+000
61.680	-1.736788e-001	4.781370e+000	-2.141468e+001	-7.449408e+001	-2.141943e+001	-7.440534e+001	-1.590252e-001	4.950510e+000
62.367	-1.705617e-001	4.732850e+000	-2.150519e+001	-7.461885e+001	-2.150783e+001	-7.451788e+001	-1.562492e-001	4.903217e+000
63.054	-1.678934e-001	4.688713e+000	-2.158884e+001	-7.473760e+001	-2.158918e+001	-7.465337e+001	-1.532963e-001	4.859942e+000
