!Agilent Technologies,E5061B,MY49204007,A.02.12
!Date: Wed Jul 23 10:50:32 2025
!Data & Calibration Information:
!Freq	S11:SOLT2(ON)	S21:SOLT2(ON)	S12:SOLT2(ON)	S22:SOLT2(ON)
# Hz S dB R 50
10.000	-1.512629e+000	1.179450e+001	-1.213277e+001	-4.423064e+001	-1.212291e+001	-4.417788e+001	-1.498734e+000	1.198778e+001
10.137	-1.492340e+000	1.176561e+001	-1.218429e+001	-4.455102e+001	-1.217497e+001	-4.450273e+001	-1.478264e+000	1.195664e+001
10.275	-1.472406e+000	1.173436e+001	-1.223586e+001	-4.486741e+001	-1.222680e+001	-4.482036e+001	-1.458348e+000	1.192476e+001
10.412	-1.452775e+000	1.170258e+001	-1.228738e+001	-4.518065e+001	-1.227848e+001	-4.513347e+001	-1.438672e+000	1.189161e+001
10.550	-1.433414e+000	1.167061e+001	-1.233850e+001	-4.549294e+001	-1.233018e+001	-4.544327e+001	-1.419444e+000	1.185789e+001
10.687	-1.414498e+000	1.163751e+001	-1.238985e+001	-4.580205e+001	-1.238174e+001	-4.575165e+001	-1.400376e+000	1.182387e+001
10.824	-1.395761e+000	1.160410e+001	-1.244088e+001	-4.610975e+001	-1.243316e+001	-4.605775e+001	-1.381536e+000	1.178973e+001
10.962	-1.377261e+000	1.156928e+001	-1.249214e+001	-4.640972e+001	-1.248458e+001	-4.635481e+001	-1.363197e+000	1.175373e+001
11.099	-1.359285e+000	1.153527e+001	-1.254271e+001	-4.671077e+001	-1.253572e+001	-4.665731e+001	-1.345046e+000	1.171870e+001
11.237	-1.341465e+000	1.149872e+001	-1.259387e+001	-4.700383e+001	-1.258699e+001	-4.694915e+001	-1.327323e+000	1.168273e+001
11.374	-1.323764e+000	1.146287e+001	-1.264498e+001	-4.729764e+001	-1.263842e+001	-4.724056e+001	-1.309693e+000	1.164504e+001
11.511	-1.306546e+000	1.142644e+001	-1.269587e+001	-4.758875e+001	-1.268968e+001	-4.753055e+001	-1.292338e+000	1.160718e+001
11.649	-1.289470e+000	1.138874e+001	-1.274665e+001	-4.787550e+001	-1.274068e+001	-4.781680e+001	-1.275323e+000	1.156965e+001
11.786	-1.272782e+000	1.135086e+001	-1.279744e+001	-4.815936e+001	-1.279175e+001	-4.810069e+001	-1.258582e+000	1.153136e+001
11.924	-1.256374e+000	1.131336e+001	-1.284795e+001	-4.844101e+001	-1.284255e+001	-4.838262e+001	-1.242131e+000	1.149296e+001
12.061	-1.239981e+000	1.127416e+001	-1.289884e+001	-4.871967e+001	-1.289373e+001	-4.865881e+001	-1.225792e+000	1.145290e+001
12.198	-1.224246e+000	1.123544e+001	-1.294920e+001	-4.899530e+001	-1.294418e+001	-4.893633e+001	-1.209807e+000	1.141369e+001
12.336	-1.208485e+000	1.119528e+001	-1.300006e+001	-4.926672e+001	-1.299497e+001	-4.920590e+001	-1.194068e+000	1.137336e+001
12.473	-1.192996e+000	1.115464e+001	-1.305071e+001	-4.953745e+001	-1.304590e+001	-4.947411e+001	-1.178574e+000	1.133278e+001
12.611	-1.177829e+000	1.111470e+001	-1.310132e+001	-4.980497e+001	-1.309646e+001	-4.974131e+001	-1.163300e+000	1.129155e+001
12.748	-1.162900e+000	1.107427e+001	-1.315153e+001	-5.006862e+001	-1.314687e+001	-5.000535e+001	-1.148193e+000	1.125051e+001
12.885	-1.148168e+000	1.103343e+001	-1.320178e+001	-5.033023e+001	-1.319725e+001	-5.026696e+001	-1.133497e+000	1.120923e+001
13.023	-1.133479e+000	1.099216e+001	-1.325189e+001	-5.059089e+001	-1.324796e+001	-5.052611e+001	-1.118911e+000	1.116753e+001
13.160	-1.119371e+000	1.095042e+001	-1.330233e+001	-5.084415e+001	-1.329817e+001	-5.077932e+001	-1.104818e+000	1.112521e+001
13.298	-1.105219e+000	1.090823e+001	-1.335237e+001	-5.110037e+001	-1.334873e+001	-5.103391e+001	-1.090700e+000	1.108327e+001
13.435	-1.091323e+000	1.086675e+001	-1.340201e+001	-5.135058e+001	-1.339867e+001	-5.128435e+001	-1.076788e+000	1.104154e+001
13.572	-1.077779e+000	1.082482e+001	-1.345183e+001	-5.159808e+001	-1.344866e+001	-5.153184e+001	-1.063224e+000	1.099874e+001
13.733	-1.063468e+000	1.076062e+001	-1.351563e+001	-5.182203e+001	-1.350469e+001	-5.183872e+001	-1.047252e+000	1.095456e+001
13.923	-1.043976e+000	1.071739e+001	-1.357844e+001	-5.221926e+001	-1.357596e+001	-5.215242e+001	-1.029687e+000	1.089056e+001
14.112	-1.026311e+000	1.065720e+001	-1.364701e+001	-5.254587e+001	-1.364446e+001	-5.247776e+001	-1.012083e+000	1.083049e+001
14.302	-1.008855e+000	1.059844e+001	-1.371510e+001	-5.287353e+001	-1.371268e+001	-5.280549e+001	-9.946150e-001	1.077139e+001
14.492	-9.918942e-001	1.053899e+001	-1.378278e+001	-5.319194e+001	-1.378054e+001	-5.312286e+001	-9.776936e-001	1.071197e+001
14.682	-9.752885e-001	1.047952e+001	-1.385057e+001	-5.350623e+001	-1.384847e+001	-5.343696e+001	-9.611450e-001	1.065216e+001
14.872	-9.591459e-001	1.042013e+001	-1.391819e+001	-5.381750e+001	-1.391623e+001	-5.374789e+001	-9.450503e-001	1.059220e+001
15.062	-9.432597e-001	1.036092e+001	-1.398572e+001	-5.412635e+001	-1.398365e+001	-5.405540e+001	-9.290770e-001	1.053223e+001
15.251	-9.277801e-001	1.030114e+001	-1.405277e+001	-5.442401e+001	-1.405099e+001	-5.435364e+001	-9.135900e-001	1.047230e+001
15.441	-9.124543e-001	1.024132e+001	-1.411966e+001	-5.472448e+001	-1.411808e+001	-5.465339e+001	-8.983419e-001	1.041293e+001
15.631	-8.977438e-001	1.018301e+001	-1.418613e+001	-5.501709e+001	-1.418450e+001	-5.494596e+001	-8.835334e-001	1.035373e+001
15.821	-8.831405e-001	1.012377e+001	-1.425243e+001	-5.530604e+001	-1.425090e+001	-5.523506e+001	-8.688950e-001	1.029390e+001
16.011	-8.688959e-001	1.006416e+001	-1.431872e+001	-5.558946e+001	-1.431726e+001	-5.551795e+001	-8.547209e-001	1.023471e+001
16.201	-8.550356e-001	1.000466e+001	-1.438433e+001	-5.586829e+001	-1.438303e+001	-5.579600e+001	-8.409221e-001	1.017539e+001
16.391	-8.413014e-001	9.946041e+000	-1.444998e+001	-5.614738e+001	-1.444868e+001	-5.607508e+001	-8.271527e-001	1.011661e+001
16.580	-8.281265e-001	9.887925e+000	-1.451499e+001	-5.641902e+001	-1.451378e+001	-5.634578e+001	-8.139260e-001	1.005781e+001
16.770	-8.150331e-001	9.829431e+000	-1.457999e+001	-5.668690e+001	-1.457900e+001	-5.661293e+001	-8.009081e-001	9.999175e+000
16.960	-8.023381e-001	9.770860e+000	-1.464480e+001	-5.695050e+001	-1.464366e+001	-5.687648e+001	-7.881737e-001	9.940944e+000
17.150	-7.907087e-001	9.703559e+000	-1.471407e+001	-5.716762e+001	-1.471305e+001	-5.709776e+001	-7.765161e-001	9.873468e+000
17.340	-7.777199e-001	9.656195e+000	-1.477300e+001	-5.746861e+001	-1.477182e+001	-5.739478e+001	-7.635528e-001	9.825815e+000
17.530	-7.657255e-001	9.598880e+000	-1.483666e+001	-5.772338e+001	-1.483572e+001	-5.764842e+001	-7.516356e-001	9.768497e+000
17.720	-7.539980e-001	9.541451e+000	-1.490043e+001	-5.797229e+001	-1.489951e+001	-5.789791e+001	-7.398990e-001	9.710952e+000
17.909	-7.424901e-001	9.484310e+000	-1.496385e+001	-5.821976e+001	-1.496301e+001	-5.814390e+001	-7.284047e-001	9.653695e+000
18.099	-7.312936e-001	9.428329e+000	-1.502690e+001	-5.846252e+001	-1.502608e+001	-5.838710e+001	-7.171912e-001	9.596932e+000
18.289	-7.201973e-001	9.371560e+000	-1.508996e+001	-5.870296e+001	-1.508934e+001	-5.862715e+001	-7.061843e-001	9.539945e+000
18.479	-7.095304e-001	9.316057e+000	-1.515225e+001	-5.893941e+001	-1.515158e+001	-5.886293e+001	-6.954039e-001	9.484829e+000
18.669	-6.990398e-001	9.260441e+000	-1.521458e+001	-5.917134e+001	-1.521399e+001	-5.909472e+001	-6.848762e-001	9.429009e+000
18.859	-6.886671e-001	9.205099e+000	-1.527651e+001	-5.940135e+001	-1.527620e+001	-5.932527e+001	-6.745937e-001	9.373595e+000
19.082	-6.839068e-001	9.096571e+000	-1.536918e+001	-5.934856e+001	-1.536957e+001	-5.927500e+001	-6.696826e-001	9.264383e+000
19.344	-6.633811e-001	9.066677e+000	-1.543452e+001	-5.997997e+001	-1.543390e+001	-5.990375e+001	-6.491021e-001	9.233540e+000
19.606	-6.502880e-001	8.991995e+000	-1.551823e+001	-6.027578e+001	-1.551802e+001	-6.019870e+001	-6.361388e-001	9.159494e+000
19.868	-6.373727e-001	8.919360e+000	-1.560167e+001	-6.057701e+001	-1.560150e+001	-6.049932e+001	-6.232100e-001	9.085944e+000
20.130	-6.249693e-001	8.846525e+000	-1.568437e+001	-6.086479e+001	-1.568421e+001	-6.078688e+001	-6.108870e-001	9.013060e+000
20.392	-6.128808e-001	8.774093e+000	-1.576699e+001	-6.114729e+001	-1.576692e+001	-6.106980e+001	-5.988194e-001	8.940863e+000
20.655	-6.010586e-001	8.702926e+000	-1.584883e+001	-6.142719e+001	-1.584899e+001	-6.134959e+001	-5.871088e-001	8.869811e+000
20.917	-5.896309e-001	8.632334e+000	-1.593027e+001	-6.170520e+001	-1.593036e+001	-6.162650e+001	-5.756204e-001	8.799545e+000
21.179	-5.784012e-001	8.561990e+000	-1.601164e+001	-6.197264e+001	-1.601196e+001	-6.189401e+001	-5.645116e-001	8.728369e+000
21.441	-5.677199e-001	8.493670e+000	-1.609129e+001	-6.223798e+001	-1.609160e+001	-6.215893e+001	-5.537599e-001	8.660445e+000
21.703	-5.571171e-001	8.424551e+000	-1.617136e+001	-6.249524e+001	-1.617144e+001	-6.241504e+001	-5.432091e-001	8.591737e+000
21.965	-5.469236e-001	8.357539e+000	-1.625084e+001	-6.274852e+001	-1.625108e+001	-6.267122e+001	-5.328034e-001	8.523659e+000
22.228	-5.368711e-001	8.290483e+000	-1.632933e+001	-6.300108e+001	-1.632970e+001	-6.292142e+001	-5.229256e-001	8.457104e+000
22.490	-5.271869e-001	8.225118e+000	-1.640724e+001	-6.324891e+001	-1.640749e+001	-6.316905e+001	-5.131861e-001	8.391573e+000
22.752	-5.176266e-001	8.159873e+000	-1.648530e+001	-6.349194e+001	-1.648583e+001	-6.341215e+001	-5.035904e-001	8.325665e+000
23.014	-5.085178e-001	8.095918e+000	-1.656204e+001	-6.372661e+001	-1.656261e+001	-6.364685e+001	-4.944611e-001	8.261821e+000
23.276	-4.995141e-001	8.031513e+000	-1.663893e+001	-6.395926e+001	-1.663966e+001	-6.387843e+001	-4.854780e-001	8.197737e+000
23.538	-4.906704e-001	7.968807e+000	-1.671516e+001	-6.419027e+001	-1.671581e+001	-6.410981e+001	-4.766412e-001	8.134633e+000
23.801	-4.820815e-001	7.906742e+000	-1.679071e+001	-6.441557e+001	-1.679137e+001	-6.433475e+001	-4.681029e-001	8.072978e+000
24.063	-4.738041e-001	7.845911e+000	-1.686546e+001	-6.463653e+001	-1.686591e+001	-6.455638e+001	-4.597673e-001	8.011411e+000
24.325	-4.655370e-001	7.785668e+000	-1.693996e+001	-6.485723e+001	-1.694048e+001	-6.477580e+001	-4.515360e-001	7.951443e+000
24.587	-4.577852e-001	7.725527e+000	-1.701400e+001	-6.506934e+001	-1.701470e+001	-6.498810e+001	-4.437809e-001	7.891216e+000
24.849	-4.499844e-001	7.666350e+000	-1.708791e+001	-6.528056e+001	-1.708852e+001	-6.519825e+001	-4.360068e-001	7.831791e+000
25.111	-4.424456e-001	7.608100e+000	-1.716053e+001	-6.548660e+001	-1.716136e+001	-6.540589e+001	-4.285268e-001	7.773383e+000
25.374	-4.352040e-001	7.549971e+000	-1.723314e+001	-6.569172e+001	-1.723374e+001	-6.560989e+001	-4.212096e-001	7.715564e+000
25.636	-4.279971e-001	7.493443e+000	-1.730534e+001	-6.588984e+001	-1.730580e+001	-6.580901e+001	-4.140565e-001	7.658564e+000
25.898	-4.209976e-001	7.437262e+000	-1.737666e+001	-6.608754e+001	-1.737753e+001	-6.600780e+001	-4.071132e-001	7.602308e+000
26.204	-4.117974e-001	7.376104e+000	-1.745888e+001	-6.637540e+001	-1.745899e+001	-6.629987e+001	-3.977786e-001	7.541478e+000
26.564	-4.040551e-001	7.297191e+000	-1.755687e+001	-6.657630e+001	-1.755768e+001	-6.649479e+001	-3.900811e-001	7.462568e+000
26.924	-3.950988e-001	7.223188e+000	-1.765321e+001	-6.683364e+001	-1.765442e+001	-6.675345e+001	-3.812455e-001	7.387765e+000
27.284	-3.866216e-001	7.150380e+000	-1.774835e+001	-6.707523e+001	-1.774942e+001	-6.699411e+001	-3.728391e-001	7.314812e+000
27.644	-3.784281e-001	7.079299e+000	-1.784207e+001	-6.732676e+001	-1.784349e+001	-6.724401e+001	-3.645292e-001	7.244309e+000
28.004	-3.705010e-001	7.008593e+000	-1.793541e+001	-6.755800e+001	-1.793675e+001	-6.747612e+001	-3.565572e-001	7.173877e+000
28.364	-3.627766e-001	6.939262e+000	-1.802871e+001	-6.779322e+001	-1.803004e+001	-6.771202e+001	-3.488448e-001	7.104313e+000
28.724	-3.553077e-001	6.871718e+000	-1.812055e+001	-6.802454e+001	-1.812161e+001	-6.794156e+001	-3.413258e-001	7.035918e+000
29.084	-3.479764e-001	6.804925e+000	-1.821143e+001	-6.824751e+001	-1.821257e+001	-6.816559e+001	-3.341797e-001	6.969456e+000
29.444	-3.411290e-001	6.739975e+000	-1.830105e+001	-6.846413e+001	-1.830256e+001	-6.838051e+001	-3.272075e-001	6.904679e+000
29.804	-3.342947e-001	6.676188e+000	-1.838991e+001	-6.868095e+001	-1.839104e+001	-6.859600e+001	-3.203608e-001	6.841347e+000
30.164	-3.275994e-001	6.612445e+000	-1.847906e+001	-6.889440e+001	-1.848039e+001	-6.880594e+001	-3.137397e-001	6.777514e+000
30.524	-3.213045e-001	6.550520e+000	-1.856605e+001	-6.909781e+001	-1.856731e+001	-6.901224e+001	-3.073701e-001	6.715072e+000
30.884	-3.150638e-001	6.487940e+000	-1.865357e+001	-6.929524e+001	-1.865489e+001	-6.921391e+001	-3.011351e-001	6.652393e+000
31.244	-3.089936e-001	6.427072e+000	-1.874017e+001	-6.949639e+001	-1.874145e+001	-6.941231e+001	-2.950281e-001	6.592046e+000
31.605	-3.031293e-001	6.367979e+000	-1.882556e+001	-6.968875e+001	-1.882693e+001	-6.960522e+001	-2.891756e-001	6.532522e+000
31.965	-2.974951e-001	6.309318e+000	-1.891014e+001	-6.987919e+001	-1.891151e+001	-6.979300e+001	-2.835526e-001	6.473954e+000
32.325	-2.919993e-001	6.252485e+000	-1.899383e+001	-7.006583e+001	-1.899491e+001	-6.998453e+001	-2.779710e-001	6.417204e+000
32.685	-2.864598e-001	6.196111e+000	-1.907741e+001	-7.025073e+001	-1.907869e+001	-7.016650e+001	-2.724889e-001	6.360441e+000
33.045	-2.814392e-001	6.140484e+000	-1.915939e+001	-7.042781e+001	-1.916077e+001	-7.034412e+001	-2.673696e-001	6.304721e+000
33.405	-2.762845e-001	6.085574e+000	-1.924199e+001	-7.060461e+001	-1.924341e+001	-7.051669e+001	-2.622839e-001	6.249807e+000
33.765	-2.713091e-001	6.031829e+000	-1.932302e+001	-7.077728e+001	-1.932486e+001	-7.069340e+001	-2.573112e-001	6.195954e+000
34.125	-2.663597e-001	5.978767e+000	-1.940344e+001	-7.094618e+001	-1.940517e+001	-7.086433e+001	-2.525177e-001	6.143141e+000
34.485	-2.617503e-001	5.926378e+000	-1.948342e+001	-7.111123e+001	-1.948496e+001	-7.102670e+001	-2.478763e-001	6.090753e+000
34.845	-2.571788e-001	5.874994e+000	-1.956222e+001	-7.127459e+001	-1.956415e+001	-7.118823e+001	-2.433849e-001	6.039511e+000
35.205	-2.525839e-001	5.824978e+000	-1.964060e+001	-7.143760e+001	-1.964233e+001	-7.135098e+001	-2.388799e-001	5.989578e+000
35.565	-2.484335e-001	5.775318e+000	-1.971902e+001	-7.159386e+001	-1.972071e+001	-7.150812e+001	-2.345548e-001	5.939385e+000
35.985	-2.387702e-001	5.730118e+000	-1.980107e+001	-7.207886e+001	-1.980228e+001	-7.199097e+001	-2.251454e-001	5.895253e+000
36.483	-2.379399e-001	5.652338e+000	-1.991441e+001	-7.198149e+001	-1.991638e+001	-7.189725e+001	-2.242086e-001	5.816198e+000
36.980	-2.324174e-001	5.587296e+000	-2.001948e+001	-7.218781e+001	-2.002200e+001	-7.210483e+001	-2.187085e-001	5.750509e+000
37.478	-2.272850e-001	5.523653e+000	-2.012111e+001	-7.238277e+001	-2.012437e+001	-7.229793e+001	-2.136647e-001	5.688077e+000
37.975	-2.222567e-001	5.461237e+000	-2.022419e+001	-7.258110e+001	-2.022751e+001	-7.249675e+001	-2.086098e-001	5.625499e+000
38.473	-2.174754e-001	5.401671e+000	-2.032477e+001	-7.276501e+001	-2.032798e+001	-7.268265e+001	-2.037986e-001	5.565699e+000
38.970	-2.126705e-001	5.341274e+000	-2.042551e+001	-7.294838e+001	-2.042881e+001	-7.286347e+001	-1.990685e-001	5.505229e+000
39.468	-2.081296e-001	5.283481e+000	-2.052443e+001	-7.312927e+001	-2.052784e+001	-7.304523e+001	-1.945508e-001	5.446927e+000
39.965	-2.038821e-001	5.225787e+000	-2.062244e+001	-7.330694e+001	-2.062548e+001	-7.322106e+001	-1.901088e-001	5.390404e+000
40.463	-1.995959e-001	5.170237e+000	-2.071893e+001	-7.348272e+001	-2.072215e+001	-7.339709e+001	-1.860019e-001	5.334972e+000
40.960	-1.954010e-001	5.114250e+000	-2.081544e+001	-7.365491e+001	-2.081850e+001	-7.357064e+001	-1.816359e-001	5.278600e+000
41.458	-1.914450e-001	5.060469e+000	-2.091047e+001	-7.381208e+001	-2.091376e+001	-7.372845e+001	-1.778124e-001	5.224868e+000
41.955	-1.875541e-001	5.008478e+000	-2.100444e+001	-7.398102e+001	-2.100765e+001	-7.389766e+001	-1.738292e-001	5.171747e+000
42.452	-1.839535e-001	4.957020e+000	-2.109717e+001	-7.413531e+001	-2.110045e+001	-7.404979e+001	-1.701887e-001	5.120906e+000
42.950	-1.803113e-001	4.906092e+000	-2.118945e+001	-7.428784e+001	-2.119264e+001	-7.420212e+001	-1.666036e-001	5.069877e+000
43.447	-1.768748e-001	4.856253e+000	-2.128068e+001	-7.444013e+001	-2.128407e+001	-7.435474e+001	-1.631273e-001	5.019918e+000
43.945	-1.733938e-001	4.806769e+000	-2.137102e+001	-7.459291e+001	-2.137426e+001	-7.450620e+001	-1.596578e-001	4.971571e+000
44.442	-1.701482e-001	4.759759e+000	-2.146048e+001	-7.473455e+001	-2.146427e+001	-7.464738e+001	-1.564455e-001	4.924274e+000
44.940	-1.670964e-001	4.712901e+000	-2.154890e+001	-7.487072e+001	-2.155261e+001	-7.478440e+001	-1.533004e-001	4.876398e+000
45.437	-1.639296e-001	4.666651e+000	-2.163733e+001	-7.501110e+001	-2.164108e+001	-7.492488e+001	-1.501382e-001	4.830109e+000
45.935	-1.608864e-001	4.621323e+000	-2.172363e+001	-7.514780e+001	-2.172771e+001	-7.506229e+001	-1.471957e-001	4.785080e+000
46.432	-1.580224e-001	4.577484e+000	-2.180935e+001	-7.527786e+001	-2.181319e+001	-7.519265e+001	-1.442431e-001	4.740244e+000
46.930	-1.550762e-001	4.534248e+000	-2.189400e+001	-7.541456e+001	-2.189824e+001	-7.532613e+001	-1.414995e-001	4.697205e+000
47.427	-1.522633e-001	4.492070e+000	-2.197911e+001	-7.554946e+001	-2.198285e+001	-7.546267e+001	-1.385483e-001	4.654749e+000
47.925	-1.496714e-001	4.448521e+000	-2.206483e+001	-7.567037e+001	-2.206846e+001	-7.558685e+001	-1.357940e-001	4.611520e+000
48.422	-1.470952e-001	4.407692e+000	-2.214612e+001	-7.578123e+001	-2.215052e+001	-7.569664e+001	-1.334699e-001	4.570660e+000
48.920	-1.443786e-001	4.367647e+000	-2.222872e+001	-7.591838e+001	-2.223240e+001	-7.583158e+001	-1.307324e-001	4.530956e+000
49.417	-1.420014e-001	4.327753e+000	-2.231033e+001	-7.602493e+001	-2.231472e+001	-7.593912e+001	-1.283324e-001	4.490846e+000
50.001	-1.414633e-001	4.276540e+000	-2.240968e+001	-7.596918e+001	-2.241360e+001	-7.589069e+001	-1.275152e-001	4.440377e+000
50.688	-1.359771e-001	4.227931e+000	-2.251740e+001	-7.631344e+001	-2.252172e+001	-7.623140e+001	-1.222683e-001	4.391518e+000
51.375	-1.329220e-001	4.176573e+000	-2.262547e+001	-7.646307e+001	-2.263037e+001	-7.637986e+001	-1.192584e-001	4.339856e+000
52.062	-1.299287e-001	4.128373e+000	-2.272970e+001	-7.661636e+001	-2.273462e+001	-7.652607e+001	-1.163898e-001	4.291638e+000
52.749	-1.269148e-001	4.078630e+000	-2.283667e+001	-7.678960e+001	-2.284009e+001	-7.669996e+001	-1.132237e-001	4.242214e+000
53.436	-1.242039e-001	4.027501e+000	-2.294725e+001	-7.691062e+001	-2.295130e+001	-7.683165e+001	-1.104484e-001	4.190767e+000
54.123	-1.218107e-001	3.984267e+000	-2.304364e+001	-7.702724e+001	-2.304942e+001	-7.693520e+001	-1.082651e-001	4.146819e+000
54.810	-1.188321e-001	3.936466e+000	-2.315229e+001	-7.720399e+001	-2.315552e+001	-7.712044e+001	-1.051588e-001	4.100716e+000
55.497	-1.167272e-001	3.893752e+000	-2.324714e+001	-7.729195e+001	-2.325320e+001	-7.719828e+001	-1.031770e-001	4.056436e+000
56.184	-1.142602e-001	3.845855e+000	-2.335672e+001	-7.744257e+001	-2.336090e+001	-7.736478e+001	-1.002745e-001	4.009612e+000
56.871	-1.117498e-001	3.807290e+000	-2.344736e+001	-7.759834e+001	-2.345087e+001	-7.750222e+001	-9.797676e-002	3.971190e+000
57.558	-1.099936e-001	3.766535e+000	-2.354379e+001	-7.766093e+001	-2.354962e+001	-7.756613e+001	-9.643336e-002	3.928303e+000
58.245	-1.079812e-001	3.721397e+000	-2.364799e+001	-7.776927e+001	-2.365371e+001	-7.768695e+001	-9.418253e-002	3.883638e+000
58.932	-1.054118e-001	3.678841e+000	-2.374796e+001	-7.791461e+001	-2.375250e+001	-7.783433e+001	-9.172248e-002	3.843048e+000
59.619	-1.033116e-001	3.639449e+000	-2.384391e+001	-7.804426e+001	-2.384800e+001	-7.796363e+001	-8.949954e-002	3.804206e+000
60.306	-1.013186e-001	3.601782e+000	-2.393710e+001	-7.815587e+001	-2.394122e+001	-7.807526e+001	-8.759842e-002	3.766767e+000
60.993	-9.959192e-002	3.562668e+000	-2.403107e+001	-7.824922e+001	-2.403562e+001	-7.817097e+001	-8.583665e-002	3.727299e+000
61.680	-9.788259e-002	3.527951e+000	-2.411964e+001	-7.832899e+001	-2.412501e+001	-7.824869e+001	-8.429491e-002	3.690804e+000
62.367	-9.628252e-002	3.494565e+000	-2.420322e+001	-7.843343e+001	-2.420903e+001	-7.834428e+001	-8.268704e-002	3.657953e+000
63.054	-9.399593e-002	3.459883e+000	-2.429189e+001	-7.859697e+001	-2.429642e+001	-7.850349e+001	-8.048829e-002	3.623453e+000
