!Agilent Technologies,E5061B,MY49204007,A.02.12
!Date: Wed Jul 23 11:12:25 2025
!Data & Calibration Information:
!Freq	S11:SOLT2(ON)	S21:SOLT2(ON)	S12:SOLT2(ON)	S22:SOLT2(ON)
# Hz S dB R 50
10.000	-2.661558e+000	1.105431e+001	-1.011955e+001	-2.712577e+001	-1.008492e+001	-2.707785e+001	-2.654853e+000	1.132292e+001
10.137	-2.646297e+000	1.109975e+001	-1.013808e+001	-2.735391e+001	-1.010502e+001	-2.730992e+001	-2.638889e+000	1.136406e+001
10.275	-2.630847e+000	1.114399e+001	-1.015656e+001	-2.758612e+001	-1.012511e+001	-2.754359e+001	-2.622858e+000	1.140477e+001
10.412	-2.615392e+000	1.118715e+001	-1.017571e+001	-2.781783e+001	-1.014545e+001	-2.777570e+001	-2.606887e+000	1.144504e+001
10.550	-2.599807e+000	1.122913e+001	-1.019493e+001	-2.805129e+001	-1.016608e+001	-2.800794e+001	-2.590833e+000	1.148417e+001
10.687	-2.584142e+000	1.126991e+001	-1.021461e+001	-2.828421e+001	-1.018666e+001	-2.824049e+001	-2.574829e+000	1.152251e+001
10.824	-2.568709e+000	1.131042e+001	-1.023438e+001	-2.851793e+001	-1.020732e+001	-2.847353e+001	-2.558836e+000	1.156040e+001
10.962	-2.553055e+000	1.135058e+001	-1.025357e+001	-2.875077e+001	-1.022814e+001	-2.870411e+001	-2.542923e+000	1.159791e+001
11.099	-2.537672e+000	1.139029e+001	-1.027311e+001	-2.898540e+001	-1.024911e+001	-2.893770e+001	-2.526900e+000	1.163389e+001
11.237	-2.521953e+000	1.142635e+001	-1.029344e+001	-2.921623e+001	-1.027015e+001	-2.916792e+001	-2.510989e+000	1.166872e+001
11.374	-2.506299e+000	1.146247e+001	-1.031384e+001	-2.944777e+001	-1.029129e+001	-2.939843e+001	-2.495050e+000	1.170313e+001
11.511	-2.490766e+000	1.149826e+001	-1.033403e+001	-2.968026e+001	-1.031261e+001	-2.962924e+001	-2.479196e+000	1.173685e+001
11.649	-2.475098e+000	1.153283e+001	-1.035442e+001	-2.991202e+001	-1.033408e+001	-2.986026e+001	-2.463293e+000	1.176892e+001
11.786	-2.459504e+000	1.156597e+001	-1.037528e+001	-3.014328e+001	-1.035562e+001	-3.009027e+001	-2.447476e+000	1.180051e+001
11.924	-2.444089e+000	1.159841e+001	-1.039617e+001	-3.037392e+001	-1.037717e+001	-3.032095e+001	-2.431608e+000	1.183102e+001
12.061	-2.428279e+000	1.162810e+001	-1.041759e+001	-3.060229e+001	-1.039892e+001	-3.054901e+001	-2.415795e+000	1.186051e+001
12.198	-2.412913e+000	1.165818e+001	-1.043881e+001	-3.083265e+001	-1.042065e+001	-3.077924e+001	-2.399968e+000	1.188917e+001
12.336	-2.397301e+000	1.168708e+001	-1.046032e+001	-3.106022e+001	-1.044264e+001	-3.100655e+001	-2.384333e+000	1.191696e+001
12.473	-2.381855e+000	1.171462e+001	-1.048196e+001	-3.128856e+001	-1.046464e+001	-3.123392e+001	-2.368592e+000	1.194367e+001
12.611	-2.366361e+000	1.174178e+001	-1.050366e+001	-3.151621e+001	-1.048682e+001	-3.146099e+001	-2.353003e+000	1.196990e+001
12.748	-2.351021e+000	1.176745e+001	-1.052561e+001	-3.174300e+001	-1.050902e+001	-3.168830e+001	-2.337390e+000	1.199452e+001
12.885	-2.335649e+000	1.179206e+001	-1.054777e+001	-3.196837e+001	-1.053142e+001	-3.191387e+001	-2.321894e+000	1.201838e+001
13.023	-2.320223e+000	1.181664e+001	-1.056972e+001	-3.219445e+001	-1.055407e+001	-3.213946e+001	-2.306389e+000	1.204167e+001
13.160	-2.305099e+000	1.184001e+001	-1.059213e+001	-3.241799e+001	-1.057651e+001	-3.236352e+001	-2.290965e+000	1.206370e+001
13.298	-2.289765e+000	1.186156e+001	-1.061460e+001	-3.264279e+001	-1.059940e+001	-3.258746e+001	-2.275665e+000	1.208519e+001
13.435	-2.274561e+000	1.188323e+001	-1.063691e+001	-3.286545e+001	-1.062211e+001	-3.281081e+001	-2.260336e+000	1.210560e+001
13.572	-2.259449e+000	1.190320e+001	-1.065949e+001	-3.308787e+001	-1.064504e+001	-3.303301e+001	-2.245194e+000	1.212560e+001
13.733	-2.241680e+000	1.191786e+001	-1.068831e+001	-3.333501e+001	-1.067181e+001	-3.329097e+001	-2.227572e+000	1.214706e+001
13.923	-2.221194e+000	1.195173e+001	-1.071709e+001	-3.365371e+001	-1.070395e+001	-3.359638e+001	-2.206696e+000	1.217161e+001
14.112	-2.200469e+000	1.197502e+001	-1.074856e+001	-3.395597e+001	-1.073609e+001	-3.389825e+001	-2.186002e+000	1.219375e+001
14.302	-2.180076e+000	1.199730e+001	-1.078060e+001	-3.425956e+001	-1.076829e+001	-3.420142e+001	-2.165369e+000	1.221496e+001
14.492	-2.159643e+000	1.201787e+001	-1.081234e+001	-3.456003e+001	-1.080047e+001	-3.450214e+001	-2.144860e+000	1.223412e+001
14.682	-2.139446e+000	1.203625e+001	-1.084462e+001	-3.485852e+001	-1.083323e+001	-3.479978e+001	-2.124552e+000	1.225234e+001
14.872	-2.119374e+000	1.205356e+001	-1.087697e+001	-3.515611e+001	-1.086593e+001	-3.509621e+001	-2.104328e+000	1.226826e+001
15.062	-2.099378e+000	1.206968e+001	-1.090957e+001	-3.545197e+001	-1.089892e+001	-3.539258e+001	-2.084290e+000	1.228319e+001
15.251	-2.079495e+000	1.208321e+001	-1.094242e+001	-3.574464e+001	-1.093188e+001	-3.568431e+001	-2.064346e+000	1.229676e+001
15.441	-2.059761e+000	1.209539e+001	-1.097548e+001	-3.603776e+001	-1.096515e+001	-3.597756e+001	-2.044454e+000	1.230830e+001
15.631	-2.040233e+000	1.210699e+001	-1.100847e+001	-3.632847e+001	-1.099839e+001	-3.626817e+001	-2.024790e+000	1.231934e+001
15.821	-2.020826e+000	1.211689e+001	-1.104170e+001	-3.661698e+001	-1.103180e+001	-3.655682e+001	-2.005399e+000	1.232858e+001
16.011	-2.001449e+000	1.212526e+001	-1.107518e+001	-3.690273e+001	-1.106547e+001	-3.684259e+001	-1.986067e+000	1.233641e+001
16.201	-1.982437e+000	1.213243e+001	-1.110855e+001	-3.718768e+001	-1.109910e+001	-3.712723e+001	-1.966910e+000	1.234259e+001
16.391	-1.963458e+000	1.213835e+001	-1.114216e+001	-3.747133e+001	-1.113284e+001	-3.741175e+001	-1.947817e+000	1.234794e+001
16.580	-1.944738e+000	1.214352e+001	-1.117577e+001	-3.775334e+001	-1.116657e+001	-3.769289e+001	-1.928943e+000	1.235277e+001
16.770	-1.926025e+000	1.214658e+001	-1.120939e+001	-3.803319e+001	-1.120065e+001	-3.797185e+001	-1.910336e+000	1.235532e+001
16.960	-1.907564e+000	1.214822e+001	-1.124335e+001	-3.831074e+001	-1.123459e+001	-3.824935e+001	-1.891721e+000	1.235736e+001
17.150	-1.888637e+000	1.213244e+001	-1.128430e+001	-3.856310e+001	-1.127582e+001	-3.850374e+001	-1.872841e+000	1.234034e+001
17.340	-1.871026e+000	1.215023e+001	-1.131116e+001	-3.886263e+001	-1.130290e+001	-3.880113e+001	-1.855119e+000	1.235711e+001
17.530	-1.853021e+000	1.214908e+001	-1.134521e+001	-3.913515e+001	-1.133718e+001	-3.907367e+001	-1.837075e+000	1.235552e+001
17.720	-1.835200e+000	1.214684e+001	-1.137942e+001	-3.940622e+001	-1.137174e+001	-3.934280e+001	-1.819197e+000	1.235265e+001
17.909	-1.817495e+000	1.214384e+001	-1.141380e+001	-3.967517e+001	-1.140636e+001	-3.961223e+001	-1.801483e+000	1.234832e+001
18.099	-1.799954e+000	1.213951e+001	-1.144801e+001	-3.994351e+001	-1.144097e+001	-3.987865e+001	-1.783933e+000	1.234314e+001
18.289	-1.782588e+000	1.213429e+001	-1.148265e+001	-4.020870e+001	-1.147569e+001	-4.014364e+001	-1.766461e+000	1.233709e+001
18.479	-1.765359e+000	1.212800e+001	-1.151710e+001	-4.047262e+001	-1.151037e+001	-4.040627e+001	-1.749210e+000	1.233091e+001
18.669	-1.748392e+000	1.212034e+001	-1.155188e+001	-4.073311e+001	-1.154524e+001	-4.066769e+001	-1.732173e+000	1.232281e+001
18.859	-1.731547e+000	1.211240e+001	-1.158659e+001	-4.099335e+001	-1.158023e+001	-4.092714e+001	-1.715254e+000	1.231405e+001
19.082	-1.713393e+000	1.205101e+001	-1.164407e+001	-4.117900e+001	-1.163818e+001	-4.111110e+001	-1.697092e+000	1.225085e+001
19.344	-1.689213e+000	1.208754e+001	-1.167608e+001	-4.164912e+001	-1.166979e+001	-4.158375e+001	-1.672699e+000	1.228803e+001
19.606	-1.666891e+000	1.207156e+001	-1.172413e+001	-4.199530e+001	-1.171808e+001	-4.193015e+001	-1.650388e+000	1.227077e+001
19.868	-1.644789e+000	1.205482e+001	-1.177272e+001	-4.234390e+001	-1.176688e+001	-4.227802e+001	-1.628254e+000	1.225278e+001
20.130	-1.622996e+000	1.203576e+001	-1.182099e+001	-4.268399e+001	-1.181543e+001	-4.261872e+001	-1.606533e+000	1.223420e+001
20.392	-1.601520e+000	1.201490e+001	-1.186967e+001	-4.302142e+001	-1.186405e+001	-4.295560e+001	-1.584947e+000	1.221340e+001
20.655	-1.580355e+000	1.199316e+001	-1.191843e+001	-4.335702e+001	-1.191296e+001	-4.329135e+001	-1.563731e+000	1.219118e+001
20.917	-1.559478e+000	1.197048e+001	-1.196704e+001	-4.368995e+001	-1.196200e+001	-4.362298e+001	-1.542811e+000	1.216821e+001
21.179	-1.538843e+000	1.194583e+001	-1.201601e+001	-4.401718e+001	-1.201111e+001	-4.394943e+001	-1.522307e+000	1.214261e+001
21.441	-1.518548e+000	1.192124e+001	-1.206452e+001	-4.434263e+001	-1.205990e+001	-4.427502e+001	-1.502077e+000	1.211780e+001
21.703	-1.498676e+000	1.189405e+001	-1.211361e+001	-4.466178e+001	-1.210890e+001	-4.459435e+001	-1.482047e+000	1.209075e+001
21.965	-1.478868e+000	1.186602e+001	-1.216266e+001	-4.497956e+001	-1.215797e+001	-4.491204e+001	-1.462347e+000	1.206253e+001
22.228	-1.459595e+000	1.183794e+001	-1.221157e+001	-4.529486e+001	-1.220706e+001	-4.522680e+001	-1.442994e+000	1.203380e+001
22.490	-1.440563e+000	1.180887e+001	-1.226027e+001	-4.560755e+001	-1.225602e+001	-4.553947e+001	-1.423871e+000	1.200399e+001
22.752	-1.421683e+000	1.177884e+001	-1.230946e+001	-4.591586e+001	-1.230532e+001	-4.584726e+001	-1.405057e+000	1.197321e+001
23.014	-1.403321e+000	1.174756e+001	-1.235812e+001	-4.622018e+001	-1.235399e+001	-4.615153e+001	-1.386604e+000	1.194206e+001
23.276	-1.385092e+000	1.171533e+001	-1.240726e+001	-4.652125e+001	-1.240338e+001	-4.645267e+001	-1.368382e+000	1.190958e+001
23.538	-1.367105e+000	1.168276e+001	-1.245620e+001	-4.682021e+001	-1.245229e+001	-4.675066e+001	-1.350416e+000	1.187632e+001
23.801	-1.349394e+000	1.164933e+001	-1.250501e+001	-4.711580e+001	-1.250137e+001	-4.704600e+001	-1.332678e+000	1.184292e+001
24.063	-1.332043e+000	1.161550e+001	-1.255385e+001	-4.740701e+001	-1.255026e+001	-4.733774e+001	-1.315336e+000	1.180899e+001
24.325	-1.314717e+000	1.158103e+001	-1.260274e+001	-4.769721e+001	-1.259918e+001	-4.762761e+001	-1.298122e+000	1.177397e+001
24.587	-1.298024e+000	1.154522e+001	-1.265153e+001	-4.798163e+001	-1.264803e+001	-4.791325e+001	-1.281282e+000	1.173832e+001
24.849	-1.281470e+000	1.150942e+001	-1.270057e+001	-4.826495e+001	-1.269708e+001	-4.819575e+001	-1.264594e+000	1.170183e+001
25.111	-1.265035e+000	1.147252e+001	-1.274922e+001	-4.854450e+001	-1.274596e+001	-4.847586e+001	-1.248367e+000	1.166461e+001
25.374	-1.248996e+000	1.143580e+001	-1.279788e+001	-4.882228e+001	-1.279480e+001	-4.875198e+001	-1.232303e+000	1.162766e+001
25.636	-1.233207e+000	1.139818e+001	-1.284651e+001	-4.909413e+001	-1.284331e+001	-4.902506e+001	-1.216475e+000	1.158954e+001
25.898	-1.217530e+000	1.136069e+001	-1.289497e+001	-4.936611e+001	-1.289199e+001	-4.929653e+001	-1.200889e+000	1.155174e+001
26.204	-1.202825e+000	1.127540e+001	-1.296667e+001	-4.953261e+001	-1.296338e+001	-4.946845e+001	-1.185781e+000	1.146726e+001
26.564	-1.179189e+000	1.126255e+001	-1.301851e+001	-5.004202e+001	-1.301544e+001	-4.997214e+001	-1.162374e+000	1.145304e+001
26.924	-1.158995e+000	1.120828e+001	-1.308519e+001	-5.040064e+001	-1.308223e+001	-5.033097e+001	-1.142164e+000	1.139830e+001
27.284	-1.139276e+000	1.115380e+001	-1.315131e+001	-5.074869e+001	-1.314859e+001	-5.067829e+001	-1.122524e+000	1.134400e+001
27.644	-1.119961e+000	1.109939e+001	-1.321742e+001	-5.109984e+001	-1.321470e+001	-5.102997e+001	-1.103123e+000	1.128872e+001
28.004	-1.101080e+000	1.104311e+001	-1.328329e+001	-5.143690e+001	-1.328069e+001	-5.136751e+001	-1.084288e+000	1.123265e+001
28.364	-1.082520e+000	1.098700e+001	-1.334948e+001	-5.177250e+001	-1.334712e+001	-5.170446e+001	-1.065782e+000	1.117570e+001
28.724	-1.064527e+000	1.093020e+001	-1.341534e+001	-5.210713e+001	-1.341285e+001	-5.203740e+001	-1.047670e+000	1.111951e+001
29.084	-1.046803e+000	1.087385e+001	-1.348075e+001	-5.243375e+001	-1.347850e+001	-5.236392e+001	-1.030005e+000	1.106236e+001
29.444	-1.029565e+000	1.081780e+001	-1.354599e+001	-5.275397e+001	-1.354362e+001	-5.268258e+001	-1.012716e+000	1.100671e+001
29.804	-1.012677e+000	1.076176e+001	-1.361061e+001	-5.307389e+001	-1.360841e+001	-5.300169e+001	-9.958438e-001	1.095041e+001
30.164	-9.959192e-001	1.070382e+001	-1.367603e+001	-5.338763e+001	-1.367404e+001	-5.331411e+001	-9.792455e-001	1.089190e+001
30.524	-9.799066e-001	1.064641e+001	-1.374027e+001	-5.369590e+001	-1.373830e+001	-5.362301e+001	-9.631427e-001	1.083467e+001
30.884	-9.641275e-001	1.058791e+001	-1.380511e+001	-5.399715e+001	-1.380315e+001	-5.392429e+001	-9.472357e-001	1.077593e+001
31.244	-9.485321e-001	1.053038e+001	-1.386972e+001	-5.429586e+001	-1.386750e+001	-5.422483e+001	-9.316515e-001	1.071824e+001
31.605	-9.333856e-001	1.047280e+001	-1.393362e+001	-5.459148e+001	-1.393187e+001	-5.451988e+001	-9.164454e-001	1.066022e+001
31.965	-9.184820e-001	1.041548e+001	-1.399716e+001	-5.488148e+001	-1.399550e+001	-5.480953e+001	-9.016750e-001	1.060293e+001
32.325	-9.039295e-001	1.035881e+001	-1.406055e+001	-5.517086e+001	-1.405880e+001	-5.509823e+001	-8.870320e-001	1.054562e+001
32.685	-8.895379e-001	1.030090e+001	-1.412431e+001	-5.545342e+001	-1.412280e+001	-5.538151e+001	-8.727082e-001	1.048672e+001
33.045	-8.756399e-001	1.024401e+001	-1.418708e+001	-5.573172e+001	-1.418544e+001	-5.565846e+001	-8.588930e-001	1.043027e+001
33.405	-8.620193e-001	1.018615e+001	-1.425036e+001	-5.600444e+001	-1.424887e+001	-5.593137e+001	-8.452526e-001	1.037235e+001
33.765	-8.485517e-001	1.012944e+001	-1.431300e+001	-5.627590e+001	-1.431158e+001	-5.620375e+001	-8.317937e-001	1.031516e+001
34.125	-8.354959e-001	1.007217e+001	-1.437545e+001	-5.654472e+001	-1.437406e+001	-5.646995e+001	-8.187887e-001	1.025818e+001
34.485	-8.225918e-001	1.001558e+001	-1.443747e+001	-5.680744e+001	-1.443640e+001	-5.673284e+001	-8.059417e-001	1.020098e+001
34.845	-8.102932e-001	9.959471e+000	-1.449927e+001	-5.706487e+001	-1.449818e+001	-5.699240e+001	-7.933939e-001	1.014388e+001
35.205	-7.978604e-001	9.903630e+000	-1.456085e+001	-5.732138e+001	-1.455979e+001	-5.725042e+001	-7.810582e-001	1.008797e+001
35.565	-7.859295e-001	9.847076e+000	-1.462250e+001	-5.757203e+001	-1.462153e+001	-5.749970e+001	-7.691691e-001	1.003113e+001
35.985	-7.685774e-001	9.806608e+000	-1.468323e+001	-5.801639e+001	-1.468180e+001	-5.794413e+001	-7.518075e-001	9.991048e+000
36.483	-7.562976e-001	9.704969e+000	-1.477761e+001	-5.820295e+001	-1.477687e+001	-5.813006e+001	-7.395886e-001	9.889717e+000
36.980	-7.408611e-001	9.628883e+000	-1.486162e+001	-5.853569e+001	-1.486096e+001	-5.846081e+001	-7.242543e-001	9.812476e+000
37.478	-7.258892e-001	9.553681e+000	-1.494422e+001	-5.885566e+001	-1.494389e+001	-5.877877e+001	-7.095923e-001	9.737240e+000
37.975	-7.113607e-001	9.478913e+000	-1.502707e+001	-5.917921e+001	-1.502649e+001	-5.910472e+001	-6.948443e-001	9.662288e+000
38.473	-6.972917e-001	9.404487e+000	-1.510839e+001	-5.948645e+001	-1.510817e+001	-5.941058e+001	-6.808231e-001	9.587734e+000
38.970	-6.835665e-001	9.329730e+000	-1.519089e+001	-5.979221e+001	-1.519060e+001	-5.971617e+001	-6.671456e-001	9.513289e+000
39.468	-6.701918e-001	9.256602e+000	-1.527209e+001	-6.009351e+001	-1.527196e+001	-6.001849e+001	-6.536953e-001	9.439622e+000
39.965	-6.572146e-001	9.183547e+000	-1.535260e+001	-6.038985e+001	-1.535218e+001	-6.031386e+001	-6.408175e-001	9.367265e+000
40.463	-6.446712e-001	9.112122e+000	-1.543251e+001	-6.067929e+001	-1.543232e+001	-6.060279e+001	-6.281792e-001	9.295315e+000
40.960	-6.323078e-001	9.041304e+000	-1.551177e+001	-6.096831e+001	-1.551180e+001	-6.089145e+001	-6.157280e-001	9.224624e+000
41.458	-6.204546e-001	8.970111e+000	-1.559171e+001	-6.124364e+001	-1.559131e+001	-6.116633e+001	-6.038995e-001	9.153730e+000
41.955	-6.087655e-001	8.899945e+000	-1.566993e+001	-6.152436e+001	-1.566968e+001	-6.144600e+001	-5.921577e-001	9.083983e+000
42.452	-5.975819e-001	8.832252e+000	-1.574769e+001	-6.179008e+001	-1.574757e+001	-6.171228e+001	-5.809740e-001	9.014545e+000
42.950	-5.864122e-001	8.762956e+000	-1.582520e+001	-6.205431e+001	-1.582546e+001	-6.197431e+001	-5.700824e-001	8.945661e+000
43.447	-5.756806e-001	8.695509e+000	-1.590237e+001	-6.231479e+001	-1.590252e+001	-6.223427e+001	-5.592385e-001	8.878363e+000
43.945	-5.652449e-001	8.628014e+000	-1.597899e+001	-6.257288e+001	-1.597889e+001	-6.249292e+001	-5.487158e-001	8.810640e+000
44.442	-5.549780e-001	8.561949e+000	-1.605583e+001	-6.282432e+001	-1.605565e+001	-6.274439e+001	-5.386023e-001	8.744128e+000
44.940	-5.452716e-001	8.496731e+000	-1.613099e+001	-6.306722e+001	-1.613106e+001	-6.298723e+001	-5.287599e-001	8.678492e+000
45.437	-5.353168e-001	8.432035e+000	-1.620631e+001	-6.331298e+001	-1.620660e+001	-6.323229e+001	-5.190177e-001	8.613357e+000
45.935	-5.259636e-001	8.367975e+000	-1.628074e+001	-6.355227e+001	-1.628081e+001	-6.347133e+001	-5.096104e-001	8.549274e+000
46.432	-5.168791e-001	8.304485e+000	-1.635459e+001	-6.378558e+001	-1.635490e+001	-6.370376e+001	-5.004008e-001	8.486148e+000
46.930	-5.079347e-001	8.241101e+000	-1.642869e+001	-6.401571e+001	-1.642881e+001	-6.393601e+001	-4.915287e-001	8.422636e+000
47.427	-4.990802e-001	8.179856e+000	-1.650199e+001	-6.424164e+001	-1.650253e+001	-6.416141e+001	-4.827407e-001	8.360563e+000
47.925	-4.906826e-001	8.117715e+000	-1.657521e+001	-6.446250e+001	-1.657565e+001	-6.438190e+001	-4.742087e-001	8.298957e+000
48.422	-4.824427e-001	8.057476e+000	-1.664687e+001	-6.468142e+001	-1.664711e+001	-6.459816e+001	-4.658536e-001	8.238416e+000
48.920	-4.741241e-001	7.997205e+000	-1.671940e+001	-6.489920e+001	-1.671967e+001	-6.481851e+001	-4.576618e-001	8.177941e+000
49.417	-4.661642e-001	7.938885e+000	-1.678980e+001	-6.510832e+001	-1.679035e+001	-6.502674e+001	-4.498873e-001	8.119017e+000
50.001	-4.624558e-001	7.847304e+000	-1.688456e+001	-6.508519e+001	-1.688524e+001	-6.501058e+001	-4.459909e-001	8.027696e+000
50.688	-4.467912e-001	7.789770e+000	-1.697071e+001	-6.562773e+001	-1.697139e+001	-6.554763e+001	-4.306445e-001	7.970028e+000
51.375	-4.367800e-001	7.711261e+000	-1.706681e+001	-6.591159e+001	-1.706744e+001	-6.583115e+001	-4.203441e-001	7.892257e+000
52.062	-4.270087e-001	7.635498e+000	-1.716219e+001	-6.618773e+001	-1.716271e+001	-6.610539e+001	-4.106184e-001	7.815024e+000
52.749	-4.177427e-001	7.558875e+000	-1.725762e+001	-6.644850e+001	-1.725821e+001	-6.636811e+001	-4.013195e-001	7.738729e+000
53.436	-4.088329e-001	7.483189e+000	-1.735090e+001	-6.669653e+001	-1.735159e+001	-6.661544e+001	-3.923576e-001	7.663793e+000
54.123	-3.999423e-001	7.411812e+000	-1.744304e+001	-6.695283e+001	-1.744439e+001	-6.687079e+001	-3.836829e-001	7.591406e+000
54.810	-3.917482e-001	7.338640e+000	-1.753576e+001	-6.719644e+001	-1.753648e+001	-6.711219e+001	-3.752863e-001	7.518470e+000
55.497	-3.832688e-001	7.268404e+000	-1.762644e+001	-6.744126e+001	-1.762753e+001	-6.736065e+001	-3.669454e-001	7.447715e+000
56.184	-3.755411e-001	7.197487e+000	-1.771698e+001	-6.767271e+001	-1.771786e+001	-6.758836e+001	-3.591909e-001	7.377558e+000
56.871	-3.676504e-001	7.128587e+000	-1.780731e+001	-6.791306e+001	-1.780834e+001	-6.782766e+001	-3.513791e-001	7.307926e+000
57.558	-3.601361e-001	7.062285e+000	-1.789472e+001	-6.814121e+001	-1.789625e+001	-6.805771e+001	-3.438917e-001	7.241970e+000
58.245	-3.529971e-001	6.996035e+000	-1.798237e+001	-6.835269e+001	-1.798346e+001	-6.827138e+001	-3.369324e-001	7.176046e+000
58.932	-3.459917e-001	6.928458e+000	-1.807114e+001	-6.857004e+001	-1.807177e+001	-6.848422e+001	-3.299120e-001	7.110064e+000
59.619	-3.392278e-001	6.863782e+000	-1.815899e+001	-6.877776e+001	-1.815965e+001	-6.869195e+001	-3.230539e-001	7.044763e+000
60.306	-3.326460e-001	6.800740e+000	-1.824413e+001	-6.898582e+001	-1.824456e+001	-6.890265e+001	-3.164645e-001	6.981050e+000
60.993	-3.261464e-001	6.738610e+000	-1.832948e+001	-6.918892e+001	-1.832989e+001	-6.910785e+001	-3.099725e-001	6.918554e+000
61.680	-3.197848e-001	6.678620e+000	-1.841299e+001	-6.939980e+001	-1.841380e+001	-6.931567e+001	-3.036713e-001	6.858316e+000
62.367	-3.134426e-001	6.617971e+000	-1.849664e+001	-6.960461e+001	-1.849806e+001	-6.952170e+001	-2.974716e-001	6.798115e+000
63.054	-3.076275e-001	6.557404e+000	-1.858126e+001	-6.979827e+001	-1.858295e+001	-6.970943e+001	-2.916023e-001	6.736966e+000
