!Agilent Technologies,E5061B,MY49204007,A.02.12
!Date: Wed Jul 23 11:03:15 2025
!Data & Calibration Information:
!Freq	S11:SOLT2(ON)	S21:SOLT2(ON)	S12:SOLT2(ON)	S22:SOLT2(ON)
# Hz S dB R 50
10.000	-2.459369e+000	1.083167e+001	-1.055941e+001	-2.875314e+001	-1.054086e+001	-2.868386e+001	-2.448751e+000	1.105482e+001
10.137	-2.443774e+000	1.086767e+001	-1.058158e+001	-2.898866e+001	-1.056326e+001	-2.892395e+001	-2.432728e+000	1.108869e+001
10.275	-2.427924e+000	1.090268e+001	-1.060348e+001	-2.922697e+001	-1.058580e+001	-2.916373e+001	-2.416762e+000	1.112266e+001
10.412	-2.412239e+000	1.093715e+001	-1.062571e+001	-2.946550e+001	-1.060852e+001	-2.940405e+001	-2.400921e+000	1.115538e+001
10.550	-2.396544e+000	1.097111e+001	-1.064794e+001	-2.970506e+001	-1.063131e+001	-2.964406e+001	-2.384997e+000	1.118745e+001
10.687	-2.380962e+000	1.100292e+001	-1.067035e+001	-2.994513e+001	-1.065402e+001	-2.988248e+001	-2.369095e+000	1.121896e+001
10.824	-2.365383e+000	1.103577e+001	-1.069290e+001	-3.018439e+001	-1.067704e+001	-3.012201e+001	-2.353247e+000	1.125062e+001
10.962	-2.349555e+000	1.106648e+001	-1.071553e+001	-3.042270e+001	-1.070008e+001	-3.035904e+001	-2.337484e+000	1.128085e+001
11.099	-2.334094e+000	1.109729e+001	-1.073812e+001	-3.066170e+001	-1.072326e+001	-3.059921e+001	-2.321691e+000	1.131077e+001
11.237	-2.318489e+000	1.112621e+001	-1.076104e+001	-3.089884e+001	-1.074647e+001	-3.083636e+001	-2.306054e+000	1.133882e+001
11.374	-2.302888e+000	1.115463e+001	-1.078398e+001	-3.113636e+001	-1.076983e+001	-3.107302e+001	-2.290384e+000	1.136624e+001
11.511	-2.287506e+000	1.118202e+001	-1.080715e+001	-3.137416e+001	-1.079343e+001	-3.131013e+001	-2.274760e+000	1.139278e+001
11.649	-2.271946e+000	1.120862e+001	-1.083029e+001	-3.161060e+001	-1.081706e+001	-3.154653e+001	-2.259119e+000	1.141875e+001
11.786	-2.256453e+000	1.123403e+001	-1.085357e+001	-3.184854e+001	-1.084080e+001	-3.178304e+001	-2.243538e+000	1.144337e+001
11.924	-2.241237e+000	1.125920e+001	-1.087704e+001	-3.208390e+001	-1.086447e+001	-3.201940e+001	-2.227972e+000	1.146721e+001
12.061	-2.225730e+000	1.128307e+001	-1.090057e+001	-3.231818e+001	-1.088840e+001	-3.225358e+001	-2.212422e+000	1.148969e+001
12.198	-2.210544e+000	1.130650e+001	-1.092411e+001	-3.255373e+001	-1.091229e+001	-3.248936e+001	-2.197015e+000	1.151205e+001
12.336	-2.195289e+000	1.132737e+001	-1.094807e+001	-3.278657e+001	-1.093642e+001	-3.272160e+001	-2.181701e+000	1.153376e+001
12.473	-2.180055e+000	1.134781e+001	-1.097210e+001	-3.302046e+001	-1.096064e+001	-3.295449e+001	-2.166363e+000	1.155338e+001
12.611	-2.164953e+000	1.136840e+001	-1.099610e+001	-3.325311e+001	-1.098495e+001	-3.318746e+001	-2.151092e+000	1.157279e+001
12.748	-2.149912e+000	1.138738e+001	-1.102019e+001	-3.348585e+001	-1.100926e+001	-3.341945e+001	-2.135868e+000	1.159189e+001
12.885	-2.134911e+000	1.140612e+001	-1.104460e+001	-3.371623e+001	-1.103382e+001	-3.365056e+001	-2.120763e+000	1.160890e+001
13.023	-2.119814e+000	1.142374e+001	-1.106884e+001	-3.394685e+001	-1.105858e+001	-3.388013e+001	-2.105659e+000	1.162664e+001
13.160	-2.105018e+000	1.144038e+001	-1.109349e+001	-3.417524e+001	-1.108320e+001	-3.410925e+001	-2.090721e+000	1.164204e+001
13.298	-2.090082e+000	1.145537e+001	-1.111800e+001	-3.440525e+001	-1.110824e+001	-3.433809e+001	-2.075714e+000	1.165675e+001
13.435	-2.075222e+000	1.147072e+001	-1.114260e+001	-3.463232e+001	-1.113319e+001	-3.456606e+001	-2.060965e+000	1.167143e+001
13.572	-2.060607e+000	1.148473e+001	-1.116747e+001	-3.485937e+001	-1.115825e+001	-3.479267e+001	-2.046196e+000	1.168496e+001
13.733	-2.043293e+000	1.149115e+001	-1.119919e+001	-3.510824e+001	-1.118746e+001	-3.505623e+001	-2.029131e+000	1.170025e+001
13.923	-2.023223e+000	1.151657e+001	-1.123093e+001	-3.543466e+001	-1.122256e+001	-3.536658e+001	-2.008867e+000	1.171569e+001
14.112	-2.003256e+000	1.153119e+001	-1.126567e+001	-3.574185e+001	-1.125760e+001	-3.567359e+001	-1.988878e+000	1.172977e+001
14.302	-1.983456e+000	1.154438e+001	-1.130074e+001	-3.605134e+001	-1.129267e+001	-3.598250e+001	-1.968873e+000	1.174273e+001
14.492	-1.963842e+000	1.155676e+001	-1.133577e+001	-3.635574e+001	-1.132792e+001	-3.628773e+001	-1.949081e+000	1.175380e+001
14.682	-1.944184e+000	1.156740e+001	-1.137092e+001	-3.665915e+001	-1.136337e+001	-3.659140e+001	-1.929450e+000	1.176374e+001
14.872	-1.924874e+000	1.157589e+001	-1.140646e+001	-3.696127e+001	-1.139908e+001	-3.689265e+001	-1.910065e+000	1.177248e+001
15.062	-1.905520e+000	1.158396e+001	-1.144203e+001	-3.726149e+001	-1.143487e+001	-3.719368e+001	-1.890725e+000	1.177918e+001
15.251	-1.886419e+000	1.159016e+001	-1.147763e+001	-3.755857e+001	-1.147076e+001	-3.748965e+001	-1.871578e+000	1.178519e+001
15.441	-1.867442e+000	1.159449e+001	-1.151362e+001	-3.785577e+001	-1.150692e+001	-3.778728e+001	-1.852493e+000	1.178969e+001
15.631	-1.848738e+000	1.159863e+001	-1.154949e+001	-3.815036e+001	-1.154299e+001	-3.808085e+001	-1.833741e+000	1.179319e+001
15.821	-1.830102e+000	1.160086e+001	-1.158551e+001	-3.844322e+001	-1.157931e+001	-3.837289e+001	-1.815122e+000	1.179481e+001
16.011	-1.811648e+000	1.160253e+001	-1.162171e+001	-3.873321e+001	-1.161563e+001	-3.866296e+001	-1.796567e+000	1.179561e+001
16.201	-1.793474e+000	1.160228e+001	-1.165802e+001	-3.902062e+001	-1.165205e+001	-3.895055e+001	-1.778287e+000	1.179513e+001
16.391	-1.775189e+000	1.160101e+001	-1.169437e+001	-3.930844e+001	-1.168862e+001	-3.923824e+001	-1.760022e+000	1.179372e+001
16.580	-1.757320e+000	1.159888e+001	-1.173082e+001	-3.959288e+001	-1.172508e+001	-3.952246e+001	-1.742055e+000	1.179129e+001
16.770	-1.739547e+000	1.159542e+001	-1.176742e+001	-3.987469e+001	-1.176206e+001	-3.980384e+001	-1.724298e+000	1.178759e+001
16.960	-1.721952e+000	1.159092e+001	-1.180404e+001	-4.015439e+001	-1.179898e+001	-4.008363e+001	-1.706729e+000	1.178234e+001
17.150	-1.704172e+000	1.156901e+001	-1.184779e+001	-4.040596e+001	-1.184280e+001	-4.033645e+001	-1.688754e+000	1.176014e+001
17.340	-1.687254e+000	1.157912e+001	-1.187761e+001	-4.070967e+001	-1.187267e+001	-4.063854e+001	-1.671942e+000	1.176987e+001
17.530	-1.670202e+000	1.157182e+001	-1.191435e+001	-4.098452e+001	-1.190960e+001	-4.091277e+001	-1.654819e+000	1.176210e+001
17.720	-1.653249e+000	1.156317e+001	-1.195134e+001	-4.125699e+001	-1.194685e+001	-4.118473e+001	-1.637862e+000	1.175255e+001
17.909	-1.636444e+000	1.155355e+001	-1.198851e+001	-4.152727e+001	-1.198403e+001	-4.145436e+001	-1.621027e+000	1.174263e+001
18.099	-1.620079e+000	1.154330e+001	-1.202521e+001	-4.179335e+001	-1.202122e+001	-4.172222e+001	-1.604421e+000	1.173256e+001
18.289	-1.603415e+000	1.153189e+001	-1.206281e+001	-4.206205e+001	-1.205871e+001	-4.198884e+001	-1.587964e+000	1.172000e+001
18.479	-1.587219e+000	1.152023e+001	-1.210002e+001	-4.232688e+001	-1.209587e+001	-4.225330e+001	-1.571604e+000	1.170794e+001
18.669	-1.571180e+000	1.150644e+001	-1.213738e+001	-4.258881e+001	-1.213342e+001	-4.251475e+001	-1.555622e+000	1.169427e+001
18.859	-1.555217e+000	1.149291e+001	-1.217485e+001	-4.284958e+001	-1.217091e+001	-4.277509e+001	-1.539714e+000	1.168038e+001
19.082	-1.538890e+000	1.142611e+001	-1.223622e+001	-4.301892e+001	-1.223304e+001	-4.294371e+001	-1.523348e+000	1.161229e+001
19.344	-1.515564e+000	1.145415e+001	-1.227099e+001	-4.350653e+001	-1.226714e+001	-4.343275e+001	-1.499831e+000	1.164078e+001
19.606	-1.494487e+000	1.143207e+001	-1.232240e+001	-4.385259e+001	-1.231893e+001	-4.377910e+001	-1.478966e+000	1.161756e+001
19.868	-1.473756e+000	1.140781e+001	-1.237456e+001	-4.420056e+001	-1.237112e+001	-4.412720e+001	-1.458148e+000	1.159329e+001
20.130	-1.453383e+000	1.138224e+001	-1.242622e+001	-4.454136e+001	-1.242296e+001	-4.446692e+001	-1.437732e+000	1.156795e+001
20.392	-1.433303e+000	1.135539e+001	-1.247821e+001	-4.487846e+001	-1.247502e+001	-4.480455e+001	-1.417687e+000	1.154053e+001
20.655	-1.413522e+000	1.132789e+001	-1.253023e+001	-4.521274e+001	-1.252718e+001	-4.513818e+001	-1.397839e+000	1.151286e+001
20.917	-1.394036e+000	1.129924e+001	-1.258236e+001	-4.554399e+001	-1.257937e+001	-4.546957e+001	-1.378331e+000	1.148391e+001
21.179	-1.374774e+000	1.126898e+001	-1.263458e+001	-4.586958e+001	-1.263183e+001	-4.579412e+001	-1.359145e+000	1.145329e+001
21.441	-1.356033e+000	1.123881e+001	-1.268649e+001	-4.619360e+001	-1.268369e+001	-4.611804e+001	-1.340305e+000	1.142313e+001
21.703	-1.337500e+000	1.120647e+001	-1.273863e+001	-4.651189e+001	-1.273588e+001	-4.643605e+001	-1.321767e+000	1.139037e+001
21.965	-1.319255e+000	1.117383e+001	-1.279080e+001	-4.682771e+001	-1.278809e+001	-4.675142e+001	-1.303538e+000	1.135805e+001
22.228	-1.301334e+000	1.114090e+001	-1.284271e+001	-4.714007e+001	-1.284027e+001	-4.706484e+001	-1.285537e+000	1.132428e+001
22.490	-1.283707e+000	1.110777e+001	-1.289470e+001	-4.744921e+001	-1.289221e+001	-4.737366e+001	-1.267766e+000	1.129037e+001
22.752	-1.266073e+000	1.107247e+001	-1.294683e+001	-4.775582e+001	-1.294463e+001	-4.767961e+001	-1.250383e+000	1.125531e+001
23.014	-1.249208e+000	1.103768e+001	-1.299853e+001	-4.805672e+001	-1.299632e+001	-4.798077e+001	-1.233315e+000	1.121989e+001
23.276	-1.232322e+000	1.100116e+001	-1.305064e+001	-4.835483e+001	-1.304844e+001	-4.827909e+001	-1.216493e+000	1.118257e+001
23.538	-1.215733e+000	1.096426e+001	-1.310251e+001	-4.865077e+001	-1.310044e+001	-4.857449e+001	-1.199899e+000	1.114651e+001
23.801	-1.199496e+000	1.092720e+001	-1.315432e+001	-4.894343e+001	-1.315231e+001	-4.886620e+001	-1.183624e+000	1.110923e+001
24.063	-1.183459e+000	1.088966e+001	-1.320583e+001	-4.923142e+001	-1.320395e+001	-4.915414e+001	-1.167617e+000	1.107167e+001
24.325	-1.167501e+000	1.085222e+001	-1.325758e+001	-4.951785e+001	-1.325559e+001	-4.944138e+001	-1.151778e+000	1.103355e+001
24.587	-1.152167e+000	1.081326e+001	-1.330918e+001	-4.979865e+001	-1.330728e+001	-4.972197e+001	-1.136310e+000	1.099446e+001
24.849	-1.136948e+000	1.077428e+001	-1.336104e+001	-5.007845e+001	-1.335899e+001	-5.000061e+001	-1.121037e+000	1.095518e+001
25.111	-1.121943e+000	1.073522e+001	-1.341229e+001	-5.035344e+001	-1.341051e+001	-5.027590e+001	-1.106068e+000	1.091586e+001
25.374	-1.107227e+000	1.069562e+001	-1.346360e+001	-5.062573e+001	-1.346201e+001	-5.054921e+001	-1.091419e+000	1.087593e+001
25.636	-1.092806e+000	1.065575e+001	-1.351482e+001	-5.089501e+001	-1.351333e+001	-5.081845e+001	-1.076997e+000	1.083550e+001
25.898	-1.078469e+000	1.061573e+001	-1.356597e+001	-5.116167e+001	-1.356433e+001	-5.108525e+001	-1.062702e+000	1.079518e+001
26.204	-1.064922e+000	1.053463e+001	-1.363882e+001	-5.133280e+001	-1.363711e+001	-5.126165e+001	-1.048869e+000	1.071556e+001
26.564	-1.043377e+000	1.051206e+001	-1.369580e+001	-5.182743e+001	-1.369436e+001	-5.174964e+001	-1.027506e+000	1.069181e+001
26.924	-1.024952e+000	1.045504e+001	-1.376594e+001	-5.217821e+001	-1.376452e+001	-5.210030e+001	-1.009074e+000	1.063438e+001
27.284	-1.006982e+000	1.039827e+001	-1.383539e+001	-5.251977e+001	-1.383412e+001	-5.244175e+001	-9.911748e-001	1.057715e+001
27.644	-9.893965e-001	1.034167e+001	-1.390478e+001	-5.286458e+001	-1.390356e+001	-5.278622e+001	-9.736234e-001	1.052082e+001
28.004	-9.723631e-001	1.028345e+001	-1.397374e+001	-5.319392e+001	-1.397262e+001	-5.311642e+001	-9.565056e-001	1.046232e+001
28.364	-9.554379e-001	1.022534e+001	-1.404320e+001	-5.352393e+001	-1.404232e+001	-5.344560e+001	-9.397403e-001	1.040395e+001
28.724	-9.391375e-001	1.016687e+001	-1.411205e+001	-5.384995e+001	-1.411099e+001	-5.377215e+001	-9.232514e-001	1.034582e+001
29.084	-9.231863e-001	1.010940e+001	-1.418040e+001	-5.416901e+001	-1.417962e+001	-5.409047e+001	-9.072409e-001	1.028801e+001
29.444	-9.075054e-001	1.005212e+001	-1.424850e+001	-5.448228e+001	-1.424773e+001	-5.440233e+001	-8.916004e-001	1.023093e+001
29.804	-8.922950e-001	9.995249e+000	-1.431615e+001	-5.479396e+001	-1.431541e+001	-5.471341e+001	-8.762638e-001	1.017383e+001
30.164	-8.771511e-001	9.936906e+000	-1.438440e+001	-5.509989e+001	-1.438370e+001	-5.501940e+001	-8.612969e-001	1.011502e+001
30.524	-8.626443e-001	9.879439e+000	-1.445141e+001	-5.539963e+001	-1.445083e+001	-5.531982e+001	-8.466995e-001	1.005684e+001
30.884	-8.483023e-001	9.820094e+000	-1.451880e+001	-5.569246e+001	-1.451828e+001	-5.561346e+001	-8.324568e-001	9.998521e+000
31.244	-8.343563e-001	9.762235e+000	-1.458608e+001	-5.598513e+001	-1.458532e+001	-5.590576e+001	-8.182767e-001	9.939622e+000
31.605	-8.206124e-001	9.703963e+000	-1.465244e+001	-5.627119e+001	-1.465199e+001	-5.619209e+001	-8.047474e-001	9.882362e+000
31.965	-8.072349e-001	9.647653e+000	-1.471875e+001	-5.655403e+001	-1.471825e+001	-5.647439e+001	-7.913912e-001	9.824642e+000
32.325	-7.941711e-001	9.590510e+000	-1.478479e+001	-5.683438e+001	-1.478427e+001	-5.675422e+001	-7.783114e-001	9.767398e+000
32.685	-7.812614e-001	9.533245e+000	-1.485091e+001	-5.710805e+001	-1.485070e+001	-5.702821e+001	-7.654824e-001	9.709958e+000
33.045	-7.689391e-001	9.476748e+000	-1.491611e+001	-5.737791e+001	-1.491582e+001	-5.729746e+001	-7.530499e-001	9.653512e+000
33.405	-7.567041e-001	9.419413e+000	-1.498162e+001	-5.764357e+001	-1.498133e+001	-5.756309e+001	-7.408193e-001	9.595884e+000
33.765	-7.446143e-001	9.362761e+000	-1.504661e+001	-5.790612e+001	-1.504659e+001	-5.782588e+001	-7.288011e-001	9.539234e+000
34.125	-7.328255e-001	9.306757e+000	-1.511141e+001	-5.816499e+001	-1.511132e+001	-5.808493e+001	-7.170986e-001	9.483195e+000
34.485	-7.214275e-001	9.250950e+000	-1.517586e+001	-5.841917e+001	-1.517566e+001	-5.833899e+001	-7.057040e-001	9.427485e+000
34.845	-7.102477e-001	9.195714e+000	-1.523958e+001	-5.866953e+001	-1.523955e+001	-5.858902e+001	-6.945192e-001	9.371799e+000
35.205	-6.992190e-001	9.140777e+000	-1.530319e+001	-5.891765e+001	-1.530320e+001	-5.883813e+001	-6.834796e-001	9.317444e+000
35.565	-6.885901e-001	9.085405e+000	-1.536689e+001	-5.916085e+001	-1.536713e+001	-5.908015e+001	-6.728690e-001	9.261608e+000
35.985	-6.725370e-001	9.046133e+000	-1.542958e+001	-5.961117e+001	-1.542941e+001	-5.953013e+001	-6.569683e-001	9.221655e+000
36.483	-6.621737e-001	8.947562e+000	-1.552732e+001	-5.976810e+001	-1.552739e+001	-5.968842e+001	-6.464870e-001	9.123109e+000
36.980	-6.484889e-001	8.872758e+000	-1.561426e+001	-6.008853e+001	-1.561453e+001	-6.000781e+001	-6.328713e-001	9.048328e+000
37.478	-6.352196e-001	8.799707e+000	-1.569930e+001	-6.039773e+001	-1.569991e+001	-6.031675e+001	-6.197959e-001	8.974938e+000
37.975	-6.223593e-001	8.727712e+000	-1.578456e+001	-6.070940e+001	-1.578495e+001	-6.062775e+001	-6.067848e-001	8.902442e+000
38.473	-6.098736e-001	8.655742e+000	-1.586856e+001	-6.100444e+001	-1.586915e+001	-6.092359e+001	-5.944003e-001	8.830663e+000
38.970	-5.977575e-001	8.583948e+000	-1.595333e+001	-6.129779e+001	-1.595387e+001	-6.121806e+001	-5.821764e-001	8.758975e+000
39.468	-5.858372e-001	8.513223e+000	-1.603691e+001	-6.159036e+001	-1.603740e+001	-6.150846e+001	-5.702994e-001	8.688040e+000
39.965	-5.743147e-001	8.442734e+000	-1.611983e+001	-6.187296e+001	-1.612028e+001	-6.179107e+001	-5.587866e-001	8.618538e+000
40.463	-5.632401e-001	8.373457e+000	-1.620169e+001	-6.215079e+001	-1.620246e+001	-6.206794e+001	-5.477226e-001	8.549788e+000
40.960	-5.523878e-001	8.305781e+000	-1.628350e+001	-6.242843e+001	-1.628401e+001	-6.234670e+001	-5.367718e-001	8.481410e+000
41.458	-5.417364e-001	8.237615e+000	-1.636511e+001	-6.269447e+001	-1.636566e+001	-6.261168e+001	-5.262497e-001	8.412949e+000
41.955	-5.315196e-001	8.170912e+000	-1.644574e+001	-6.296142e+001	-1.644598e+001	-6.287793e+001	-5.158581e-001	8.346022e+000
42.452	-5.216610e-001	8.105341e+000	-1.652559e+001	-6.321608e+001	-1.652581e+001	-6.313379e+001	-5.059282e-001	8.280351e+000
42.950	-5.119513e-001	8.040061e+000	-1.660526e+001	-6.346847e+001	-1.660555e+001	-6.338538e+001	-4.962722e-001	8.214541e+000
43.447	-5.025104e-001	7.975741e+000	-1.668415e+001	-6.371819e+001	-1.668446e+001	-6.363400e+001	-4.867533e-001	8.150437e+000
43.945	-4.931360e-001	7.911378e+000	-1.676260e+001	-6.396410e+001	-1.676294e+001	-6.388094e+001	-4.775114e-001	8.086195e+000
44.442	-4.841210e-001	7.848786e+000	-1.684106e+001	-6.420721e+001	-1.684173e+001	-6.412243e+001	-4.685556e-001	8.022844e+000
44.940	-4.755668e-001	7.786925e+000	-1.691804e+001	-6.443926e+001	-1.691856e+001	-6.435524e+001	-4.598477e-001	7.960725e+000
45.437	-4.668340e-001	7.725057e+000	-1.699514e+001	-6.467404e+001	-1.699590e+001	-6.458925e+001	-4.513310e-001	7.899139e+000
45.935	-4.585516e-001	7.664682e+000	-1.707092e+001	-6.490115e+001	-1.707175e+001	-6.481796e+001	-4.430916e-001	7.838651e+000
46.432	-4.505367e-001	7.604577e+000	-1.714646e+001	-6.512469e+001	-1.714761e+001	-6.504023e+001	-4.351464e-001	7.778374e+000
46.930	-4.427181e-001	7.544319e+000	-1.722219e+001	-6.534638e+001	-1.722319e+001	-6.525960e+001	-4.271815e-001	7.718665e+000
47.427	-4.350074e-001	7.486329e+000	-1.729746e+001	-6.555853e+001	-1.729817e+001	-6.547353e+001	-4.196054e-001	7.659588e+000
47.925	-4.275952e-001	7.428173e+000	-1.737152e+001	-6.576764e+001	-1.737232e+001	-6.568430e+001	-4.120545e-001	7.601873e+000
48.422	-4.202350e-001	7.371186e+000	-1.744498e+001	-6.597981e+001	-1.744608e+001	-6.589576e+001	-4.047533e-001	7.544726e+000
48.920	-4.131168e-001	7.314527e+000	-1.751891e+001	-6.618501e+001	-1.751992e+001	-6.609838e+001	-3.977264e-001	7.487680e+000
49.417	-4.061326e-001	7.259847e+000	-1.759051e+001	-6.638802e+001	-1.759167e+001	-6.630225e+001	-3.907292e-001	7.433396e+000
50.001	-4.028528e-001	7.177260e+000	-1.768486e+001	-6.637397e+001	-1.768581e+001	-6.629626e+001	-3.870539e-001	7.350106e+000
50.688	-3.891606e-001	7.119754e+000	-1.777452e+001	-6.688160e+001	-1.777573e+001	-6.679932e+001	-3.738376e-001	7.293640e+000
51.375	-3.803548e-001	7.045972e+000	-1.787265e+001	-6.715522e+001	-1.787433e+001	-6.707246e+001	-3.647834e-001	7.219400e+000
52.062	-3.717898e-001	6.973898e+000	-1.797080e+001	-6.741777e+001	-1.797241e+001	-6.732710e+001	-3.563883e-001	7.146651e+000
52.749	-3.638396e-001	6.901802e+000	-1.806764e+001	-6.765255e+001	-1.806808e+001	-6.756574e+001	-3.484974e-001	7.075224e+000
53.436	-3.560084e-001	6.832767e+000	-1.816064e+001	-6.789685e+001	-1.816169e+001	-6.781423e+001	-3.405044e-001	7.007063e+000
54.123	-3.480709e-001	6.764088e+000	-1.825687e+001	-6.814470e+001	-1.825886e+001	-6.805227e+001	-3.328319e-001	6.936647e+000
54.810	-3.412502e-001	6.698213e+000	-1.834839e+001	-6.836146e+001	-1.834896e+001	-6.828043e+001	-3.256683e-001	6.872039e+000
55.497	-3.334511e-001	6.629931e+000	-1.844348e+001	-6.860992e+001	-1.844565e+001	-6.851634e+001	-3.181943e-001	6.801887e+000
56.184	-3.268755e-001	6.566847e+000	-1.853212e+001	-6.882400e+001	-1.853365e+001	-6.874549e+001	-3.113545e-001	6.739901e+000
56.871	-3.201937e-001	6.500332e+000	-1.862669e+001	-6.903566e+001	-1.862649e+001	-6.894353e+001	-3.050503e-001	6.673900e+000
57.558	-3.132189e-001	6.438271e+000	-1.871622e+001	-6.927407e+001	-1.871822e+001	-6.917630e+001	-2.981140e-001	6.610670e+000
58.245	-3.070067e-001	6.378973e+000	-1.880271e+001	-6.948276e+001	-1.880566e+001	-6.939881e+001	-2.916187e-001	6.550073e+000
58.932	-3.011213e-001	6.317378e+000	-1.889084e+001	-6.967932e+001	-1.889294e+001	-6.959966e+001	-2.857389e-001	6.490089e+000
59.619	-2.952328e-001	6.257316e+000	-1.897934e+001	-6.986915e+001	-1.898064e+001	-6.979340e+001	-2.799055e-001	6.430903e+000
60.306	-2.894792e-001	6.198737e+000	-1.906548e+001	-7.006711e+001	-1.906703e+001	-6.999098e+001	-2.741323e-001	6.372816e+000
60.993	-2.837548e-001	6.140668e+000	-1.915243e+001	-7.026824e+001	-1.915473e+001	-7.018889e+001	-2.683900e-001	6.314423e+000
61.680	-2.780089e-001	6.084168e+000	-1.923837e+001	-7.047202e+001	-1.924195e+001	-7.038843e+001	-2.627310e-001	6.256390e+000
62.367	-2.726660e-001	6.025211e+000	-1.932603e+001	-7.066403e+001	-1.932874e+001	-7.056497e+001	-2.576205e-001	6.197958e+000
63.054	-2.679688e-001	5.969232e+000	-1.941166e+001	-7.081818e+001	-1.941114e+001	-7.072385e+001	-2.528778e-001	6.143085e+000
