!Agilent Technologies,E5061B,MY49204007,A.02.12
!Date: Wed Jul 23 11:30:34 2025
!Data & Calibration Information:
!Freq	S11:SOLT2(ON)	S21:SOLT2(ON)	S12:SOLT2(ON)	S22:SOLT2(ON)
# Hz S dB R 50
10.000	-6.593233e-002	3.219811e+000	-2.495470e+001	-8.114291e+001	-2.496100e+001	-8.103749e+001	-4.933612e-002	3.410312e+000
10.137	-6.467967e-002	3.176530e+000	-2.507441e+001	-8.121287e+001	-2.507911e+001	-8.109397e+001	-4.813792e-002	3.366267e+000
10.275	-6.354468e-002	3.136362e+000	-2.518355e+001	-8.125837e+001	-2.518730e+001	-8.114034e+001	-4.716990e-002	3.326653e+000
10.412	-6.247831e-002	3.098242e+000	-2.529067e+001	-8.130749e+001	-2.529369e+001	-8.118776e+001	-4.619758e-002	3.287639e+000
10.550	-6.151985e-002	3.061301e+000	-2.539479e+001	-8.135495e+001	-2.539747e+001	-8.123455e+001	-4.520970e-002	3.250827e+000
10.687	-6.066589e-002	3.025339e+000	-2.549658e+001	-8.140213e+001	-2.549951e+001	-8.128367e+001	-4.422835e-002	3.214674e+000
10.824	-5.981604e-002	2.990956e+000	-2.559706e+001	-8.145233e+001	-2.560035e+001	-8.133292e+001	-4.321706e-002	3.179560e+000
10.962	-5.879073e-002	2.956381e+000	-2.569723e+001	-8.149605e+001	-2.570037e+001	-8.137036e+001	-4.243500e-002	3.145355e+000
11.099	-5.804802e-002	2.923490e+000	-2.579378e+001	-8.153699e+001	-2.579739e+001	-8.141823e+001	-4.156342e-002	3.112992e+000
11.237	-5.724695e-002	2.891015e+000	-2.589139e+001	-8.157640e+001	-2.589425e+001	-8.145436e+001	-4.072236e-002	3.080915e+000
11.374	-5.637352e-002	2.859236e+000	-2.598700e+001	-8.162395e+001	-2.599007e+001	-8.149929e+001	-3.996239e-002	3.049123e+000
11.511	-5.569227e-002	2.828405e+000	-2.608092e+001	-8.166747e+001	-2.608431e+001	-8.154151e+001	-3.919170e-002	3.018227e+000
11.649	-5.483464e-002	2.798742e+000	-2.617407e+001	-8.170710e+001	-2.617739e+001	-8.158088e+001	-3.845073e-002	2.988375e+000
11.786	-5.421826e-002	2.768862e+000	-2.626622e+001	-8.174394e+001	-2.626909e+001	-8.161978e+001	-3.778788e-002	2.958968e+000
11.924	-5.350954e-002	2.740680e+000	-2.635624e+001	-8.178209e+001	-2.635927e+001	-8.166170e+001	-3.696371e-002	2.929913e+000
12.061	-5.256470e-002	2.712081e+000	-2.644656e+001	-8.182729e+001	-2.645011e+001	-8.170239e+001	-3.623382e-002	2.901670e+000
12.198	-5.206500e-002	2.684810e+000	-2.653473e+001	-8.185942e+001	-2.653803e+001	-8.174337e+001	-3.551791e-002	2.873804e+000
12.336	-5.138000e-002	2.657501e+000	-2.662317e+001	-8.189922e+001	-2.662628e+001	-8.177759e+001	-3.482916e-002	2.846847e+000
12.473	-5.066246e-002	2.630862e+000	-2.671033e+001	-8.194027e+001	-2.671361e+001	-8.181725e+001	-3.410061e-002	2.820120e+000
12.611	-4.996668e-002	2.604862e+000	-2.679637e+001	-8.197858e+001	-2.679972e+001	-8.185518e+001	-3.343330e-002	2.794448e+000
12.748	-4.936920e-002	2.579922e+000	-2.688134e+001	-8.201480e+001	-2.688465e+001	-8.189118e+001	-3.277555e-002	2.769008e+000
12.885	-4.884905e-002	2.555321e+000	-2.696530e+001	-8.205025e+001	-2.696862e+001	-8.192815e+001	-3.216723e-002	2.744126e+000
13.023	-4.808296e-002	2.531025e+000	-2.704830e+001	-8.209136e+001	-2.705201e+001	-8.197003e+001	-3.161435e-002	2.719762e+000
13.160	-4.767980e-002	2.506602e+000	-2.713159e+001	-8.212295e+001	-2.713486e+001	-8.200039e+001	-3.110374e-002	2.696010e+000
13.298	-4.700830e-002	2.483410e+000	-2.721319e+001	-8.216387e+001	-2.721695e+001	-8.204038e+001	-3.053640e-002	2.672902e+000
13.435	-4.642859e-002	2.460386e+000	-2.729334e+001	-8.219687e+001	-2.729742e+001	-8.207923e+001	-2.997711e-002	2.650023e+000
13.572	-4.592426e-002	2.437731e+000	-2.737340e+001	-8.223045e+001	-2.737710e+001	-8.211176e+001	-2.937826e-002	2.627555e+000
13.733	-4.615999e-002	2.411301e+000	-2.746537e+001	-8.214733e+001	-2.747035e+001	-8.222700e+001	-2.826730e-002	2.602044e+000
13.923	-4.459348e-002	2.382588e+000	-2.757443e+001	-8.232069e+001	-2.757887e+001	-8.220480e+001	-2.819487e-002	2.571947e+000
14.112	-4.384579e-002	2.353066e+000	-2.768186e+001	-8.236635e+001	-2.768621e+001	-8.224406e+001	-2.748170e-002	2.542850e+000
14.302	-4.315876e-002	2.324796e+000	-2.778682e+001	-8.241661e+001	-2.779086e+001	-8.229450e+001	-2.673813e-002	2.514619e+000
14.492	-4.236535e-002	2.297367e+000	-2.789053e+001	-8.245691e+001	-2.789522e+001	-8.233713e+001	-2.615786e-002	2.487044e+000
14.682	-4.176459e-002	2.270437e+000	-2.799363e+001	-8.250168e+001	-2.799803e+001	-8.238266e+001	-2.547330e-002	2.459961e+000
14.872	-4.105894e-002	2.244179e+000	-2.809512e+001	-8.254701e+001	-2.809964e+001	-8.242640e+001	-2.483180e-002	2.433721e+000
15.062	-4.043710e-002	2.218327e+000	-2.819555e+001	-8.259564e+001	-2.820005e+001	-8.247507e+001	-2.420787e-002	2.407893e+000
15.251	-3.987923e-002	2.193255e+000	-2.829500e+001	-8.263697e+001	-2.829981e+001	-8.251535e+001	-2.359498e-002	2.382615e+000
15.441	-3.923314e-002	2.168080e+000	-2.839308e+001	-8.268366e+001	-2.839783e+001	-8.256335e+001	-2.304171e-002	2.357938e+000
15.631	-3.873046e-002	2.144478e+000	-2.848968e+001	-8.272660e+001	-2.849435e+001	-8.260560e+001	-2.246611e-002	2.333783e+000
15.821	-3.819871e-002	2.121265e+000	-2.858564e+001	-8.276821e+001	-2.859045e+001	-8.264780e+001	-2.187592e-002	2.310148e+000
16.011	-3.754896e-002	2.098647e+000	-2.868052e+001	-8.281093e+001	-2.868541e+001	-8.269051e+001	-2.130199e-002	2.287146e+000
16.201	-3.704590e-002	2.076154e+000	-2.877434e+001	-8.284739e+001	-2.877913e+001	-8.272642e+001	-2.076864e-002	2.264935e+000
16.391	-3.651925e-002	2.054002e+000	-2.886651e+001	-8.289241e+001	-2.887127e+001	-8.277125e+001	-2.017128e-002	2.242910e+000
16.580	-3.605978e-002	2.032475e+000	-2.895818e+001	-8.292991e+001	-2.896298e+001	-8.280877e+001	-1.971269e-002	2.221702e+000
16.770	-3.551632e-002	2.011818e+000	-2.904898e+001	-8.296836e+001	-2.905364e+001	-8.284707e+001	-1.916863e-002	2.200912e+000
16.960	-3.497891e-002	1.990575e+000	-2.913859e+001	-8.300623e+001	-2.914347e+001	-8.288578e+001	-1.871622e-002	2.180399e+000
17.150	-3.433518e-002	1.971109e+000	-2.922505e+001	-8.307725e+001	-2.922973e+001	-8.296157e+001	-1.800731e-002	2.160609e+000
17.340	-3.397538e-002	1.950977e+000	-2.931388e+001	-8.308524e+001	-2.931825e+001	-8.296526e+001	-1.770095e-002	2.140944e+000
17.530	-3.355046e-002	1.931275e+000	-2.940066e+001	-8.312289e+001	-2.940532e+001	-8.300266e+001	-1.721204e-002	2.121448e+000
17.720	-3.310103e-002	1.912346e+000	-2.948701e+001	-8.315930e+001	-2.949212e+001	-8.303828e+001	-1.677264e-002	2.102358e+000
17.909	-3.263528e-002	1.893734e+000	-2.957263e+001	-8.319657e+001	-2.957775e+001	-8.307618e+001	-1.632197e-002	2.083887e+000
18.099	-3.215138e-002	1.875375e+000	-2.965680e+001	-8.323411e+001	-2.966202e+001	-8.311149e+001	-1.587744e-002	2.065073e+000
18.289	-3.172823e-002	1.857398e+000	-2.974090e+001	-8.327039e+001	-2.974598e+001	-8.315002e+001	-1.552338e-002	2.047367e+000
18.479	-3.134697e-002	1.839932e+000	-2.982350e+001	-8.330700e+001	-2.982842e+001	-8.318359e+001	-1.511429e-002	2.029910e+000
18.669	-3.103168e-002	1.822609e+000	-2.990601e+001	-8.334100e+001	-2.991079e+001	-8.322201e+001	-1.465996e-002	2.012376e+000
18.859	-3.055791e-002	1.805685e+000	-2.998694e+001	-8.337727e+001	-2.999218e+001	-8.325625e+001	-1.430223e-002	1.995314e+000
19.082	-3.190822e-002	1.785663e+000	-3.008081e+001	-8.306665e+001	-3.008836e+001	-8.296701e+001	-1.557999e-002	1.974551e+000
19.344	-2.977132e-002	1.763917e+000	-3.019335e+001	-8.347662e+001	-3.019831e+001	-8.335769e+001	-1.327323e-002	1.952707e+000
19.606	-2.921425e-002	1.742433e+000	-3.030047e+001	-8.350912e+001	-3.030640e+001	-8.338689e+001	-1.279842e-002	1.930760e+000
19.868	-2.881456e-002	1.721416e+000	-3.040691e+001	-8.355986e+001	-3.041256e+001	-8.343821e+001	-1.238589e-002	1.909953e+000
20.130	-2.836675e-002	1.699957e+000	-3.051228e+001	-8.360070e+001	-3.051781e+001	-8.348069e+001	-1.197867e-002	1.889046e+000
20.392	-2.789072e-002	1.679890e+000	-3.061737e+001	-8.364199e+001	-3.062290e+001	-8.352317e+001	-1.153537e-002	1.869254e+000
20.655	-2.739974e-002	1.659530e+000	-3.072011e+001	-8.368756e+001	-3.072588e+001	-8.356893e+001	-1.113016e-002	1.849371e+000
20.917	-2.699444e-002	1.640633e+000	-3.082205e+001	-8.372968e+001	-3.082776e+001	-8.361134e+001	-1.064171e-002	1.829875e+000
21.179	-2.658552e-002	1.621632e+000	-3.092330e+001	-8.377441e+001	-3.092943e+001	-8.365496e+001	-1.030906e-002	1.810372e+000
21.441	-2.620100e-002	1.603218e+000	-3.102232e+001	-8.381584e+001	-3.102754e+001	-8.369316e+001	-9.830196e-003	1.792384e+000
21.703	-2.579126e-002	1.584405e+000	-3.112122e+001	-8.385603e+001	-3.112658e+001	-8.373387e+001	-9.488855e-003	1.774343e+000
21.965	-2.544982e-002	1.567419e+000	-3.121826e+001	-8.389416e+001	-3.122433e+001	-8.377293e+001	-9.057693e-003	1.755948e+000
22.228	-2.506720e-002	1.549869e+000	-3.131443e+001	-8.393494e+001	-3.131999e+001	-8.381612e+001	-8.606083e-003	1.738773e+000
22.490	-2.474588e-002	1.533406e+000	-3.140959e+001	-8.397391e+001	-3.141500e+001	-8.385381e+001	-8.200918e-003	1.722094e+000
22.752	-2.440563e-002	1.517089e+000	-3.150378e+001	-8.401446e+001	-3.150916e+001	-8.389578e+001	-7.948623e-003	1.705168e+000
23.014	-2.408365e-002	1.500949e+000	-3.159692e+001	-8.405029e+001	-3.160237e+001	-8.392797e+001	-7.647186e-003	1.689448e+000
23.276	-2.365479e-002	1.484900e+000	-3.168906e+001	-8.408633e+001	-3.169488e+001	-8.396618e+001	-7.225548e-003	1.673416e+000
23.538	-2.330805e-002	1.469279e+000	-3.178007e+001	-8.412553e+001	-3.178556e+001	-8.400409e+001	-6.835420e-003	1.658735e+000
23.801	-2.302243e-002	1.454204e+000	-3.187065e+001	-8.416017e+001	-3.187597e+001	-8.404060e+001	-6.551218e-003	1.643921e+000
24.063	-2.269221e-002	1.439678e+000	-3.195948e+001	-8.419415e+001	-3.196522e+001	-8.407498e+001	-6.223326e-003	1.628737e+000
24.325	-2.238884e-002	1.425389e+000	-3.204771e+001	-8.423445e+001	-3.205364e+001	-8.411146e+001	-5.877069e-003	1.614303e+000
24.587	-2.218324e-002	1.410935e+000	-3.213521e+001	-8.426495e+001	-3.214118e+001	-8.414508e+001	-5.612754e-003	1.600242e+000
24.849	-2.181661e-002	1.397124e+000	-3.222190e+001	-8.429915e+001	-3.222750e+001	-8.418142e+001	-5.381413e-003	1.586504e+000
25.111	-2.149184e-002	1.383170e+000	-3.230754e+001	-8.433404e+001	-3.231323e+001	-8.421751e+001	-5.016955e-003	1.572243e+000
25.374	-2.126918e-002	1.369561e+000	-3.239219e+001	-8.436801e+001	-3.239791e+001	-8.424796e+001	-4.782594e-003	1.558473e+000
25.636	-2.107187e-002	1.356625e+000	-3.247603e+001	-8.439919e+001	-3.248179e+001	-8.428137e+001	-4.544026e-003	1.545743e+000
25.898	-2.071667e-002	1.344010e+000	-3.255917e+001	-8.443177e+001	-3.256485e+001	-8.431311e+001	-4.288429e-003	1.532811e+000
26.204	-1.942517e-002	1.329265e+000	-3.266273e+001	-8.473944e+001	-3.266707e+001	-8.460772e+001	-2.892120e-003	1.517857e+000
26.564	-2.027201e-002	1.311967e+000	-3.276925e+001	-8.451239e+001	-3.277490e+001	-8.439522e+001	-3.549867e-003	1.501225e+000
26.924	-1.988626e-002	1.295726e+000	-3.287771e+001	-8.455132e+001	-3.288413e+001	-8.442907e+001	-3.322371e-003	1.484639e+000
27.284	-1.941300e-002	1.279384e+000	-3.298792e+001	-8.459651e+001	-3.299300e+001	-8.447703e+001	-2.991654e-003	1.468452e+000
27.644	-1.926424e-002	1.264061e+000	-3.309563e+001	-8.463851e+001	-3.310123e+001	-8.452086e+001	-2.619918e-003	1.452716e+000
28.004	-1.892138e-002	1.248625e+000	-3.320170e+001	-8.467277e+001	-3.320772e+001	-8.455454e+001	-2.332973e-003	1.437771e+000
28.364	-1.850702e-002	1.233234e+000	-3.330758e+001	-8.471573e+001	-3.331324e+001	-8.459899e+001	-2.011590e-003	1.422266e+000
28.724	-1.827332e-002	1.218578e+000	-3.341095e+001	-8.475800e+001	-3.341645e+001	-8.463707e+001	-1.674627e-003	1.407749e+000
29.084	-1.800835e-002	1.205429e+000	-3.351329e+001	-8.479273e+001	-3.351947e+001	-8.467033e+001	-1.441814e-003	1.393868e+000
29.444	-1.775733e-002	1.191331e+000	-3.361522e+001	-8.482203e+001	-3.362035e+001	-8.470866e+001	-1.142114e-003	1.379910e+000
29.804	-1.756207e-002	1.177213e+000	-3.371447e+001	-8.486537e+001	-3.371997e+001	-8.474220e+001	-1.079595e-003	1.367259e+000
30.164	-1.722040e-002	1.164210e+000	-3.381382e+001	-8.490109e+001	-3.382026e+001	-8.478344e+001	-7.481535e-004	1.354100e+000
30.524	-1.695811e-002	1.150898e+000	-3.391084e+001	-8.493233e+001	-3.391707e+001	-8.481527e+001	-4.887304e-004	1.340680e+000
30.884	-1.678851e-002	1.138060e+000	-3.400845e+001	-8.496969e+001	-3.401406e+001	-8.485062e+001	-1.730618e-004	1.327086e+000
31.244	-1.656007e-002	1.125318e+000	-3.410462e+001	-8.500377e+001	-3.410973e+001	-8.488352e+001	7.163101e-006	1.314734e+000
31.605	-1.621376e-002	1.112840e+000	-3.419964e+001	-8.503820e+001	-3.420501e+001	-8.491904e+001	3.630097e-004	1.302212e+000
31.965	-1.607644e-002	1.101392e+000	-3.429202e+001	-8.506175e+001	-3.429835e+001	-8.494989e+001	5.154150e-004	1.290812e+000
32.325	-1.586274e-002	1.089330e+000	-3.438411e+001	-8.509742e+001	-3.438955e+001	-8.497736e+001	7.591653e-004	1.278758e+000
32.685	-1.556812e-002	1.078007e+000	-3.447755e+001	-8.513378e+001	-3.448342e+001	-8.501617e+001	9.659103e-004	1.267336e+000
33.045	-1.539220e-002	1.066747e+000	-3.456719e+001	-8.515989e+001	-3.457354e+001	-8.504197e+001	1.139092e-003	1.255711e+000
33.405	-1.509592e-002	1.055390e+000	-3.465775e+001	-8.519009e+001	-3.466364e+001	-8.508029e+001	1.327331e-003	1.245099e+000
33.765	-1.483300e-002	1.044976e+000	-3.474636e+001	-8.522207e+001	-3.475241e+001	-8.510791e+001	1.505340e-003	1.234463e+000
34.125	-1.474952e-002	1.034628e+000	-3.483434e+001	-8.524146e+001	-3.484007e+001	-8.513038e+001	1.811262e-003	1.223730e+000
34.485	-1.451105e-002	1.025283e+000	-3.492193e+001	-8.528188e+001	-3.492701e+001	-8.516810e+001	1.903864e-003	1.213447e+000
34.845	-1.431270e-002	1.014698e+000	-3.500733e+001	-8.531200e+001	-3.501222e+001	-8.519633e+001	2.120274e-003	1.203814e+000
35.205	-1.411376e-002	1.005110e+000	-3.509259e+001	-8.534148e+001	-3.509802e+001	-8.521995e+001	2.303900e-003	1.193661e+000
35.565	-1.396047e-002	9.950488e-001	-3.517660e+001	-8.536565e+001	-3.518210e+001	-8.524467e+001	2.414606e-003	1.183960e+000
35.985	-1.312734e-002	9.840824e-001	-3.527600e+001	-8.560358e+001	-3.528060e+001	-8.546780e+001	3.222723e-003	1.172963e+000
36.483	-1.344943e-002	9.704178e-001	-3.538890e+001	-8.544969e+001	-3.539611e+001	-8.533600e+001	2.876818e-003	1.160275e+000
36.980	-1.340189e-002	9.585256e-001	-3.550007e+001	-8.546095e+001	-3.550556e+001	-8.535539e+001	2.966568e-003	1.147954e+000
37.478	-1.306600e-002	9.465283e-001	-3.561420e+001	-8.550191e+001	-3.561831e+001	-8.538170e+001	3.060777e-003	1.135686e+000
37.975	-1.291508e-002	9.343380e-001	-3.572511e+001	-8.553272e+001	-3.572960e+001	-8.541659e+001	3.367381e-003	1.123514e+000
38.473	-1.267854e-002	9.224918e-001	-3.583232e+001	-8.556478e+001	-3.583710e+001	-8.544155e+001	3.414766e-003	1.112379e+000
38.970	-1.246671e-002	9.114872e-001	-3.594163e+001	-8.559934e+001	-3.594622e+001	-8.548096e+001	3.650765e-003	1.100959e+000
39.468	-1.232451e-002	9.008936e-001	-3.604649e+001	-8.562547e+001	-3.604957e+001	-8.550964e+001	3.895540e-003	1.089438e+000
39.965	-1.221752e-002	8.896927e-001	-3.615042e+001	-8.565403e+001	-3.615469e+001	-8.554901e+001	4.041190e-003	1.079088e+000
40.463	-1.216701e-002	8.791128e-001	-3.625131e+001	-8.570535e+001	-3.625730e+001	-8.559293e+001	4.206243e-003	1.069123e+000
40.960	-1.195945e-002	8.687874e-001	-3.635466e+001	-8.573512e+001	-3.636090e+001	-8.561435e+001	4.360391e-003	1.058003e+000
41.458	-1.175268e-002	8.584722e-001	-3.645642e+001	-8.574729e+001	-3.646102e+001	-8.563385e+001	4.514568e-003	1.048363e+000
41.955	-1.164475e-002	8.479715e-001	-3.655534e+001	-8.579033e+001	-3.656046e+001	-8.568092e+001	4.641289e-003	1.038231e+000
42.452	-1.151117e-002	8.392173e-001	-3.665423e+001	-8.581732e+001	-3.665946e+001	-8.569536e+001	4.814836e-003	1.029030e+000
42.950	-1.136490e-002	8.298131e-001	-3.675130e+001	-8.584038e+001	-3.675708e+001	-8.572964e+001	4.948505e-003	1.019233e+000
43.447	-1.138794e-002	8.203947e-001	-3.684781e+001	-8.587445e+001	-3.685334e+001	-8.575729e+001	5.184891e-003	1.010147e+000
43.945	-1.119635e-002	8.117818e-001	-3.694218e+001	-8.590617e+001	-3.694723e+001	-8.578877e+001	5.377995e-003	1.001138e+000
44.442	-1.100795e-002	8.032862e-001	-3.703635e+001	-8.591677e+001	-3.704113e+001	-8.580864e+001	5.430124e-003	9.928917e-001
44.940	-1.103421e-002	7.950675e-001	-3.712975e+001	-8.593625e+001	-3.713436e+001	-8.581746e+001	5.554103e-003	9.842558e-001
45.437	-1.069995e-002	7.861281e-001	-3.722406e+001	-8.596221e+001	-3.722790e+001	-8.584023e+001	5.673712e-003	9.752105e-001
45.935	-1.070579e-002	7.772234e-001	-3.731518e+001	-8.598487e+001	-3.731921e+001	-8.586290e+001	5.686843e-003	9.669138e-001
46.432	-1.056274e-002	7.697886e-001	-3.740401e+001	-8.599904e+001	-3.740846e+001	-8.587783e+001	5.893623e-003	9.590245e-001
46.930	-1.037907e-002	7.620511e-001	-3.749038e+001	-8.603332e+001	-3.749496e+001	-8.592009e+001	6.036200e-003	9.518178e-001
47.427	-1.023009e-002	7.552777e-001	-3.757772e+001	-8.608574e+001	-3.758308e+001	-8.597639e+001	6.184926e-003	9.434537e-001
47.925	-1.009712e-002	7.462710e-001	-3.767234e+001	-8.611531e+001	-3.768009e+001	-8.599860e+001	6.431723e-003	9.360106e-001
48.422	-1.003851e-002	7.392210e-001	-3.775739e+001	-8.608866e+001	-3.776106e+001	-8.597025e+001	6.468631e-003	9.284192e-001
48.920	-9.894596e-003	7.325684e-001	-3.783935e+001	-8.616815e+001	-3.784390e+001	-8.605168e+001	6.555231e-003	9.214850e-001
49.417	-9.796399e-003	7.251523e-001	-3.792963e+001	-8.614919e+001	-3.793489e+001	-8.602402e+001	6.682597e-003	9.140534e-001
50.001	-9.671870e-003	7.166279e-001	-3.803840e+001	-8.625370e+001	-3.804567e+001	-8.613521e+001	6.913327e-003	9.062178e-001
50.688	-9.458768e-003	7.076319e-001	-3.814699e+001	-8.619660e+001	-3.815336e+001	-8.608386e+001	6.903274e-003	8.960570e-001
51.375	-9.429930e-003	6.975088e-001	-3.825746e+001	-8.618132e+001	-3.826399e+001	-8.605525e+001	6.994918e-003	8.869845e-001
52.062	-9.242493e-003	6.899514e-001	-3.835561e+001	-8.622652e+001	-3.836041e+001	-8.610474e+001	7.122787e-003	8.797083e-001
52.749	-8.913540e-003	6.811013e-001	-3.847000e+001	-8.638362e+001	-3.847388e+001	-8.627377e+001	7.544219e-003	8.703458e-001
53.436	-9.033630e-003	6.703340e-001	-3.860154e+001	-8.631914e+001	-3.860788e+001	-8.620948e+001	7.543766e-003	8.597575e-001
54.123	-8.943032e-003	6.653051e-001	-3.867679e+001	-8.628536e+001	-3.868226e+001	-8.616017e+001	7.587499e-003	8.541064e-001
54.810	-8.646075e-003	6.551058e-001	-3.881321e+001	-8.646797e+001	-3.881903e+001	-8.636260e+001	7.958623e-003	8.440036e-001
55.497	-8.671798e-003	6.492978e-001	-3.888419e+001	-8.633187e+001	-3.888979e+001	-8.619077e+001	7.639098e-003	8.386582e-001
56.184	-8.572165e-003	6.380711e-001	-3.903107e+001	-8.641533e+001	-3.903776e+001	-8.630432e+001	7.966429e-003	8.272952e-001
56.871	-8.234100e-003	6.334666e-001	-3.910040e+001	-8.660056e+001	-3.910176e+001	-8.648717e+001	8.317578e-003	8.233397e-001
57.558	-8.551714e-003	6.269345e-001	-3.918664e+001	-8.639259e+001	-3.919328e+001	-8.624227e+001	7.874763e-003	8.166698e-001
58.245	-8.615255e-003	6.173667e-001	-3.931592e+001	-8.631474e+001	-3.932699e+001	-8.619394e+001	7.856885e-003	8.064887e-001
58.932	-8.452472e-003	6.086375e-001	-3.943522e+001	-8.641453e+001	-3.944493e+001	-8.633205e+001	8.283802e-003	7.979045e-001
59.619	-8.204379e-003	6.021730e-001	-3.953799e+001	-8.650995e+001	-3.954421e+001	-8.645191e+001	8.391216e-003	7.915227e-001
60.306	-8.000599e-003	5.954749e-001	-3.963372e+001	-8.654662e+001	-3.964073e+001	-8.647365e+001	8.582049e-003	7.845650e-001
60.993	-8.118725e-003	5.894879e-001	-3.972777e+001	-8.648617e+001	-3.973672e+001	-8.641716e+001	8.547844e-003	7.787885e-001
61.680	-8.169899e-003	5.847157e-001	-3.980075e+001	-8.640772e+001	-3.981655e+001	-8.630225e+001	8.446018e-003	7.726704e-001
62.367	-7.892993e-003	5.799431e-001	-3.986459e+001	-8.650333e+001	-3.987515e+001	-8.634525e+001	8.418543e-003	7.686771e-001
63.054	-7.468842e-003	5.733114e-001	-3.996681e+001	-8.680835e+001	-3.996283e+001	-8.663989e+001	8.815518e-003	7.627605e-001
