!Agilent Technologies,E5061B,MY49204007,A.02.12
!Date: Wed Jul 23 10:54:40 2025
!Data & Calibration Information:
!Freq	S11:SOLT2(ON)	S21:SOLT2(ON)	S12:SOLT2(ON)	S22:SOLT2(ON)
# Hz S dB R 50
10.000	-1.781631e+000	1.153797e+001	-1.170660e+001	-3.908532e+001	-1.170639e+001	-3.899299e+001	-1.767075e+000	1.171381e+001
10.137	-1.762170e+000	1.153193e+001	-1.174799e+001	-3.938456e+001	-1.174763e+001	-3.929652e+001	-1.747520e+000	1.170712e+001
10.275	-1.742818e+000	1.152445e+001	-1.178929e+001	-3.968146e+001	-1.178885e+001	-3.959664e+001	-1.728130e+000	1.169927e+001
10.412	-1.723796e+000	1.151596e+001	-1.183073e+001	-3.997682e+001	-1.182984e+001	-3.989316e+001	-1.709087e+000	1.169059e+001
10.550	-1.704941e+000	1.150690e+001	-1.187186e+001	-4.027238e+001	-1.187102e+001	-4.018832e+001	-1.690248e+000	1.168134e+001
10.687	-1.686294e+000	1.149700e+001	-1.191315e+001	-4.056549e+001	-1.191225e+001	-4.048152e+001	-1.671644e+000	1.167136e+001
10.824	-1.667944e+000	1.148704e+001	-1.195438e+001	-4.085696e+001	-1.195340e+001	-4.077366e+001	-1.653162e+000	1.166018e+001
10.962	-1.649681e+000	1.147429e+001	-1.199564e+001	-4.114467e+001	-1.199471e+001	-4.105999e+001	-1.635043e+000	1.164782e+001
11.099	-1.631810e+000	1.146259e+001	-1.203664e+001	-4.143295e+001	-1.203567e+001	-4.135001e+001	-1.616803e+000	1.163568e+001
11.237	-1.613921e+000	1.144854e+001	-1.207792e+001	-4.171626e+001	-1.207700e+001	-4.163231e+001	-1.599200e+000	1.162210e+001
11.374	-1.596178e+000	1.143402e+001	-1.211933e+001	-4.199982e+001	-1.211856e+001	-4.191441e+001	-1.581552e+000	1.160695e+001
11.511	-1.578727e+000	1.141883e+001	-1.216061e+001	-4.228123e+001	-1.215995e+001	-4.219481e+001	-1.564053e+000	1.159196e+001
11.649	-1.561607e+000	1.140251e+001	-1.220208e+001	-4.255955e+001	-1.220128e+001	-4.247398e+001	-1.546838e+000	1.157601e+001
11.786	-1.544532e+000	1.138611e+001	-1.224340e+001	-4.283643e+001	-1.224277e+001	-4.275129e+001	-1.529809e+000	1.155873e+001
11.924	-1.527771e+000	1.136918e+001	-1.228465e+001	-4.311063e+001	-1.228400e+001	-4.302688e+001	-1.512956e+000	1.154090e+001
12.061	-1.510950e+000	1.135028e+001	-1.232635e+001	-4.338371e+001	-1.232567e+001	-4.329776e+001	-1.496208e+000	1.152198e+001
12.198	-1.494657e+000	1.133097e+001	-1.236762e+001	-4.365509e+001	-1.236697e+001	-4.357058e+001	-1.479783e+000	1.150328e+001
12.336	-1.478417e+000	1.131050e+001	-1.240946e+001	-4.392222e+001	-1.240847e+001	-4.383730e+001	-1.463543e+000	1.148298e+001
12.473	-1.462287e+000	1.128934e+001	-1.245104e+001	-4.418931e+001	-1.245016e+001	-4.410236e+001	-1.447421e+000	1.146220e+001
12.611	-1.446348e+000	1.126856e+001	-1.249253e+001	-4.445383e+001	-1.249182e+001	-4.436709e+001	-1.431553e+000	1.144117e+001
12.748	-1.430734e+000	1.124642e+001	-1.253415e+001	-4.471605e+001	-1.253318e+001	-4.463023e+001	-1.415731e+000	1.141859e+001
12.885	-1.415278e+000	1.122445e+001	-1.257568e+001	-4.497589e+001	-1.257480e+001	-4.489016e+001	-1.400259e+000	1.139646e+001
13.023	-1.399833e+000	1.120157e+001	-1.261730e+001	-4.523429e+001	-1.261676e+001	-4.514890e+001	-1.384883e+000	1.137285e+001
13.160	-1.384825e+000	1.117702e+001	-1.265894e+001	-4.548914e+001	-1.265815e+001	-4.540337e+001	-1.369854e+000	1.134895e+001
13.298	-1.369794e+000	1.115337e+001	-1.270059e+001	-4.574488e+001	-1.270031e+001	-4.565857e+001	-1.354957e+000	1.132425e+001
13.435	-1.354984e+000	1.112872e+001	-1.274181e+001	-4.599573e+001	-1.274184e+001	-4.591072e+001	-1.340111e+000	1.129961e+001
13.572	-1.340509e+000	1.110338e+001	-1.278368e+001	-4.624556e+001	-1.278341e+001	-4.616023e+001	-1.325526e+000	1.127411e+001
13.733	-1.324494e+000	1.105920e+001	-1.283717e+001	-4.649099e+001	-1.283041e+001	-4.646262e+001	-1.308595e+000	1.124821e+001
13.923	-1.304165e+000	1.103628e+001	-1.288960e+001	-4.687419e+001	-1.288961e+001	-4.678843e+001	-1.289275e+000	1.120726e+001
14.112	-1.284907e+000	1.099850e+001	-1.294713e+001	-4.720551e+001	-1.294715e+001	-4.711986e+001	-1.270161e+000	1.116986e+001
14.302	-1.266044e+000	1.096105e+001	-1.300461e+001	-4.753898e+001	-1.300463e+001	-4.745296e+001	-1.251196e+000	1.113182e+001
14.492	-1.247476e+000	1.092195e+001	-1.306164e+001	-4.786468e+001	-1.306180e+001	-4.777815e+001	-1.232687e+000	1.109285e+001
14.682	-1.229210e+000	1.088152e+001	-1.311888e+001	-4.818698e+001	-1.311931e+001	-4.810085e+001	-1.214626e+000	1.105355e+001
14.872	-1.211287e+000	1.084139e+001	-1.317627e+001	-4.850690e+001	-1.317658e+001	-4.842002e+001	-1.196611e+000	1.101235e+001
15.062	-1.193618e+000	1.080056e+001	-1.323356e+001	-4.882353e+001	-1.323386e+001	-4.873749e+001	-1.178927e+000	1.097141e+001
15.251	-1.176351e+000	1.075879e+001	-1.329067e+001	-4.913213e+001	-1.329103e+001	-4.904635e+001	-1.161709e+000	1.092941e+001
15.441	-1.159201e+000	1.071639e+001	-1.334790e+001	-4.944350e+001	-1.334827e+001	-4.935673e+001	-1.144671e+000	1.088744e+001
15.631	-1.142530e+000	1.067488e+001	-1.340474e+001	-4.974788e+001	-1.340505e+001	-4.966108e+001	-1.127981e+000	1.084517e+001
15.821	-1.126147e+000	1.063170e+001	-1.346151e+001	-5.004837e+001	-1.346179e+001	-4.996097e+001	-1.111532e+000	1.080206e+001
16.011	-1.109951e+000	1.058837e+001	-1.351836e+001	-5.034438e+001	-1.351872e+001	-5.025792e+001	-1.095353e+000	1.075838e+001
16.201	-1.094294e+000	1.054427e+001	-1.357502e+001	-5.063639e+001	-1.357534e+001	-5.054955e+001	-1.079718e+000	1.071530e+001
16.391	-1.078623e+000	1.050035e+001	-1.363153e+001	-5.092869e+001	-1.363203e+001	-5.084213e+001	-1.064079e+000	1.067101e+001
16.580	-1.063483e+000	1.045658e+001	-1.368780e+001	-5.121458e+001	-1.368818e+001	-5.112763e+001	-1.048851e+000	1.062681e+001
16.770	-1.048558e+000	1.041184e+001	-1.374420e+001	-5.149638e+001	-1.374454e+001	-5.140931e+001	-1.033954e+000	1.058174e+001
16.960	-1.033766e+000	1.036648e+001	-1.380033e+001	-5.177511e+001	-1.380089e+001	-5.168887e+001	-1.019264e+000	1.053620e+001
17.150	-1.019925e+000	1.030910e+001	-1.386244e+001	-5.201009e+001	-1.386295e+001	-5.192655e+001	-1.005306e+000	1.047963e+001
17.340	-1.005144e+000	1.027659e+001	-1.391192e+001	-5.232486e+001	-1.391234e+001	-5.223843e+001	-9.906832e-001	1.044678e+001
17.530	-9.911674e-001	1.023142e+001	-1.396754e+001	-5.259495e+001	-1.396803e+001	-5.250874e+001	-9.767003e-001	1.040142e+001
17.720	-9.774855e-001	1.018545e+001	-1.402331e+001	-5.286065e+001	-1.402378e+001	-5.277360e+001	-9.630501e-001	1.035568e+001
17.909	-9.639986e-001	1.013963e+001	-1.407892e+001	-5.312367e+001	-1.407936e+001	-5.303688e+001	-9.495903e-001	1.031018e+001
18.099	-9.508637e-001	1.009423e+001	-1.413414e+001	-5.338442e+001	-1.413470e+001	-5.329692e+001	-9.363453e-001	1.026406e+001
18.289	-9.378400e-001	1.004734e+001	-1.418956e+001	-5.364206e+001	-1.419008e+001	-5.355413e+001	-9.233391e-001	1.021812e+001
18.479	-9.251350e-001	1.000209e+001	-1.424444e+001	-5.389570e+001	-1.424498e+001	-5.380884e+001	-9.105705e-001	1.017182e+001
18.669	-9.126354e-001	9.955637e+000	-1.429941e+001	-5.414592e+001	-1.429983e+001	-5.405768e+001	-8.980605e-001	1.012634e+001
18.859	-9.003468e-001	9.910085e+000	-1.435425e+001	-5.439402e+001	-1.435478e+001	-5.430587e+001	-8.858405e-001	1.007967e+001
19.082	-8.917050e-001	9.806259e+000	-1.443920e+001	-5.442242e+001	-1.444043e+001	-5.433591e+001	-8.772458e-001	9.975062e+000
19.344	-8.699123e-001	9.792480e+000	-1.449387e+001	-5.501721e+001	-1.449446e+001	-5.493124e+001	-8.552835e-001	9.961595e+000
19.606	-8.541950e-001	9.729339e+000	-1.456841e+001	-5.534018e+001	-1.456906e+001	-5.525273e+001	-8.395739e-001	9.898857e+000
19.868	-8.385960e-001	9.666337e+000	-1.464290e+001	-5.566692e+001	-1.464356e+001	-5.557998e+001	-8.240891e-001	9.835486e+000
20.130	-8.235821e-001	9.603378e+000	-1.471664e+001	-5.598123e+001	-1.471738e+001	-5.589333e+001	-8.091080e-001	9.772465e+000
20.392	-8.088854e-001	9.540068e+000	-1.479041e+001	-5.629118e+001	-1.479139e+001	-5.620334e+001	-7.943759e-001	9.709023e+000
20.655	-7.945580e-001	9.477151e+000	-1.486396e+001	-5.659770e+001	-1.486480e+001	-5.651067e+001	-7.800159e-001	9.646660e+000
20.917	-7.805210e-001	9.414789e+000	-1.493705e+001	-5.690186e+001	-1.493802e+001	-5.681380e+001	-7.660247e-001	9.584204e+000
21.179	-7.667220e-001	9.351772e+000	-1.501033e+001	-5.719638e+001	-1.501119e+001	-5.710826e+001	-7.523904e-001	9.521318e+000
21.441	-7.534751e-001	9.290804e+000	-1.508211e+001	-5.748915e+001	-1.508302e+001	-5.740081e+001	-7.390822e-001	9.460272e+000
21.703	-7.405751e-001	9.228448e+000	-1.515430e+001	-5.777305e+001	-1.515535e+001	-5.768448e+001	-7.259802e-001	9.397886e+000
21.965	-7.277332e-001	9.167103e+000	-1.522611e+001	-5.805473e+001	-1.522704e+001	-5.796687e+001	-7.131925e-001	9.336523e+000
22.228	-7.152940e-001	9.106816e+000	-1.529743e+001	-5.833279e+001	-1.529832e+001	-5.824505e+001	-7.008051e-001	9.275873e+000
22.490	-7.032012e-001	9.046591e+000	-1.536809e+001	-5.860805e+001	-1.536907e+001	-5.851985e+001	-6.886136e-001	9.215063e+000
22.752	-6.913007e-001	8.986118e+000	-1.543917e+001	-5.887819e+001	-1.544001e+001	-5.879034e+001	-6.767521e-001	9.154946e+000
23.014	-6.798000e-001	8.926778e+000	-1.550899e+001	-5.914186e+001	-1.551002e+001	-5.905421e+001	-6.652914e-001	9.094984e+000
23.276	-6.684681e-001	8.866548e+000	-1.557923e+001	-5.940220e+001	-1.558031e+001	-5.931390e+001	-6.539737e-001	9.035281e+000
23.538	-6.573456e-001	8.807367e+000	-1.564878e+001	-5.965967e+001	-1.564975e+001	-5.956966e+001	-6.428726e-001	8.976604e+000
23.801	-6.465470e-001	8.749588e+000	-1.571788e+001	-5.991114e+001	-1.571888e+001	-5.982299e+001	-6.321010e-001	8.918272e+000
24.063	-6.360376e-001	8.691334e+000	-1.578646e+001	-6.016123e+001	-1.578733e+001	-6.007190e+001	-6.215729e-001	8.860786e+000
24.325	-6.255972e-001	8.634067e+000	-1.585467e+001	-6.040796e+001	-1.585583e+001	-6.031886e+001	-6.112887e-001	8.803356e+000
24.587	-6.157370e-001	8.576501e+000	-1.592290e+001	-6.064694e+001	-1.592385e+001	-6.055749e+001	-6.012806e-001	8.745991e+000
24.849	-6.057646e-001	8.519721e+000	-1.599073e+001	-6.088492e+001	-1.599177e+001	-6.079597e+001	-5.913526e-001	8.688617e+000
25.111	-5.961682e-001	8.463345e+000	-1.605791e+001	-6.111854e+001	-1.605890e+001	-6.103053e+001	-5.817599e-001	8.632527e+000
25.374	-5.868475e-001	8.407612e+000	-1.612481e+001	-6.134941e+001	-1.612593e+001	-6.126120e+001	-5.724460e-001	8.576765e+000
25.636	-5.776759e-001	8.352442e+000	-1.619135e+001	-6.157432e+001	-1.619253e+001	-6.148660e+001	-5.632507e-001	8.521338e+000
25.898	-5.686400e-001	8.297898e+000	-1.625733e+001	-6.179847e+001	-1.625866e+001	-6.171064e+001	-5.542914e-001	8.466773e+000
26.204	-5.586815e-001	8.231443e+000	-1.633684e+001	-6.203897e+001	-1.633750e+001	-6.195515e+001	-5.441164e-001	8.400907e+000
26.564	-5.468514e-001	8.160431e+000	-1.642449e+001	-6.235473e+001	-1.642553e+001	-6.226537e+001	-5.323157e-001	8.329865e+000
26.924	-5.352756e-001	8.087708e+000	-1.651413e+001	-6.264706e+001	-1.651516e+001	-6.255707e+001	-5.208853e-001	8.256241e+000
27.284	-5.243840e-001	8.015959e+000	-1.660232e+001	-6.292427e+001	-1.660355e+001	-6.283550e+001	-5.100011e-001	8.184181e+000
27.644	-5.136904e-001	7.945553e+000	-1.669001e+001	-6.320940e+001	-1.669108e+001	-6.312092e+001	-4.991939e-001	8.113664e+000
28.004	-5.033168e-001	7.874789e+000	-1.677712e+001	-6.347638e+001	-1.677843e+001	-6.338672e+001	-4.889293e-001	8.043378e+000
28.364	-4.931275e-001	7.804923e+000	-1.686434e+001	-6.374701e+001	-1.686560e+001	-6.365782e+001	-4.787653e-001	7.973099e+000
28.724	-4.833671e-001	7.736354e+000	-1.695022e+001	-6.401192e+001	-1.695139e+001	-6.392172e+001	-4.689185e-001	7.904792e+000
29.084	-4.738674e-001	7.669813e+000	-1.703528e+001	-6.426768e+001	-1.703660e+001	-6.417802e+001	-4.594511e-001	7.837486e+000
29.444	-4.647817e-001	7.603780e+000	-1.711971e+001	-6.451759e+001	-1.712126e+001	-6.442784e+001	-4.504121e-001	7.771651e+000
29.804	-4.558380e-001	7.538495e+000	-1.720326e+001	-6.476874e+001	-1.720432e+001	-6.467498e+001	-4.413394e-001	7.707417e+000
30.164	-4.469137e-001	7.473598e+000	-1.728712e+001	-6.501344e+001	-1.728854e+001	-6.492029e+001	-4.326053e-001	7.642278e+000
30.524	-4.386371e-001	7.409753e+000	-1.736906e+001	-6.524946e+001	-1.737046e+001	-6.515850e+001	-4.242390e-001	7.578903e+000
30.884	-4.303507e-001	7.345871e+000	-1.745149e+001	-6.547965e+001	-1.745273e+001	-6.538808e+001	-4.159884e-001	7.514586e+000
31.244	-4.222099e-001	7.283320e+000	-1.753319e+001	-6.571037e+001	-1.753460e+001	-6.561995e+001	-4.078741e-001	7.451628e+000
31.605	-4.144628e-001	7.221447e+000	-1.761407e+001	-6.593637e+001	-1.761530e+001	-6.584711e+001	-4.000893e-001	7.390055e+000
31.965	-4.069197e-001	7.161607e+000	-1.769390e+001	-6.615558e+001	-1.769526e+001	-6.606411e+001	-3.926038e-001	7.330102e+000
32.325	-3.994545e-001	7.101929e+000	-1.777297e+001	-6.637464e+001	-1.777448e+001	-6.628486e+001	-3.851599e-001	7.270276e+000
32.685	-3.922360e-001	7.042263e+000	-1.785270e+001	-6.658885e+001	-1.785426e+001	-6.649859e+001	-3.779560e-001	7.210877e+000
33.045	-3.853804e-001	6.984969e+000	-1.793052e+001	-6.679681e+001	-1.793191e+001	-6.670587e+001	-3.709323e-001	7.153056e+000
33.405	-3.785680e-001	6.926959e+000	-1.800902e+001	-6.700012e+001	-1.801019e+001	-6.690923e+001	-3.642156e-001	7.095225e+000
33.765	-3.717766e-001	6.870639e+000	-1.808641e+001	-6.720459e+001	-1.808789e+001	-6.711390e+001	-3.574878e-001	7.038532e+000
34.125	-3.652338e-001	6.814729e+000	-1.816281e+001	-6.740318e+001	-1.816460e+001	-6.731313e+001	-3.510602e-001	6.982596e+000
34.485	-3.590627e-001	6.759805e+000	-1.823878e+001	-6.759721e+001	-1.824072e+001	-6.750500e+001	-3.448580e-001	6.927663e+000
34.845	-3.530240e-001	6.706155e+000	-1.831429e+001	-6.778655e+001	-1.831586e+001	-6.769714e+001	-3.386907e-001	6.873586e+000
35.205	-3.467843e-001	6.652801e+000	-1.838891e+001	-6.797812e+001	-1.839063e+001	-6.788593e+001	-3.325882e-001	6.820904e+000
35.565	-3.411747e-001	6.599692e+000	-1.846393e+001	-6.815886e+001	-1.846568e+001	-6.806897e+001	-3.267727e-001	6.767264e+000
35.985	-3.299111e-001	6.555477e+000	-1.854012e+001	-6.864306e+001	-1.854117e+001	-6.855002e+001	-3.156661e-001	6.723374e+000
36.483	-3.268710e-001	6.468332e+000	-1.865096e+001	-6.861834e+001	-1.865254e+001	-6.853065e+001	-3.126195e-001	6.636169e+000
36.980	-3.195575e-001	6.398629e+000	-1.875185e+001	-6.886235e+001	-1.875390e+001	-6.877336e+001	-3.053435e-001	6.566268e+000
37.478	-3.124518e-001	6.330609e+000	-1.885084e+001	-6.909237e+001	-1.885287e+001	-6.899971e+001	-2.983386e-001	6.498356e+000
37.975	-3.056136e-001	6.264896e+000	-1.894859e+001	-6.932706e+001	-1.895086e+001	-6.923584e+001	-2.914961e-001	6.431951e+000
38.473	-2.990768e-001	6.199552e+000	-1.904569e+001	-6.954478e+001	-1.904782e+001	-6.945330e+001	-2.849885e-001	6.367132e+000
38.970	-2.926070e-001	6.134389e+000	-1.914259e+001	-6.976294e+001	-1.914506e+001	-6.967259e+001	-2.786453e-001	6.302193e+000
39.468	-2.863622e-001	6.070478e+000	-1.923822e+001	-6.998045e+001	-1.924060e+001	-6.988732e+001	-2.722321e-001	6.238862e+000
39.965	-2.804746e-001	6.008247e+000	-1.933298e+001	-7.018515e+001	-1.933524e+001	-7.009457e+001	-2.664441e-001	6.176537e+000
40.463	-2.748632e-001	5.947358e+000	-1.942622e+001	-7.038793e+001	-1.942808e+001	-7.029490e+001	-2.606980e-001	6.115948e+000
40.960	-2.692474e-001	5.888665e+000	-1.951858e+001	-7.059580e+001	-1.951991e+001	-7.050202e+001	-2.549163e-001	6.056543e+000
41.458	-2.636785e-001	5.829001e+000	-1.961104e+001	-7.078776e+001	-1.961320e+001	-7.069488e+001	-2.495470e-001	5.997749e+000
41.955	-2.584285e-001	5.770915e+000	-1.970144e+001	-7.098260e+001	-1.970302e+001	-7.089015e+001	-2.441949e-001	5.939982e+000
42.452	-2.534452e-001	5.716259e+000	-1.979103e+001	-7.116819e+001	-1.979330e+001	-7.107522e+001	-2.391520e-001	5.883695e+000
42.950	-2.484929e-001	5.659587e+000	-1.988078e+001	-7.135092e+001	-1.988267e+001	-7.125625e+001	-2.341563e-001	5.828134e+000
43.447	-2.438094e-001	5.605579e+000	-1.996897e+001	-7.153054e+001	-1.997093e+001	-7.143937e+001	-2.293388e-001	5.773217e+000
43.945	-2.388822e-001	5.551197e+000	-2.005670e+001	-7.170926e+001	-2.005900e+001	-7.161979e+001	-2.246200e-001	5.719228e+000
44.442	-2.343210e-001	5.498717e+000	-2.014407e+001	-7.188323e+001	-2.014522e+001	-7.178994e+001	-2.201955e-001	5.666354e+000
44.940	-2.300421e-001	5.447472e+000	-2.022804e+001	-7.204665e+001	-2.023118e+001	-7.196046e+001	-2.158478e-001	5.614846e+000
45.437	-2.259427e-001	5.396586e+000	-2.031373e+001	-7.221160e+001	-2.031666e+001	-7.212002e+001	-2.115876e-001	5.563985e+000
45.935	-2.217648e-001	5.345982e+000	-2.039884e+001	-7.237566e+001	-2.040166e+001	-7.228544e+001	-2.074346e-001	5.513755e+000
46.432	-2.175882e-001	5.297205e+000	-2.048222e+001	-7.253646e+001	-2.048502e+001	-7.244681e+001	-2.033568e-001	5.464773e+000
46.930	-2.136971e-001	5.249122e+000	-2.056490e+001	-7.269667e+001	-2.056771e+001	-7.260566e+001	-1.993881e-001	5.416716e+000
47.427	-2.098976e-001	5.201298e+000	-2.064767e+001	-7.285402e+001	-2.065069e+001	-7.276527e+001	-1.954977e-001	5.369035e+000
47.925	-2.059995e-001	5.153487e+000	-2.073001e+001	-7.300093e+001	-2.073319e+001	-7.290939e+001	-1.919041e-001	5.320963e+000
48.422	-2.025208e-001	5.108560e+000	-2.080971e+001	-7.314399e+001	-2.081295e+001	-7.305251e+001	-1.883626e-001	5.276419e+000
48.920	-1.989575e-001	5.063413e+000	-2.089001e+001	-7.329754e+001	-2.089328e+001	-7.320673e+001	-1.847125e-001	5.230977e+000
49.417	-1.956157e-001	5.018931e+000	-2.097055e+001	-7.342923e+001	-2.097357e+001	-7.333948e+001	-1.812864e-001	5.185791e+000
50.001	-1.932079e-001	4.964264e+000	-2.106504e+001	-7.347949e+001	-2.108351e+001	-7.273431e+001	-1.875573e-001	5.110883e+000
50.688	-1.870623e-001	4.909751e+000	-2.116766e+001	-7.378639e+001	-2.117491e+001	-7.370268e+001	-1.728394e-001	5.075747e+000
51.375	-1.827696e-001	4.851057e+000	-2.127528e+001	-7.398165e+001	-2.128243e+001	-7.387928e+001	-1.687031e-001	5.017044e+000
52.062	-1.784538e-001	4.794164e+000	-2.138283e+001	-7.417019e+001	-2.138518e+001	-7.404861e+001	-1.647019e-001	4.961674e+000
52.749	-1.748999e-001	4.736897e+000	-2.148906e+001	-7.431854e+001	-2.148656e+001	-7.424166e+001	-1.604826e-001	4.908698e+000
53.436	-1.711972e-001	4.685578e+000	-2.158637e+001	-7.448592e+001	-2.159455e+001	-7.442423e+001	-1.564440e-001	4.851832e+000
54.123	-1.669737e-001	4.631774e+000	-2.169201e+001	-7.468238e+001	-2.169414e+001	-7.454259e+001	-1.533811e-001	4.800173e+000
54.810	-1.641239e-001	4.581192e+000	-2.178997e+001	-7.479647e+001	-2.179340e+001	-7.475974e+001	-1.492693e-001	4.749801e+000
55.497	-1.598626e-001	4.529417e+000	-2.189259e+001	-7.500701e+001	-2.189469e+001	-7.486155e+001	-1.463870e-001	4.697119e+000
56.184	-1.570702e-001	4.481256e+000	-2.198514e+001	-7.512230e+001	-2.199533e+001	-7.507498e+001	-1.422544e-001	4.647283e+000
56.871	-1.537716e-001	4.428348e+000	-2.209093e+001	-7.527531e+001	-2.208481e+001	-7.520061e+001	-1.395359e-001	4.602898e+000
57.558	-1.501076e-001	4.383829e+000	-2.218415e+001	-7.547074e+001	-2.218648e+001	-7.530919e+001	-1.367710e-001	4.551480e+000
58.245	-1.473284e-001	4.340214e+000	-2.227317e+001	-7.560354e+001	-2.228717e+001	-7.548056e+001	-1.335021e-001	4.503190e+000
58.932	-1.446320e-001	4.294065e+000	-2.236669e+001	-7.571639e+001	-2.238088e+001	-7.565523e+001	-1.300435e-001	4.458052e+000
59.619	-1.420423e-001	4.248692e+000	-2.246169e+001	-7.583499e+001	-2.247302e+001	-7.580345e+001	-1.271842e-001	4.414163e+000
60.306	-1.392847e-001	4.205092e+000	-2.255380e+001	-7.596779e+001	-2.256473e+001	-7.593780e+001	-1.244821e-001	4.371217e+000
60.993	-1.365838e-001	4.161970e+000	-2.264468e+001	-7.611323e+001	-2.265881e+001	-7.606306e+001	-1.219694e-001	4.326644e+000
61.680	-1.335632e-001	4.120543e+000	-2.273533e+001	-7.627801e+001	-2.275067e+001	-7.616518e+001	-1.196585e-001	4.283493e+000
62.367	-1.308784e-001	4.076816e+000	-2.283061e+001	-7.642773e+001	-2.283567e+001	-7.625779e+001	-1.175395e-001	4.244868e+000
63.054	-1.289725e-001	4.033284e+000	-2.292512e+001	-7.650649e+001	-2.291758e+001	-7.641106e+001	-1.150164e-001	4.207107e+000
