!Agilent Technologies,E5061B,MY49204007,A.02.12
!Date: Wed Jul 23 11:20:12 2025
!Data & Calibration Information:
!Freq	S11:SOLT2(ON)	S21:SOLT2(ON)	S12:SOLT2(ON)	S22:SOLT2(ON)
# Hz S dB R 50
10.000	-2.214240e+000	1.280837e+001	-1.048001e+001	-3.528161e+001	-1.046677e+001	-3.521317e+001	-2.199446e+000	1.303657e+001
10.137	-2.192861e+000	1.282011e+001	-1.051431e+001	-3.557366e+001	-1.050119e+001	-3.550954e+001	-2.177685e+000	1.304669e+001
10.275	-2.171177e+000	1.282912e+001	-1.054872e+001	-3.586624e+001	-1.053612e+001	-3.580430e+001	-2.156027e+000	1.305482e+001
10.412	-2.149821e+000	1.283672e+001	-1.058343e+001	-3.615823e+001	-1.057104e+001	-3.609751e+001	-2.134695e+000	1.306150e+001
10.550	-2.128604e+000	1.284376e+001	-1.061816e+001	-3.645042e+001	-1.060619e+001	-3.639009e+001	-2.113354e+000	1.306642e+001
10.687	-2.107697e+000	1.284867e+001	-1.065321e+001	-3.674058e+001	-1.064138e+001	-3.667876e+001	-2.092175e+000	1.307081e+001
10.824	-2.086918e+000	1.285391e+001	-1.068810e+001	-3.702993e+001	-1.067663e+001	-3.696817e+001	-2.071144e+000	1.307456e+001
10.962	-2.066155e+000	1.285599e+001	-1.072324e+001	-3.731606e+001	-1.071210e+001	-3.725233e+001	-2.050398e+000	1.307628e+001
11.099	-2.045821e+000	1.285920e+001	-1.075807e+001	-3.760283e+001	-1.074745e+001	-3.753986e+001	-2.029792e+000	1.307727e+001
11.237	-2.025468e+000	1.285885e+001	-1.079330e+001	-3.788549e+001	-1.078300e+001	-3.782060e+001	-2.009591e+000	1.307729e+001
11.374	-2.005317e+000	1.285800e+001	-1.082870e+001	-3.816796e+001	-1.081874e+001	-3.810195e+001	-1.989361e+000	1.307500e+001
11.511	-1.985423e+000	1.285626e+001	-1.086421e+001	-3.844741e+001	-1.085442e+001	-3.838189e+001	-1.969381e+000	1.307274e+001
11.649	-1.965640e+000	1.285318e+001	-1.089977e+001	-3.872554e+001	-1.089019e+001	-3.866071e+001	-1.949445e+000	1.306866e+001
11.786	-1.946037e+000	1.284851e+001	-1.093543e+001	-3.900291e+001	-1.092614e+001	-3.893697e+001	-1.929884e+000	1.306366e+001
11.924	-1.926764e+000	1.284367e+001	-1.097102e+001	-3.927754e+001	-1.096198e+001	-3.921275e+001	-1.910369e+000	1.305784e+001
12.061	-1.907371e+000	1.283669e+001	-1.100707e+001	-3.954990e+001	-1.099829e+001	-3.948449e+001	-1.891058e+000	1.305008e+001
12.198	-1.888514e+000	1.282865e+001	-1.104293e+001	-3.982151e+001	-1.103420e+001	-3.975723e+001	-1.871872e+000	1.304191e+001
12.336	-1.869692e+000	1.281922e+001	-1.107905e+001	-4.009051e+001	-1.107041e+001	-4.002440e+001	-1.853010e+000	1.303226e+001
12.473	-1.850989e+000	1.280958e+001	-1.111518e+001	-4.035818e+001	-1.110678e+001	-4.029183e+001	-1.834307e+000	1.302147e+001
12.611	-1.832556e+000	1.279922e+001	-1.115132e+001	-4.062426e+001	-1.114307e+001	-4.055770e+001	-1.815830e+000	1.301072e+001
12.748	-1.814301e+000	1.278783e+001	-1.118748e+001	-4.088789e+001	-1.117935e+001	-4.082199e+001	-1.797509e+000	1.299859e+001
12.885	-1.796203e+000	1.277539e+001	-1.122361e+001	-4.115047e+001	-1.121580e+001	-4.108442e+001	-1.779310e+000	1.298527e+001
13.023	-1.778178e+000	1.276251e+001	-1.125992e+001	-4.141130e+001	-1.125241e+001	-4.134477e+001	-1.761344e+000	1.297126e+001
13.160	-1.760602e+000	1.274774e+001	-1.129639e+001	-4.166904e+001	-1.128886e+001	-4.160226e+001	-1.743691e+000	1.295607e+001
13.298	-1.742960e+000	1.273272e+001	-1.133273e+001	-4.192735e+001	-1.132590e+001	-4.185817e+001	-1.726117e+000	1.294027e+001
13.435	-1.725551e+000	1.271726e+001	-1.136904e+001	-4.218171e+001	-1.136245e+001	-4.211398e+001	-1.708677e+000	1.292403e+001
13.572	-1.708454e+000	1.270008e+001	-1.140548e+001	-4.243511e+001	-1.139911e+001	-4.236600e+001	-1.691558e+000	1.290681e+001
13.733	-1.689186e+000	1.266508e+001	-1.145280e+001	-4.269441e+001	-1.144084e+001	-4.266782e+001	-1.671712e+000	1.288931e+001
13.923	-1.665526e+000	1.265376e+001	-1.149882e+001	-4.307213e+001	-1.149297e+001	-4.300250e+001	-1.648639e+000	1.285900e+001
14.112	-1.642750e+000	1.262599e+001	-1.154957e+001	-4.340929e+001	-1.154385e+001	-4.334024e+001	-1.625934e+000	1.283122e+001
14.302	-1.620233e+000	1.259788e+001	-1.160031e+001	-4.374790e+001	-1.159477e+001	-4.367894e+001	-1.603421e+000	1.280207e+001
14.492	-1.598148e+000	1.256879e+001	-1.165079e+001	-4.408053e+001	-1.164553e+001	-4.401102e+001	-1.581312e+000	1.277242e+001
14.682	-1.576384e+000	1.253822e+001	-1.170142e+001	-4.441036e+001	-1.169659e+001	-4.433913e+001	-1.559574e+000	1.274116e+001
14.872	-1.555047e+000	1.250643e+001	-1.175233e+001	-4.473716e+001	-1.174762e+001	-4.466563e+001	-1.538229e+000	1.270866e+001
15.062	-1.533840e+000	1.247407e+001	-1.180326e+001	-4.506087e+001	-1.179869e+001	-4.498984e+001	-1.517057e+000	1.267504e+001
15.251	-1.513129e+000	1.243976e+001	-1.185400e+001	-4.537833e+001	-1.184980e+001	-4.530585e+001	-1.496200e+000	1.264070e+001
15.441	-1.492740e+000	1.240431e+001	-1.190520e+001	-4.569611e+001	-1.190102e+001	-4.562436e+001	-1.475715e+000	1.260474e+001
15.631	-1.472562e+000	1.236836e+001	-1.195594e+001	-4.600902e+001	-1.195180e+001	-4.593684e+001	-1.455539e+000	1.256886e+001
15.821	-1.452749e+000	1.233183e+001	-1.200682e+001	-4.631837e+001	-1.200291e+001	-4.624581e+001	-1.435751e+000	1.253191e+001
16.011	-1.433186e+000	1.229383e+001	-1.205773e+001	-4.662408e+001	-1.205406e+001	-4.655077e+001	-1.416196e+000	1.249365e+001
16.201	-1.414161e+000	1.225641e+001	-1.210844e+001	-4.692520e+001	-1.210492e+001	-4.685138e+001	-1.397104e+000	1.245510e+001
16.391	-1.395252e+000	1.221724e+001	-1.215930e+001	-4.722708e+001	-1.215590e+001	-4.715320e+001	-1.378190e+000	1.241583e+001
16.580	-1.376772e+000	1.217830e+001	-1.220982e+001	-4.752253e+001	-1.220645e+001	-4.744873e+001	-1.359662e+000	1.237644e+001
16.770	-1.358500e+000	1.213756e+001	-1.226056e+001	-4.781467e+001	-1.225757e+001	-4.773980e+001	-1.341473e+000	1.233575e+001
16.960	-1.340544e+000	1.209697e+001	-1.231128e+001	-4.810414e+001	-1.230827e+001	-4.802972e+001	-1.323481e+000	1.229429e+001
17.150	-1.323266e+000	1.203884e+001	-1.236897e+001	-4.835271e+001	-1.236616e+001	-4.828078e+001	-1.306120e+000	1.223682e+001
17.340	-1.305377e+000	1.201376e+001	-1.241230e+001	-4.867651e+001	-1.240953e+001	-4.860082e+001	-1.288329e+000	1.221099e+001
17.530	-1.288293e+000	1.197142e+001	-1.246259e+001	-4.895752e+001	-1.245994e+001	-4.888074e+001	-1.271215e+000	1.216889e+001
17.720	-1.271517e+000	1.192898e+001	-1.251319e+001	-4.923426e+001	-1.251061e+001	-4.915679e+001	-1.254374e+000	1.212582e+001
17.909	-1.254997e+000	1.188561e+001	-1.256366e+001	-4.950827e+001	-1.256118e+001	-4.943124e+001	-1.237835e+000	1.208170e+001
18.099	-1.238689e+000	1.184214e+001	-1.261392e+001	-4.977942e+001	-1.261146e+001	-4.970206e+001	-1.221508e+000	1.203775e+001
18.289	-1.222625e+000	1.179845e+001	-1.266437e+001	-5.004761e+001	-1.266198e+001	-4.997033e+001	-1.205462e+000	1.199278e+001
18.479	-1.206982e+000	1.175461e+001	-1.271440e+001	-5.031401e+001	-1.271218e+001	-5.023523e+001	-1.189724e+000	1.194865e+001
18.669	-1.191530e+000	1.170953e+001	-1.276449e+001	-5.057681e+001	-1.276247e+001	-5.049669e+001	-1.174314e+000	1.190384e+001
18.859	-1.176172e+000	1.166537e+001	-1.281437e+001	-5.083713e+001	-1.281264e+001	-5.075659e+001	-1.159027e+000	1.185824e+001
19.082	-1.163983e+000	1.155400e+001	-1.289383e+001	-5.091633e+001	-1.289282e+001	-5.083480e+001	-1.146859e+000	1.174701e+001
19.344	-1.138338e+000	1.155006e+001	-1.294213e+001	-5.148991e+001	-1.294063e+001	-5.141014e+001	-1.121081e+000	1.174211e+001
19.606	-1.118667e+000	1.148698e+001	-1.301039e+001	-5.183117e+001	-1.300903e+001	-5.174990e+001	-1.101528e+000	1.167875e+001
19.868	-1.099347e+000	1.142448e+001	-1.307891e+001	-5.217477e+001	-1.307756e+001	-5.209187e+001	-1.082035e+000	1.161566e+001
20.130	-1.080515e+000	1.136106e+001	-1.314670e+001	-5.250640e+001	-1.314561e+001	-5.242368e+001	-1.063277e+000	1.155246e+001
20.392	-1.062092e+000	1.129723e+001	-1.321477e+001	-5.283345e+001	-1.321362e+001	-5.275027e+001	-1.044815e+000	1.148817e+001
20.655	-1.044047e+000	1.123339e+001	-1.328253e+001	-5.315752e+001	-1.328147e+001	-5.307551e+001	-1.026797e+000	1.142412e+001
20.917	-1.026401e+000	1.116986e+001	-1.335018e+001	-5.347850e+001	-1.334914e+001	-5.339574e+001	-1.009157e+000	1.136035e+001
21.179	-1.008990e+000	1.110520e+001	-1.341776e+001	-5.379134e+001	-1.341690e+001	-5.370717e+001	-9.918481e-001	1.129551e+001
21.441	-9.921576e-001	1.104226e+001	-1.348441e+001	-5.410137e+001	-1.348357e+001	-5.401788e+001	-9.749799e-001	1.123189e+001
21.703	-9.758402e-001	1.097726e+001	-1.355133e+001	-5.440446e+001	-1.355056e+001	-5.432015e+001	-9.586213e-001	1.116701e+001
21.965	-9.596680e-001	1.091285e+001	-1.361812e+001	-5.470465e+001	-1.361737e+001	-5.462040e+001	-9.424910e-001	1.110285e+001
22.228	-9.438549e-001	1.084953e+001	-1.368437e+001	-5.500077e+001	-1.368373e+001	-5.491666e+001	-9.266639e-001	1.103902e+001
22.490	-9.284349e-001	1.078641e+001	-1.375017e+001	-5.529381e+001	-1.374968e+001	-5.520861e+001	-9.113028e-001	1.097517e+001
22.752	-9.132285e-001	1.072293e+001	-1.381632e+001	-5.558228e+001	-1.381581e+001	-5.549794e+001	-8.960580e-001	1.091106e+001
23.014	-8.985850e-001	1.065992e+001	-1.388152e+001	-5.586413e+001	-1.388102e+001	-5.577952e+001	-8.814076e-001	1.084776e+001
23.276	-8.841402e-001	1.059594e+001	-1.394702e+001	-5.614255e+001	-1.394672e+001	-5.605742e+001	-8.670472e-001	1.078435e+001
23.538	-8.699279e-001	1.053320e+001	-1.401209e+001	-5.641786e+001	-1.401188e+001	-5.633256e+001	-8.529159e-001	1.072154e+001
23.801	-8.561591e-001	1.047029e+001	-1.407679e+001	-5.668989e+001	-1.407662e+001	-5.660356e+001	-8.390712e-001	1.065899e+001
24.063	-8.426309e-001	1.040841e+001	-1.414097e+001	-5.695642e+001	-1.414084e+001	-5.687074e+001	-8.256058e-001	1.059644e+001
24.325	-8.293139e-001	1.034683e+001	-1.420511e+001	-5.722161e+001	-1.420512e+001	-5.713517e+001	-8.122888e-001	1.053462e+001
24.587	-8.165611e-001	1.028467e+001	-1.426899e+001	-5.747943e+001	-1.426902e+001	-5.739222e+001	-7.994665e-001	1.047282e+001
24.849	-8.037820e-001	1.022300e+001	-1.433295e+001	-5.773485e+001	-1.433289e+001	-5.764769e+001	-7.868462e-001	1.041055e+001
25.111	-7.913541e-001	1.016159e+001	-1.439601e+001	-5.798581e+001	-1.439614e+001	-5.789966e+001	-7.744759e-001	1.034979e+001
25.374	-7.792884e-001	1.010097e+001	-1.445925e+001	-5.823509e+001	-1.445930e+001	-5.814788e+001	-7.624049e-001	1.028883e+001
25.636	-7.674783e-001	1.004046e+001	-1.452196e+001	-5.847952e+001	-1.452204e+001	-5.839249e+001	-7.505143e-001	1.022757e+001
25.898	-7.557744e-001	9.980874e+000	-1.458412e+001	-5.872180e+001	-1.458444e+001	-5.863459e+001	-7.389532e-001	1.016801e+001
26.204	-7.439620e-001	9.900721e+000	-1.466190e+001	-5.893740e+001	-1.466178e+001	-5.885662e+001	-7.267807e-001	1.008954e+001
26.564	-7.275065e-001	9.830106e+000	-1.474194e+001	-5.932140e+001	-1.474215e+001	-5.923474e+001	-7.105219e-001	1.001717e+001
26.924	-7.126776e-001	9.749588e+000	-1.482672e+001	-5.963817e+001	-1.482728e+001	-5.955074e+001	-6.957673e-001	9.935880e+000
27.284	-6.984142e-001	9.669247e+000	-1.491060e+001	-5.994166e+001	-1.491091e+001	-5.985365e+001	-6.815351e-001	9.855919e+000
27.644	-6.844289e-001	9.590412e+000	-1.499371e+001	-6.024983e+001	-1.499420e+001	-6.016196e+001	-6.676117e-001	9.777876e+000
28.004	-6.709616e-001	9.511943e+000	-1.507633e+001	-6.054073e+001	-1.507698e+001	-6.045348e+001	-6.541509e-001	9.698657e+000
28.364	-6.576688e-001	9.434061e+000	-1.515917e+001	-6.083423e+001	-1.515974e+001	-6.074665e+001	-6.408880e-001	9.620238e+000
28.724	-6.450266e-001	9.357211e+000	-1.524098e+001	-6.112261e+001	-1.524159e+001	-6.103484e+001	-6.281432e-001	9.543576e+000
29.084	-6.325711e-001	9.281607e+000	-1.532209e+001	-6.140192e+001	-1.532271e+001	-6.131319e+001	-6.156387e-001	9.468123e+000
29.444	-6.205556e-001	9.207279e+000	-1.540243e+001	-6.167498e+001	-1.540341e+001	-6.158575e+001	-6.037824e-001	9.393573e+000
29.804	-6.089104e-001	9.134406e+000	-1.548205e+001	-6.194751e+001	-1.548279e+001	-6.185774e+001	-5.919263e-001	9.320350e+000
30.164	-5.972674e-001	9.060135e+000	-1.556244e+001	-6.221601e+001	-1.556323e+001	-6.212430e+001	-5.804659e-001	9.246176e+000
30.524	-5.863074e-001	8.988880e+000	-1.564075e+001	-6.247387e+001	-1.564131e+001	-6.238444e+001	-5.693669e-001	9.174015e+000
30.884	-5.755008e-001	8.914731e+000	-1.571974e+001	-6.272847e+001	-1.572040e+001	-6.263865e+001	-5.585315e-001	9.100924e+000
31.244	-5.648151e-001	8.843771e+000	-1.579806e+001	-6.298015e+001	-1.579852e+001	-6.289266e+001	-5.479217e-001	9.029873e+000
31.605	-5.545583e-001	8.773469e+000	-1.587528e+001	-6.322754e+001	-1.587592e+001	-6.313901e+001	-5.377224e-001	8.959843e+000
31.965	-5.446125e-001	8.705073e+000	-1.595195e+001	-6.347012e+001	-1.595287e+001	-6.338112e+001	-5.277801e-001	8.890397e+000
32.325	-5.349305e-001	8.637028e+000	-1.602820e+001	-6.371005e+001	-1.602890e+001	-6.362109e+001	-5.178820e-001	8.822010e+000
32.685	-5.252482e-001	8.568195e+000	-1.610457e+001	-6.394519e+001	-1.610511e+001	-6.385707e+001	-5.084263e-001	8.754075e+000
33.045	-5.161013e-001	8.502206e+000	-1.617946e+001	-6.417613e+001	-1.618017e+001	-6.408466e+001	-4.992346e-001	8.687699e+000
33.405	-5.070986e-001	8.436330e+000	-1.625482e+001	-6.439908e+001	-1.625552e+001	-6.431007e+001	-4.902612e-001	8.621281e+000
33.765	-4.981678e-001	8.370297e+000	-1.632948e+001	-6.462563e+001	-1.633032e+001	-6.453507e+001	-4.813972e-001	8.555922e+000
34.125	-4.896224e-001	8.306193e+000	-1.640297e+001	-6.484243e+001	-1.640402e+001	-6.475509e+001	-4.728215e-001	8.490922e+000
34.485	-4.813031e-001	8.242323e+000	-1.647645e+001	-6.505600e+001	-1.647745e+001	-6.496801e+001	-4.645441e-001	8.427401e+000
34.845	-4.731621e-001	8.179773e+000	-1.654910e+001	-6.526693e+001	-1.654996e+001	-6.517742e+001	-4.564021e-001	8.363976e+000
35.205	-4.650647e-001	8.117744e+000	-1.662162e+001	-6.547806e+001	-1.662253e+001	-6.538780e+001	-4.484186e-001	8.302514e+000
35.565	-4.574193e-001	8.055660e+000	-1.669384e+001	-6.568009e+001	-1.669484e+001	-6.559062e+001	-4.407547e-001	8.240122e+000
35.985	-4.433985e-001	8.006343e+000	-1.676645e+001	-6.616500e+001	-1.676739e+001	-6.607008e+001	-4.268942e-001	8.190617e+000
36.483	-4.384022e-001	7.903472e+000	-1.687472e+001	-6.618989e+001	-1.687569e+001	-6.609853e+001	-4.218652e-001	8.088378e+000
36.980	-4.286336e-001	7.822167e+000	-1.697229e+001	-6.645542e+001	-1.697340e+001	-6.636528e+001	-4.121972e-001	8.006286e+000
37.478	-4.192632e-001	7.742896e+000	-1.706777e+001	-6.671192e+001	-1.706927e+001	-6.662131e+001	-4.028157e-001	7.927117e+000
37.975	-4.101341e-001	7.665223e+000	-1.716305e+001	-6.697460e+001	-1.716500e+001	-6.688362e+001	-3.935377e-001	7.848559e+000
38.473	-4.013900e-001	7.587810e+000	-1.725734e+001	-6.721640e+001	-1.725877e+001	-6.712425e+001	-3.849187e-001	7.772182e+000
38.970	-3.926925e-001	7.512206e+000	-1.735138e+001	-6.745882e+001	-1.735302e+001	-6.736769e+001	-3.762685e-001	7.695627e+000
39.468	-3.843746e-001	7.437220e+000	-1.744446e+001	-6.769936e+001	-1.744611e+001	-6.760592e+001	-3.680936e-001	7.621265e+000
39.965	-3.763133e-001	7.364287e+000	-1.753608e+001	-6.793122e+001	-1.753770e+001	-6.783905e+001	-3.599753e-001	7.548060e+000
40.463	-3.687208e-001	7.292220e+000	-1.762659e+001	-6.815713e+001	-1.762802e+001	-6.806588e+001	-3.523144e-001	7.477092e+000
40.960	-3.611324e-001	7.222132e+000	-1.771683e+001	-6.838938e+001	-1.771825e+001	-6.829573e+001	-3.445999e-001	7.406323e+000
41.458	-3.538467e-001	7.152081e+000	-1.780701e+001	-6.860300e+001	-1.780867e+001	-6.851002e+001	-3.374199e-001	7.335743e+000
41.955	-3.466635e-001	7.083405e+000	-1.789505e+001	-6.882268e+001	-1.789654e+001	-6.873091e+001	-3.301619e-001	7.268166e+000
42.452	-3.398345e-001	7.017633e+000	-1.798249e+001	-6.902796e+001	-1.798433e+001	-6.893639e+001	-3.234091e-001	7.201190e+000
42.950	-3.332732e-001	6.950547e+000	-1.806992e+001	-6.923382e+001	-1.807176e+001	-6.914075e+001	-3.167691e-001	7.134506e+000
43.447	-3.268291e-001	6.885198e+000	-1.815638e+001	-6.943598e+001	-1.815776e+001	-6.934085e+001	-3.102459e-001	7.069882e+000
43.945	-3.204241e-001	6.822057e+000	-1.824190e+001	-6.963637e+001	-1.824331e+001	-6.954036e+001	-3.039407e-001	7.006116e+000
44.442	-3.142088e-001	6.758519e+000	-1.832721e+001	-6.983106e+001	-1.832889e+001	-6.973361e+001	-2.978249e-001	6.942989e+000
44.940	-3.085647e-001	6.697293e+000	-1.841137e+001	-7.001647e+001	-1.841297e+001	-6.992214e+001	-2.920272e-001	6.880531e+000
45.437	-3.025794e-001	6.635773e+000	-1.849508e+001	-7.020901e+001	-1.849692e+001	-7.011144e+001	-2.861030e-001	6.819833e+000
45.935	-2.970345e-001	6.576935e+000	-1.857736e+001	-7.039070e+001	-1.857930e+001	-7.029511e+001	-2.806204e-001	6.760264e+000
46.432	-2.916879e-001	6.517422e+000	-1.865964e+001	-7.056951e+001	-1.866143e+001	-7.047133e+001	-2.751934e-001	6.701792e+000
46.930	-2.863253e-001	6.459540e+000	-1.874067e+001	-7.074386e+001	-1.874233e+001	-7.064700e+001	-2.700026e-001	6.643484e+000
47.427	-2.811567e-001	6.404041e+000	-1.882142e+001	-7.091729e+001	-1.882308e+001	-7.082022e+001	-2.648043e-001	6.587109e+000
47.925	-2.759629e-001	6.347394e+000	-1.890172e+001	-7.108884e+001	-1.890375e+001	-7.099436e+001	-2.597464e-001	6.530451e+000
48.422	-2.712335e-001	6.291784e+000	-1.898116e+001	-7.125134e+001	-1.898304e+001	-7.115724e+001	-2.549068e-001	6.474956e+000
48.920	-2.664550e-001	6.238105e+000	-1.905944e+001	-7.141630e+001	-1.906137e+001	-7.132061e+001	-2.502183e-001	6.420993e+000
49.417	-2.617829e-001	6.184390e+000	-1.913762e+001	-7.157740e+001	-1.913996e+001	-7.147991e+001	-2.455524e-001	6.368115e+000
50.001	-2.586755e-001	6.116457e+000	-1.923205e+001	-7.162210e+001	-1.923412e+001	-7.153063e+001	-2.423751e-001	6.300075e+000
50.688	-2.505422e-001	6.051062e+000	-1.933530e+001	-7.197274e+001	-1.933754e+001	-7.187812e+001	-2.341063e-001	6.234245e+000
51.375	-2.445871e-001	5.980813e+000	-1.944017e+001	-7.218662e+001	-1.944264e+001	-7.208832e+001	-2.283444e-001	6.164063e+000
52.062	-2.391562e-001	5.913365e+000	-1.954328e+001	-7.238475e+001	-1.954522e+001	-7.228664e+001	-2.228226e-001	6.096191e+000
52.749	-2.337568e-001	5.848065e+000	-1.964428e+001	-7.258389e+001	-1.964606e+001	-7.248773e+001	-2.172665e-001	6.030514e+000
53.436	-2.283838e-001	5.781377e+000	-1.974681e+001	-7.278410e+001	-1.974935e+001	-7.268400e+001	-2.120827e-001	5.965111e+000
54.123	-2.235320e-001	5.717539e+000	-1.984744e+001	-7.295094e+001	-1.984936e+001	-7.285057e+001	-2.073160e-001	5.900307e+000
54.810	-2.186433e-001	5.657181e+000	-1.994425e+001	-7.315356e+001	-1.994586e+001	-7.305119e+001	-2.022313e-001	5.839015e+000
55.497	-2.140347e-001	5.593120e+000	-2.004489e+001	-7.331320e+001	-2.004694e+001	-7.321770e+001	-1.976840e-001	5.775866e+000
56.184	-2.092938e-001	5.533264e+000	-2.014129e+001	-7.351707e+001	-2.014293e+001	-7.341712e+001	-1.929298e-001	5.716920e+000
56.871	-2.051732e-001	5.475139e+000	-2.023466e+001	-7.366324e+001	-2.023777e+001	-7.356932e+001	-1.887754e-001	5.658181e+000
57.558	-2.009142e-001	5.415094e+000	-2.033260e+001	-7.383765e+001	-2.033559e+001	-7.373791e+001	-1.847295e-001	5.598530e+000
58.245	-1.964495e-001	5.358544e+000	-2.042663e+001	-7.401578e+001	-2.043009e+001	-7.391844e+001	-1.803397e-001	5.542267e+000
58.932	-1.924401e-001	5.304544e+000	-2.051885e+001	-7.417790e+001	-2.052209e+001	-7.408272e+001	-1.763483e-001	5.487868e+000
59.619	-1.887202e-001	5.250445e+000	-2.061018e+001	-7.433145e+001	-2.061345e+001	-7.423543e+001	-1.725807e-001	5.434593e+000
60.306	-1.848447e-001	5.197112e+000	-2.070133e+001	-7.448989e+001	-2.070462e+001	-7.439434e+001	-1.687312e-001	5.380484e+000
60.993	-1.812955e-001	5.145041e+000	-2.079263e+001	-7.463640e+001	-2.079606e+001	-7.453876e+001	-1.651329e-001	5.328325e+000
61.680	-1.778719e-001	5.091856e+000	-2.088407e+001	-7.478157e+001	-2.088738e+001	-7.468686e+001	-1.616100e-001	5.275335e+000
62.367	-1.746005e-001	5.041392e+000	-2.097311e+001	-7.491586e+001	-2.097616e+001	-7.481648e+001	-1.584818e-001	5.224058e+000
63.054	-1.713561e-001	4.993948e+000	-2.105816e+001	-7.505193e+001	-2.106136e+001	-7.495326e+001	-1.552009e-001	5.176713e+000
