!Agilent Technologies,E5061B,MY49204007,A.02.12
!Date: Wed Jul 23 11:07:03 2025
!Data & Calibration Information:
!Freq	S11:SOLT2(ON)	S21:SOLT2(ON)	S12:SOLT2(ON)	S22:SOLT2(ON)
# Hz S dB R 50
10.000	-2.679129e+000	1.142701e+001	-1.000557e+001	-2.763828e+001	-1.000760e+001	-2.753356e+001	-2.663155e+000	1.160864e+001
10.137	-2.662491e+000	1.146871e+001	-1.002684e+001	-2.787406e+001	-1.002864e+001	-2.777324e+001	-2.646318e+000	1.164925e+001
10.275	-2.645553e+000	1.150914e+001	-1.004810e+001	-2.811173e+001	-1.004992e+001	-2.801340e+001	-2.629519e+000	1.169028e+001
10.412	-2.628689e+000	1.154886e+001	-1.006957e+001	-2.834927e+001	-1.007115e+001	-2.825287e+001	-2.612655e+000	1.172945e+001
10.550	-2.611773e+000	1.158738e+001	-1.009098e+001	-2.858912e+001	-1.009265e+001	-2.849260e+001	-2.595898e+000	1.176782e+001
10.687	-2.595086e+000	1.162574e+001	-1.011274e+001	-2.882780e+001	-1.011418e+001	-2.873056e+001	-2.579088e+000	1.180617e+001
10.824	-2.578453e+000	1.166345e+001	-1.013437e+001	-2.906673e+001	-1.013580e+001	-2.897022e+001	-2.562298e+000	1.184322e+001
10.962	-2.561688e+000	1.169955e+001	-1.015618e+001	-2.930456e+001	-1.015748e+001	-2.920744e+001	-2.545547e+000	1.187937e+001
11.099	-2.545051e+000	1.173496e+001	-1.017793e+001	-2.954478e+001	-1.017927e+001	-2.944655e+001	-2.528746e+000	1.191533e+001
11.237	-2.528305e+000	1.176860e+001	-1.019985e+001	-2.978091e+001	-1.020111e+001	-2.968339e+001	-2.512115e+000	1.194978e+001
11.374	-2.511640e+000	1.180232e+001	-1.022203e+001	-3.001762e+001	-1.022332e+001	-2.991996e+001	-2.495485e+000	1.198227e+001
11.511	-2.494954e+000	1.183454e+001	-1.024423e+001	-3.025453e+001	-1.024548e+001	-3.015693e+001	-2.478832e+000	1.201470e+001
11.649	-2.478392e+000	1.186598e+001	-1.026649e+001	-3.049080e+001	-1.026779e+001	-3.039299e+001	-2.462289e+000	1.204618e+001
11.786	-2.461894e+000	1.189641e+001	-1.028888e+001	-3.072759e+001	-1.029029e+001	-3.062914e+001	-2.445797e+000	1.207613e+001
11.924	-2.445484e+000	1.192604e+001	-1.031141e+001	-3.096244e+001	-1.031263e+001	-3.086531e+001	-2.429256e+000	1.210552e+001
12.061	-2.428875e+000	1.195437e+001	-1.033407e+001	-3.119609e+001	-1.033549e+001	-3.109903e+001	-2.412858e+000	1.213394e+001
12.198	-2.412589e+000	1.198171e+001	-1.035681e+001	-3.143122e+001	-1.035806e+001	-3.133436e+001	-2.396316e+000	1.216117e+001
12.336	-2.396233e+000	1.200732e+001	-1.037978e+001	-3.166394e+001	-1.038095e+001	-3.156700e+001	-2.379962e+000	1.218736e+001
12.473	-2.379848e+000	1.203242e+001	-1.040276e+001	-3.189696e+001	-1.040390e+001	-3.179922e+001	-2.363662e+000	1.221268e+001
12.611	-2.363702e+000	1.205683e+001	-1.042594e+001	-3.212945e+001	-1.042699e+001	-3.203158e+001	-2.347377e+000	1.223723e+001
12.748	-2.347544e+000	1.208033e+001	-1.044904e+001	-3.236119e+001	-1.045003e+001	-3.226337e+001	-2.331094e+000	1.226038e+001
12.885	-2.331446e+000	1.210277e+001	-1.047240e+001	-3.259203e+001	-1.047342e+001	-3.249464e+001	-2.315001e+000	1.228188e+001
13.023	-2.315253e+000	1.212416e+001	-1.049567e+001	-3.282222e+001	-1.049702e+001	-3.272437e+001	-2.298968e+000	1.230399e+001
13.160	-2.299390e+000	1.214458e+001	-1.051934e+001	-3.305034e+001	-1.052034e+001	-3.295314e+001	-2.283046e+000	1.232400e+001
13.298	-2.283364e+000	1.216422e+001	-1.054297e+001	-3.327960e+001	-1.054415e+001	-3.318085e+001	-2.267022e+000	1.234395e+001
13.435	-2.267475e+000	1.218328e+001	-1.056655e+001	-3.350670e+001	-1.056798e+001	-3.340904e+001	-2.251166e+000	1.236263e+001
13.572	-2.251682e+000	1.220123e+001	-1.059035e+001	-3.373344e+001	-1.059173e+001	-3.363643e+001	-2.235422e+000	1.238011e+001
13.733	-2.233176e+000	1.221165e+001	-1.062096e+001	-3.398410e+001	-1.061960e+001	-3.389903e+001	-2.217189e+000	1.240036e+001
13.923	-2.211810e+000	1.224265e+001	-1.065137e+001	-3.430774e+001	-1.065298e+001	-3.421033e+001	-2.195548e+000	1.242135e+001
14.112	-2.190299e+000	1.226210e+001	-1.068468e+001	-3.461512e+001	-1.068630e+001	-3.451792e+001	-2.174149e+000	1.244094e+001
14.302	-2.168989e+000	1.228035e+001	-1.071826e+001	-3.492393e+001	-1.071988e+001	-3.482636e+001	-2.152848e+000	1.245931e+001
14.492	-2.147879e+000	1.229681e+001	-1.075179e+001	-3.522954e+001	-1.075343e+001	-3.513205e+001	-2.131744e+000	1.247567e+001
14.682	-2.126792e+000	1.231165e+001	-1.078558e+001	-3.553282e+001	-1.078732e+001	-3.543536e+001	-2.110836e+000	1.249034e+001
14.872	-2.106000e+000	1.232453e+001	-1.081964e+001	-3.583516e+001	-1.082136e+001	-3.573733e+001	-2.089965e+000	1.250372e+001
15.062	-2.085297e+000	1.233673e+001	-1.085384e+001	-3.613613e+001	-1.085557e+001	-3.603818e+001	-2.069304e+000	1.251530e+001
15.251	-2.064706e+000	1.234676e+001	-1.088800e+001	-3.643319e+001	-1.088986e+001	-3.633511e+001	-2.048757e+000	1.252572e+001
15.441	-2.044320e+000	1.235524e+001	-1.092264e+001	-3.673133e+001	-1.092443e+001	-3.663276e+001	-2.028408e+000	1.253437e+001
15.631	-2.024114e+000	1.236366e+001	-1.095701e+001	-3.702563e+001	-1.095896e+001	-3.692785e+001	-2.008278e+000	1.254182e+001
15.821	-2.004070e+000	1.236935e+001	-1.099175e+001	-3.731827e+001	-1.099356e+001	-3.722055e+001	-1.988213e+000	1.254782e+001
16.011	-1.984264e+000	1.237410e+001	-1.102658e+001	-3.760881e+001	-1.102841e+001	-3.751092e+001	-1.968333e+000	1.255244e+001
16.201	-1.964709e+000	1.237727e+001	-1.106135e+001	-3.789743e+001	-1.106325e+001	-3.779849e+001	-1.948675e+000	1.255600e+001
16.391	-1.945094e+000	1.237978e+001	-1.109647e+001	-3.818517e+001	-1.109831e+001	-3.808725e+001	-1.929112e+000	1.255798e+001
16.580	-1.925847e+000	1.238086e+001	-1.113153e+001	-3.846991e+001	-1.113339e+001	-3.837236e+001	-1.909789e+000	1.255873e+001
16.770	-1.906619e+000	1.237979e+001	-1.116680e+001	-3.875322e+001	-1.116874e+001	-3.865468e+001	-1.890627e+000	1.255859e+001
16.960	-1.887725e+000	1.237811e+001	-1.120210e+001	-3.903376e+001	-1.120405e+001	-3.893624e+001	-1.871670e+000	1.255621e+001
17.150	-1.868392e+000	1.235746e+001	-1.124457e+001	-3.928660e+001	-1.124649e+001	-3.919045e+001	-1.852352e+000	1.253692e+001
17.340	-1.850149e+000	1.237149e+001	-1.127287e+001	-3.959071e+001	-1.127488e+001	-3.949344e+001	-1.834225e+000	1.255018e+001
17.530	-1.831774e+000	1.236662e+001	-1.130834e+001	-3.986661e+001	-1.131026e+001	-3.976840e+001	-1.815778e+000	1.254554e+001
17.720	-1.813450e+000	1.236056e+001	-1.134406e+001	-4.013902e+001	-1.134604e+001	-4.004121e+001	-1.797526e+000	1.253869e+001
17.909	-1.795336e+000	1.235318e+001	-1.137976e+001	-4.041098e+001	-1.138185e+001	-4.031272e+001	-1.779458e+000	1.253132e+001
18.099	-1.777535e+000	1.234513e+001	-1.141568e+001	-4.068070e+001	-1.141750e+001	-4.058210e+001	-1.761562e+000	1.252354e+001
18.289	-1.759657e+000	1.233544e+001	-1.145158e+001	-4.094837e+001	-1.145346e+001	-4.084949e+001	-1.743768e+000	1.251397e+001
18.479	-1.742138e+000	1.232578e+001	-1.148753e+001	-4.121450e+001	-1.148931e+001	-4.111563e+001	-1.726234e+000	1.250433e+001
18.669	-1.724882e+000	1.231437e+001	-1.152350e+001	-4.147750e+001	-1.152538e+001	-4.137868e+001	-1.708936e+000	1.249264e+001
18.859	-1.707706e+000	1.230212e+001	-1.155965e+001	-4.174040e+001	-1.156152e+001	-4.164091e+001	-1.691699e+000	1.248056e+001
19.082	-1.689636e+000	1.223487e+001	-1.161928e+001	-4.192078e+001	-1.162163e+001	-4.182111e+001	-1.673622e+000	1.241165e+001
19.344	-1.664741e+000	1.226872e+001	-1.165239e+001	-4.240058e+001	-1.165417e+001	-4.230311e+001	-1.648517e+000	1.244551e+001
19.606	-1.641955e+000	1.224768e+001	-1.170220e+001	-4.275032e+001	-1.170409e+001	-4.265186e+001	-1.625946e+000	1.242426e+001
19.868	-1.619580e+000	1.222572e+001	-1.175266e+001	-4.310030e+001	-1.175442e+001	-4.300228e+001	-1.603407e+000	1.240251e+001
20.130	-1.597415e+000	1.220191e+001	-1.180260e+001	-4.344378e+001	-1.180444e+001	-4.334552e+001	-1.581335e+000	1.237888e+001
20.392	-1.575641e+000	1.217668e+001	-1.185289e+001	-4.378369e+001	-1.185479e+001	-4.368488e+001	-1.559615e+000	1.235372e+001
20.655	-1.554228e+000	1.215052e+001	-1.190319e+001	-4.412057e+001	-1.190519e+001	-4.402150e+001	-1.538104e+000	1.232797e+001
20.917	-1.533085e+000	1.212339e+001	-1.195358e+001	-4.445372e+001	-1.195556e+001	-4.435664e+001	-1.517014e+000	1.229978e+001
21.179	-1.512148e+000	1.209354e+001	-1.200427e+001	-4.478294e+001	-1.200618e+001	-4.468395e+001	-1.496233e+000	1.227084e+001
21.441	-1.491829e+000	1.206443e+001	-1.205441e+001	-4.511022e+001	-1.205628e+001	-4.501138e+001	-1.475793e+000	1.224200e+001
21.703	-1.471607e+000	1.203306e+001	-1.210487e+001	-4.543173e+001	-1.210685e+001	-4.533290e+001	-1.455679e+000	1.221050e+001
21.965	-1.451733e+000	1.200099e+001	-1.215530e+001	-4.574973e+001	-1.215744e+001	-4.565090e+001	-1.435864e+000	1.217837e+001
22.228	-1.432295e+000	1.196878e+001	-1.220592e+001	-4.606615e+001	-1.220789e+001	-4.596723e+001	-1.416305e+000	1.214624e+001
22.490	-1.413097e+000	1.193596e+001	-1.225638e+001	-4.637903e+001	-1.225830e+001	-4.628025e+001	-1.397107e+000	1.211243e+001
22.752	-1.393995e+000	1.190097e+001	-1.230693e+001	-4.668816e+001	-1.230893e+001	-4.658952e+001	-1.378101e+000	1.207734e+001
23.014	-1.375563e+000	1.186597e+001	-1.235721e+001	-4.699243e+001	-1.235908e+001	-4.689441e+001	-1.359570e+000	1.204238e+001
23.276	-1.357157e+000	1.182926e+001	-1.240780e+001	-4.729374e+001	-1.240961e+001	-4.719515e+001	-1.341143e+000	1.200649e+001
23.538	-1.339060e+000	1.179263e+001	-1.245813e+001	-4.759298e+001	-1.246008e+001	-4.749424e+001	-1.323092e+000	1.196989e+001
23.801	-1.321434e+000	1.175546e+001	-1.250853e+001	-4.788902e+001	-1.251053e+001	-4.779028e+001	-1.305413e+000	1.193215e+001
24.063	-1.303992e+000	1.171779e+001	-1.255876e+001	-4.818042e+001	-1.256060e+001	-4.808178e+001	-1.287967e+000	1.189459e+001
24.325	-1.286740e+000	1.167917e+001	-1.260905e+001	-4.847131e+001	-1.261096e+001	-4.837284e+001	-1.270761e+000	1.185555e+001
24.587	-1.269966e+000	1.163981e+001	-1.265921e+001	-4.875637e+001	-1.266106e+001	-4.865672e+001	-1.253971e+000	1.181680e+001
24.849	-1.253306e+000	1.160015e+001	-1.270958e+001	-4.903892e+001	-1.271146e+001	-4.893991e+001	-1.237342e+000	1.177760e+001
25.111	-1.236936e+000	1.156033e+001	-1.275969e+001	-4.931817e+001	-1.276160e+001	-4.921962e+001	-1.221122e+000	1.173752e+001
25.374	-1.220858e+000	1.152016e+001	-1.280968e+001	-4.959456e+001	-1.281152e+001	-4.949576e+001	-1.204918e+000	1.169689e+001
25.636	-1.205050e+000	1.147952e+001	-1.285955e+001	-4.986730e+001	-1.286144e+001	-4.976827e+001	-1.189166e+000	1.165579e+001
25.898	-1.189408e+000	1.143846e+001	-1.290939e+001	-5.013788e+001	-1.291122e+001	-5.003991e+001	-1.173597e+000	1.161478e+001
26.204	-1.174786e+000	1.135151e+001	-1.298158e+001	-5.030609e+001	-1.298318e+001	-5.021311e+001	-1.158637e+000	1.152935e+001
26.564	-1.151134e+000	1.133199e+001	-1.303596e+001	-5.081412e+001	-1.303790e+001	-5.071376e+001	-1.135159e+000	1.150861e+001
26.924	-1.130917e+000	1.127327e+001	-1.310444e+001	-5.117158e+001	-1.310628e+001	-5.107153e+001	-1.115059e+000	1.144982e+001
27.284	-1.111274e+000	1.121464e+001	-1.317214e+001	-5.151770e+001	-1.317421e+001	-5.141838e+001	-1.095509e+000	1.139095e+001
27.644	-1.092066e+000	1.115604e+001	-1.323997e+001	-5.186808e+001	-1.324192e+001	-5.176882e+001	-1.076150e+000	1.133205e+001
28.004	-1.073248e+000	1.109619e+001	-1.330720e+001	-5.220368e+001	-1.330943e+001	-5.210441e+001	-1.057477e+000	1.127273e+001
28.364	-1.054783e+000	1.103592e+001	-1.337521e+001	-5.253891e+001	-1.337717e+001	-5.244071e+001	-1.039041e+000	1.121148e+001
28.724	-1.036881e+000	1.097568e+001	-1.344240e+001	-5.287048e+001	-1.344434e+001	-5.277301e+001	-1.021011e+000	1.115185e+001
29.084	-1.019293e+000	1.091630e+001	-1.350938e+001	-5.319531e+001	-1.351149e+001	-5.309626e+001	-1.003486e+000	1.109216e+001
29.444	-1.002227e+000	1.085638e+001	-1.357606e+001	-5.351455e+001	-1.357795e+001	-5.341444e+001	-9.864127e-001	1.103262e+001
29.804	-9.856187e-001	1.079664e+001	-1.364241e+001	-5.383199e+001	-1.364419e+001	-5.373023e+001	-9.696863e-001	1.097349e+001
30.164	-9.689665e-001	1.073541e+001	-1.370925e+001	-5.414378e+001	-1.371104e+001	-5.404303e+001	-9.531397e-001	1.091209e+001
30.524	-9.531192e-001	1.067536e+001	-1.377478e+001	-5.444982e+001	-1.377661e+001	-5.434948e+001	-9.371540e-001	1.085155e+001
30.884	-9.374713e-001	1.061357e+001	-1.384081e+001	-5.474912e+001	-1.384274e+001	-5.464950e+001	-9.214349e-001	1.078977e+001
31.244	-9.220485e-001	1.055289e+001	-1.390668e+001	-5.504570e+001	-1.390854e+001	-5.494635e+001	-9.061555e-001	1.072891e+001
31.605	-9.070275e-001	1.049227e+001	-1.397203e+001	-5.533912e+001	-1.397400e+001	-5.523963e+001	-8.911318e-001	1.066921e+001
31.965	-8.923092e-001	1.043170e+001	-1.403707e+001	-5.562720e+001	-1.403904e+001	-5.552794e+001	-8.764787e-001	1.060884e+001
32.325	-8.779222e-001	1.037216e+001	-1.410162e+001	-5.591342e+001	-1.410355e+001	-5.581304e+001	-8.620394e-001	1.054918e+001
32.685	-8.636867e-001	1.031219e+001	-1.416670e+001	-5.619416e+001	-1.416874e+001	-5.609397e+001	-8.479755e-001	1.048864e+001
33.045	-8.501836e-001	1.025259e+001	-1.423059e+001	-5.646913e+001	-1.423271e+001	-5.636884e+001	-8.343585e-001	1.042920e+001
33.405	-8.367075e-001	1.019170e+001	-1.429512e+001	-5.673943e+001	-1.429722e+001	-5.664112e+001	-8.208177e-001	1.036831e+001
33.765	-8.233868e-001	1.013292e+001	-1.435895e+001	-5.700910e+001	-1.436106e+001	-5.690919e+001	-8.076090e-001	1.030955e+001
34.125	-8.105642e-001	1.007383e+001	-1.442245e+001	-5.727279e+001	-1.442463e+001	-5.717407e+001	-7.947389e-001	1.024973e+001
34.485	-7.979055e-001	1.001452e+001	-1.448583e+001	-5.753241e+001	-1.448808e+001	-5.743471e+001	-7.822055e-001	1.019024e+001
34.845	-7.856120e-001	9.956441e+000	-1.454858e+001	-5.778789e+001	-1.455084e+001	-5.769024e+001	-7.699388e-001	1.013217e+001
35.205	-7.733247e-001	9.898287e+000	-1.461118e+001	-5.804339e+001	-1.461348e+001	-5.794548e+001	-7.577927e-001	1.007390e+001
35.565	-7.616291e-001	9.840142e+000	-1.467403e+001	-5.829022e+001	-1.467619e+001	-5.819219e+001	-7.459991e-001	1.001546e+001
35.985	-7.443271e-001	9.797528e+000	-1.473571e+001	-5.874007e+001	-1.473759e+001	-5.864001e+001	-7.288063e-001	9.973826e+000
36.483	-7.326146e-001	9.693294e+000	-1.483180e+001	-5.891528e+001	-1.483398e+001	-5.881627e+001	-7.168828e-001	9.869504e+000
36.980	-7.175652e-001	9.614000e+000	-1.491712e+001	-5.924072e+001	-1.491950e+001	-5.914301e+001	-7.018821e-001	9.789513e+000
37.478	-7.029018e-001	9.536486e+000	-1.500119e+001	-5.955691e+001	-1.500367e+001	-5.945706e+001	-6.874025e-001	9.711967e+000
37.975	-6.886186e-001	9.459307e+000	-1.508544e+001	-5.987870e+001	-1.508762e+001	-5.977812e+001	-6.731645e-001	9.634905e+000
38.473	-6.749747e-001	9.382687e+000	-1.516849e+001	-6.018122e+001	-1.517072e+001	-6.008111e+001	-6.594217e-001	9.558451e+000
38.970	-6.614924e-001	9.306499e+000	-1.525194e+001	-6.048351e+001	-1.525425e+001	-6.038269e+001	-6.459814e-001	9.481858e+000
39.468	-6.483629e-001	9.230723e+000	-1.533451e+001	-6.077903e+001	-1.533647e+001	-6.068246e+001	-6.327910e-001	9.405906e+000
39.965	-6.358003e-001	9.156688e+000	-1.541594e+001	-6.107001e+001	-1.541833e+001	-6.097158e+001	-6.201797e-001	9.332239e+000
40.463	-6.234466e-001	9.082498e+000	-1.549688e+001	-6.135739e+001	-1.549893e+001	-6.125679e+001	-6.078370e-001	9.259410e+000
40.960	-6.113860e-001	9.010169e+000	-1.557782e+001	-6.164272e+001	-1.557983e+001	-6.154310e+001	-5.957614e-001	9.186222e+000
41.458	-5.997740e-001	8.937108e+000	-1.565843e+001	-6.191286e+001	-1.566035e+001	-6.181202e+001	-5.840977e-001	9.113848e+000
41.955	-5.884121e-001	8.865644e+000	-1.573787e+001	-6.218935e+001	-1.573977e+001	-6.208878e+001	-5.726655e-001	9.043060e+000
42.452	-5.773853e-001	8.796203e+000	-1.581663e+001	-6.245103e+001	-1.581854e+001	-6.235035e+001	-5.615885e-001	8.971571e+000
42.950	-5.666914e-001	8.725945e+000	-1.589536e+001	-6.271029e+001	-1.589723e+001	-6.260954e+001	-5.509586e-001	8.902180e+000
43.447	-5.560992e-001	8.657165e+000	-1.597345e+001	-6.296637e+001	-1.597546e+001	-6.286679e+001	-5.404827e-001	8.833549e+000
43.945	-5.459732e-001	8.588372e+000	-1.605124e+001	-6.322124e+001	-1.605311e+001	-6.311812e+001	-5.302998e-001	8.764839e+000
44.442	-5.359642e-001	8.521110e+000	-1.612866e+001	-6.346547e+001	-1.613059e+001	-6.336548e+001	-5.204022e-001	8.697028e+000
44.940	-5.264926e-001	8.454261e+000	-1.620517e+001	-6.370489e+001	-1.620690e+001	-6.360422e+001	-5.107323e-001	8.630003e+000
45.437	-5.169528e-001	8.387361e+000	-1.628174e+001	-6.394729e+001	-1.628346e+001	-6.384548e+001	-5.012196e-001	8.563588e+000
45.935	-5.078064e-001	8.323175e+000	-1.635691e+001	-6.418127e+001	-1.635858e+001	-6.408124e+001	-4.921744e-001	8.498622e+000
46.432	-4.989517e-001	8.257967e+000	-1.643187e+001	-6.440968e+001	-1.643369e+001	-6.430904e+001	-4.831480e-001	8.434322e+000
46.930	-4.901787e-001	8.194692e+000	-1.650589e+001	-6.463528e+001	-1.650810e+001	-6.453572e+001	-4.745901e-001	8.370995e+000
47.427	-4.816289e-001	8.132442e+000	-1.658000e+001	-6.485922e+001	-1.658208e+001	-6.475933e+001	-4.660121e-001	8.308437e+000
47.925	-4.732712e-001	8.070260e+000	-1.665404e+001	-6.508112e+001	-1.665616e+001	-6.498089e+001	-4.576635e-001	8.245051e+000
48.422	-4.652909e-001	8.007927e+000	-1.672745e+001	-6.529007e+001	-1.672903e+001	-6.518958e+001	-4.496970e-001	8.183537e+000
48.920	-4.573565e-001	7.948245e+000	-1.679964e+001	-6.550474e+001	-1.680141e+001	-6.540610e+001	-4.417067e-001	8.123972e+000
49.417	-4.495214e-001	7.887466e+000	-1.687188e+001	-6.571241e+001	-1.687372e+001	-6.561038e+001	-4.340106e-001	8.063426e+000
50.001	-4.458692e-001	7.797537e+000	-1.696633e+001	-6.569677e+001	-1.696842e+001	-6.559886e+001	-4.301661e-001	7.973290e+000
50.688	-4.307632e-001	7.736856e+000	-1.705473e+001	-6.622622e+001	-1.705655e+001	-6.612406e+001	-4.151445e-001	7.912480e+000
51.375	-4.211193e-001	7.656100e+000	-1.715248e+001	-6.649961e+001	-1.715413e+001	-6.639846e+001	-4.054970e-001	7.832981e+000
52.062	-4.118323e-001	7.580092e+000	-1.724793e+001	-6.675998e+001	-1.724939e+001	-6.666166e+001	-3.962568e-001	7.756425e+000
52.749	-4.026249e-001	7.505243e+000	-1.734204e+001	-6.702288e+001	-1.734454e+001	-6.692636e+001	-3.869656e-001	7.680266e+000
53.436	-3.937313e-001	7.427705e+000	-1.743846e+001	-6.728073e+001	-1.744071e+001	-6.717531e+001	-3.782024e-001	7.603230e+000
54.123	-3.856282e-001	7.354851e+000	-1.753141e+001	-6.750416e+001	-1.753305e+001	-6.740746e+001	-3.700554e-001	7.530763e+000
54.810	-3.771342e-001	7.283783e+000	-1.762313e+001	-6.776910e+001	-1.762597e+001	-6.766685e+001	-3.614516e-001	7.458914e+000
55.497	-3.694791e-001	7.209939e+000	-1.771689e+001	-6.798276e+001	-1.771803e+001	-6.788423e+001	-3.539096e-001	7.386553e+000
56.184	-3.614664e-001	7.139400e+000	-1.780842e+001	-6.824004e+001	-1.781078e+001	-6.813318e+001	-3.458082e-001	7.315924e+000
56.871	-3.543703e-001	7.073157e+000	-1.789605e+001	-6.845334e+001	-1.789837e+001	-6.835831e+001	-3.385784e-001	7.249043e+000
57.558	-3.472791e-001	7.002107e+000	-1.798751e+001	-6.866371e+001	-1.798859e+001	-6.856406e+001	-3.315983e-001	7.179805e+000
58.245	-3.399891e-001	6.934495e+000	-1.807835e+001	-6.889153e+001	-1.807919e+001	-6.878380e+001	-3.244300e-001	7.111846e+000
58.932	-3.329501e-001	6.868012e+000	-1.816612e+001	-6.911860e+001	-1.816813e+001	-6.900753e+001	-3.174621e-001	7.045152e+000
59.619	-3.262340e-001	6.804307e+000	-1.825340e+001	-6.932645e+001	-1.825582e+001	-6.921724e+001	-3.108159e-001	6.981204e+000
60.306	-3.200206e-001	6.741786e+000	-1.833925e+001	-6.953032e+001	-1.834175e+001	-6.942030e+001	-3.045083e-001	6.917798e+000
60.993	-3.137182e-001	6.677066e+000	-1.842663e+001	-6.972793e+001	-1.842821e+001	-6.961746e+001	-2.981890e-001	6.854824e+000
61.680	-3.077054e-001	6.615397e+000	-1.851182e+001	-6.991692e+001	-1.851331e+001	-6.980966e+001	-2.923469e-001	6.792342e+000
62.367	-3.021791e-001	6.555966e+000	-1.859497e+001	-7.009559e+001	-1.859563e+001	-6.999526e+001	-2.866584e-001	6.733553e+000
63.054	-2.963969e-001	6.499197e+000	-1.867581e+001	-7.028841e+001	-1.867789e+001	-7.019426e+001	-2.808379e-001	6.675061e+000
