!Agilent Technologies,E5061B,MY49204007,A.02.12
!Date: Wed Jul 23 11:25:52 2025
!Data & Calibration Information:
!Freq	S11:SOLT2(ON)	S21:SOLT2(ON)	S12:SOLT2(ON)	S22:SOLT2(ON)
# Hz S dB R 50
10.000	-1.642861e+000	1.296994e+001	-1.141405e+001	-4.400256e+001	-1.140815e+001	-4.392241e+001	-1.625680e+000	1.318132e+001
10.137	-1.620468e+000	1.293528e+001	-1.146588e+001	-4.432733e+001	-1.145987e+001	-4.425305e+001	-1.602927e+000	1.314572e+001
10.275	-1.598155e+000	1.289867e+001	-1.151778e+001	-4.464851e+001	-1.151201e+001	-4.457688e+001	-1.580813e+000	1.310903e+001
10.412	-1.576349e+000	1.286091e+001	-1.157009e+001	-4.496669e+001	-1.156389e+001	-4.489690e+001	-1.558959e+000	1.307002e+001
10.550	-1.554768e+000	1.282292e+001	-1.162198e+001	-4.528507e+001	-1.161611e+001	-4.521443e+001	-1.537337e+000	1.303103e+001
10.687	-1.533697e+000	1.278362e+001	-1.167396e+001	-4.559959e+001	-1.166810e+001	-4.552846e+001	-1.516158e+000	1.299242e+001
10.824	-1.512906e+000	1.274523e+001	-1.172571e+001	-4.591290e+001	-1.172020e+001	-4.584136e+001	-1.495248e+000	1.295153e+001
10.962	-1.492347e+000	1.270415e+001	-1.177760e+001	-4.621986e+001	-1.177203e+001	-4.614516e+001	-1.474834e+000	1.291093e+001
11.099	-1.472298e+000	1.266405e+001	-1.182892e+001	-4.652531e+001	-1.182373e+001	-4.645349e+001	-1.454565e+000	1.286981e+001
11.237	-1.452405e+000	1.262151e+001	-1.188078e+001	-4.682507e+001	-1.187557e+001	-4.675206e+001	-1.434899e+000	1.282768e+001
11.374	-1.432826e+000	1.257935e+001	-1.193264e+001	-4.712365e+001	-1.192755e+001	-4.704927e+001	-1.415278e+000	1.278414e+001
11.511	-1.413629e+000	1.253676e+001	-1.198419e+001	-4.742014e+001	-1.197937e+001	-4.734414e+001	-1.396014e+000	1.274121e+001
11.649	-1.394659e+000	1.249300e+001	-1.203565e+001	-4.771181e+001	-1.203101e+001	-4.763577e+001	-1.377148e+000	1.269737e+001
11.786	-1.376098e+000	1.244872e+001	-1.208706e+001	-4.800088e+001	-1.208265e+001	-4.792548e+001	-1.358629e+000	1.265270e+001
11.924	-1.357934e+000	1.240517e+001	-1.213836e+001	-4.828614e+001	-1.213403e+001	-4.821337e+001	-1.340295e+000	1.260795e+001
12.061	-1.339811e+000	1.235987e+001	-1.218994e+001	-4.856996e+001	-1.218583e+001	-4.849364e+001	-1.322321e+000	1.256241e+001
12.198	-1.322292e+000	1.231537e+001	-1.224071e+001	-4.885022e+001	-1.223687e+001	-4.877642e+001	-1.304654e+000	1.251700e+001
12.336	-1.304934e+000	1.226864e+001	-1.229226e+001	-4.912618e+001	-1.228824e+001	-4.905042e+001	-1.287247e+000	1.247021e+001
12.473	-1.287755e+000	1.222258e+001	-1.234340e+001	-4.940180e+001	-1.233972e+001	-4.932457e+001	-1.270097e+000	1.242343e+001
12.611	-1.270979e+000	1.217571e+001	-1.239445e+001	-4.967333e+001	-1.239074e+001	-4.959549e+001	-1.253210e+000	1.237638e+001
12.748	-1.254488e+000	1.212892e+001	-1.244563e+001	-4.994116e+001	-1.244179e+001	-4.986316e+001	-1.236668e+000	1.232947e+001
12.885	-1.238240e+000	1.208214e+001	-1.249637e+001	-5.020667e+001	-1.249265e+001	-5.012918e+001	-1.220289e+000	1.228176e+001
13.023	-1.222139e+000	1.203526e+001	-1.254699e+001	-5.047105e+001	-1.254400e+001	-5.039175e+001	-1.204263e+000	1.223473e+001
13.160	-1.206527e+000	1.198747e+001	-1.259804e+001	-5.072730e+001	-1.259455e+001	-5.065023e+001	-1.188703e+000	1.218613e+001
13.298	-1.190915e+000	1.193938e+001	-1.264875e+001	-5.098623e+001	-1.264571e+001	-5.090805e+001	-1.173157e+000	1.213776e+001
13.435	-1.175681e+000	1.189200e+001	-1.269897e+001	-5.123968e+001	-1.269625e+001	-5.116200e+001	-1.157964e+000	1.209009e+001
13.572	-1.160790e+000	1.184370e+001	-1.274934e+001	-5.149082e+001	-1.274671e+001	-5.141346e+001	-1.143042e+000	1.204135e+001
13.733	-1.145132e+000	1.177032e+001	-1.281399e+001	-5.171789e+001	-1.280350e+001	-5.172322e+001	-1.125460e+000	1.199096e+001
13.923	-1.123663e+000	1.172005e+001	-1.287747e+001	-5.212081e+001	-1.287519e+001	-5.204113e+001	-1.106059e+000	1.191785e+001
14.112	-1.104219e+000	1.165247e+001	-1.294658e+001	-5.245105e+001	-1.294444e+001	-5.237144e+001	-1.086659e+000	1.184970e+001
14.302	-1.085195e+000	1.158564e+001	-1.301553e+001	-5.278280e+001	-1.301337e+001	-5.270338e+001	-1.067563e+000	1.178272e+001
14.492	-1.066628e+000	1.151830e+001	-1.308380e+001	-5.310496e+001	-1.308193e+001	-5.302464e+001	-1.049069e+000	1.171532e+001
14.682	-1.048491e+000	1.145095e+001	-1.315232e+001	-5.342254e+001	-1.315047e+001	-5.334255e+001	-1.030939e+000	1.164693e+001
14.872	-1.030777e+000	1.138349e+001	-1.322055e+001	-5.373767e+001	-1.321876e+001	-5.365642e+001	-1.013169e+000	1.157977e+001
15.062	-1.013315e+000	1.131651e+001	-1.328867e+001	-5.404950e+001	-1.328699e+001	-5.396831e+001	-9.958163e-001	1.151124e+001
15.251	-9.963993e-001	1.124900e+001	-1.335642e+001	-5.435017e+001	-1.335493e+001	-5.426953e+001	-9.789116e-001	1.144365e+001
15.441	-9.797240e-001	1.118096e+001	-1.342407e+001	-5.465422e+001	-1.342260e+001	-5.457254e+001	-9.622496e-001	1.137585e+001
15.631	-9.635522e-001	1.111494e+001	-1.349110e+001	-5.494968e+001	-1.348955e+001	-5.486844e+001	-9.460531e-001	1.130926e+001
15.821	-9.476976e-001	1.104843e+001	-1.355802e+001	-5.524117e+001	-1.355665e+001	-5.515946e+001	-9.302493e-001	1.124230e+001
16.011	-9.322785e-001	1.098143e+001	-1.362490e+001	-5.552866e+001	-1.362352e+001	-5.544620e+001	-9.147096e-001	1.117544e+001
16.201	-9.172356e-001	1.091492e+001	-1.369122e+001	-5.580905e+001	-1.368998e+001	-5.572582e+001	-8.996983e-001	1.110853e+001
16.391	-9.022441e-001	1.084956e+001	-1.375725e+001	-5.609053e+001	-1.375622e+001	-5.600825e+001	-8.847923e-001	1.104255e+001
16.580	-8.878346e-001	1.078381e+001	-1.382282e+001	-5.636505e+001	-1.382186e+001	-5.628209e+001	-8.703577e-001	1.097649e+001
16.770	-8.737416e-001	1.071840e+001	-1.388862e+001	-5.663435e+001	-1.388765e+001	-5.655135e+001	-8.562298e-001	1.091086e+001
16.960	-8.598144e-001	1.065208e+001	-1.395373e+001	-5.690207e+001	-1.395293e+001	-5.681725e+001	-8.423258e-001	1.084507e+001
17.150	-8.470264e-001	1.057634e+001	-1.402414e+001	-5.712244e+001	-1.402325e+001	-5.704080e+001	-8.295430e-001	1.076982e+001
17.340	-8.328620e-001	1.052269e+001	-1.408335e+001	-5.742511e+001	-1.408245e+001	-5.734074e+001	-8.155215e-001	1.071573e+001
17.530	-8.199212e-001	1.045892e+001	-1.414750e+001	-5.768146e+001	-1.414673e+001	-5.759612e+001	-8.025430e-001	1.065163e+001
17.720	-8.071479e-001	1.039522e+001	-1.421167e+001	-5.793263e+001	-1.421096e+001	-5.784697e+001	-7.897423e-001	1.058738e+001
17.909	-7.947066e-001	1.033156e+001	-1.427545e+001	-5.818129e+001	-1.427492e+001	-5.809548e+001	-7.773209e-001	1.052330e+001
18.099	-7.825090e-001	1.026866e+001	-1.433895e+001	-5.842684e+001	-1.433835e+001	-5.833938e+001	-7.652084e-001	1.046063e+001
18.289	-7.705535e-001	1.020523e+001	-1.440242e+001	-5.866838e+001	-1.440194e+001	-5.858180e+001	-7.532939e-001	1.039678e+001
18.479	-7.588918e-001	1.014369e+001	-1.446506e+001	-5.890651e+001	-1.446478e+001	-5.881928e+001	-7.416733e-001	1.033513e+001
18.669	-7.475236e-001	1.008117e+001	-1.452768e+001	-5.914037e+001	-1.452758e+001	-5.905260e+001	-7.303329e-001	1.027290e+001
18.859	-7.363361e-001	1.002023e+001	-1.459019e+001	-5.937220e+001	-1.459013e+001	-5.928485e+001	-7.191989e-001	1.021098e+001
19.082	-7.314442e-001	9.900870e+000	-1.468348e+001	-5.931622e+001	-1.468390e+001	-5.923116e+001	-7.141404e-001	1.009069e+001
19.344	-7.088422e-001	9.865274e+000	-1.474899e+001	-5.995401e+001	-1.474884e+001	-5.986635e+001	-6.914935e-001	1.005538e+001
19.606	-6.947349e-001	9.783032e+000	-1.483321e+001	-6.025168e+001	-1.483337e+001	-6.016407e+001	-6.774738e-001	9.972812e+000
19.868	-6.808461e-001	9.701810e+000	-1.491739e+001	-6.055487e+001	-1.491742e+001	-6.046701e+001	-6.635468e-001	9.891157e+000
20.130	-6.674639e-001	9.621095e+000	-1.500051e+001	-6.084339e+001	-1.500058e+001	-6.075535e+001	-6.502512e-001	9.810454e+000
20.392	-6.543867e-001	9.540889e+000	-1.508361e+001	-6.112787e+001	-1.508380e+001	-6.103985e+001	-6.371404e-001	9.730201e+000
20.655	-6.417044e-001	9.461475e+000	-1.516582e+001	-6.141122e+001	-1.516626e+001	-6.132111e+001	-6.244220e-001	9.651385e+000
20.917	-6.292926e-001	9.383881e+000	-1.524783e+001	-6.168957e+001	-1.524803e+001	-6.160048e+001	-6.120042e-001	9.572728e+000
21.179	-6.172197e-001	9.305617e+000	-1.532974e+001	-6.195808e+001	-1.533001e+001	-6.186899e+001	-6.000524e-001	9.495514e+000
21.441	-6.056658e-001	9.230479e+000	-1.540975e+001	-6.222494e+001	-1.541006e+001	-6.213545e+001	-5.884016e-001	9.420232e+000
21.703	-5.942608e-001	9.154268e+000	-1.549012e+001	-6.248329e+001	-1.549058e+001	-6.239302e+001	-5.771144e-001	9.344232e+000
21.965	-5.832212e-001	9.079746e+000	-1.557004e+001	-6.273949e+001	-1.557042e+001	-6.265000e+001	-5.660112e-001	9.268806e+000
22.228	-5.724793e-001	9.005891e+000	-1.564911e+001	-6.299207e+001	-1.564958e+001	-6.290116e+001	-5.552789e-001	9.195438e+000
22.490	-5.620352e-001	8.934067e+000	-1.572747e+001	-6.324014e+001	-1.572793e+001	-6.315067e+001	-5.447959e-001	9.122362e+000
22.752	-5.516553e-001	8.861701e+000	-1.580587e+001	-6.348600e+001	-1.580635e+001	-6.339501e+001	-5.344867e-001	9.050246e+000
23.014	-5.418279e-001	8.791005e+000	-1.588287e+001	-6.372213e+001	-1.588342e+001	-6.363013e+001	-5.246558e-001	8.979431e+000
23.276	-5.321065e-001	8.720210e+000	-1.596022e+001	-6.395596e+001	-1.596078e+001	-6.386431e+001	-5.148676e-001	8.908570e+000
23.538	-5.226895e-001	8.650939e+000	-1.603676e+001	-6.418687e+001	-1.603738e+001	-6.409486e+001	-5.055172e-001	8.839345e+000
23.801	-5.134454e-001	8.582863e+000	-1.611250e+001	-6.441294e+001	-1.611316e+001	-6.432144e+001	-4.963175e-001	8.771362e+000
24.063	-5.045584e-001	8.515815e+000	-1.618769e+001	-6.463478e+001	-1.618829e+001	-6.454437e+001	-4.873641e-001	8.703398e+000
24.325	-4.956755e-001	8.449097e+000	-1.626262e+001	-6.485728e+001	-1.626332e+001	-6.476559e+001	-4.786239e-001	8.637078e+000
24.587	-4.872831e-001	8.383272e+000	-1.633692e+001	-6.507041e+001	-1.633760e+001	-6.497823e+001	-4.702065e-001	8.570715e+000
24.849	-4.789111e-001	8.317590e+000	-1.641097e+001	-6.528236e+001	-1.641189e+001	-6.519076e+001	-4.618265e-001	8.505793e+000
25.111	-4.708023e-001	8.253504e+000	-1.648418e+001	-6.549029e+001	-1.648487e+001	-6.539703e+001	-4.537057e-001	8.441496e+000
25.374	-4.629498e-001	8.190598e+000	-1.655697e+001	-6.569521e+001	-1.655788e+001	-6.560160e+001	-4.459371e-001	8.378341e+000
25.636	-4.553288e-001	8.127914e+000	-1.662942e+001	-6.589572e+001	-1.663027e+001	-6.580340e+001	-4.382524e-001	8.315117e+000
25.898	-4.476448e-001	8.066535e+000	-1.670109e+001	-6.609359e+001	-1.670194e+001	-6.600096e+001	-4.306946e-001	8.253800e+000
26.204	-4.376801e-001	7.999733e+000	-1.678328e+001	-6.638561e+001	-1.678364e+001	-6.629767e+001	-4.206549e-001	8.186969e+000
26.564	-4.295116e-001	7.912993e+000	-1.688175e+001	-6.658451e+001	-1.688290e+001	-6.649017e+001	-4.126050e-001	8.100230e+000
26.924	-4.200345e-001	7.831492e+000	-1.697877e+001	-6.684353e+001	-1.697984e+001	-6.674993e+001	-4.030972e-001	8.018694e+000
27.284	-4.110268e-001	7.751557e+000	-1.707407e+001	-6.708665e+001	-1.707517e+001	-6.699132e+001	-3.941385e-001	7.938732e+000
27.644	-4.020917e-001	7.674025e+000	-1.716813e+001	-6.733767e+001	-1.716935e+001	-6.724350e+001	-3.851763e-001	7.860960e+000
28.004	-3.936742e-001	7.596531e+000	-1.726173e+001	-6.757055e+001	-1.726315e+001	-6.747615e+001	-3.767143e-001	7.783379e+000
28.364	-3.853352e-001	7.520381e+000	-1.735543e+001	-6.780716e+001	-1.735665e+001	-6.771165e+001	-3.684551e-001	7.707025e+000
28.724	-3.772920e-001	7.446040e+000	-1.744724e+001	-6.803864e+001	-1.744875e+001	-6.794302e+001	-3.604159e-001	7.632480e+000
29.084	-3.695248e-001	7.373619e+000	-1.753847e+001	-6.826493e+001	-1.753986e+001	-6.816741e+001	-3.526709e-001	7.560076e+000
29.444	-3.622024e-001	7.302607e+000	-1.762864e+001	-6.848065e+001	-1.763020e+001	-6.838343e+001	-3.452189e-001	7.489165e+000
29.804	-3.550271e-001	7.232606e+000	-1.771773e+001	-6.869738e+001	-1.771917e+001	-6.859939e+001	-3.380315e-001	7.419138e+000
30.164	-3.478030e-001	7.162547e+000	-1.780718e+001	-6.891244e+001	-1.780874e+001	-6.881288e+001	-3.308582e-001	7.348924e+000
30.524	-3.410305e-001	7.094931e+000	-1.789408e+001	-6.911603e+001	-1.789586e+001	-6.901975e+001	-3.240742e-001	7.280798e+000
30.884	-3.343960e-001	7.027037e+000	-1.798206e+001	-6.931583e+001	-1.798354e+001	-6.921913e+001	-3.172873e-001	7.213324e+000
31.244	-3.278519e-001	6.961144e+000	-1.806869e+001	-6.951551e+001	-1.807028e+001	-6.941939e+001	-3.108258e-001	7.147276e+000
31.605	-3.215187e-001	6.896170e+000	-1.815451e+001	-6.971119e+001	-1.815600e+001	-6.961196e+001	-3.045324e-001	7.082409e+000
31.965	-3.154092e-001	6.831791e+000	-1.823913e+001	-6.990138e+001	-1.824066e+001	-6.980229e+001	-2.985002e-001	7.018395e+000
32.325	-3.095281e-001	6.770149e+000	-1.832271e+001	-7.009004e+001	-1.832460e+001	-6.999320e+001	-2.925467e-001	6.956183e+000
32.685	-3.036463e-001	6.707895e+000	-1.840691e+001	-7.027519e+001	-1.840861e+001	-7.017694e+001	-2.868006e-001	6.894809e+000
33.045	-2.981535e-001	6.647150e+000	-1.848930e+001	-7.045167e+001	-1.849062e+001	-7.035626e+001	-2.812139e-001	6.833479e+000
33.405	-2.926779e-001	6.587346e+000	-1.857197e+001	-7.062976e+001	-1.857365e+001	-7.052899e+001	-2.758800e-001	6.773257e+000
33.765	-2.873354e-001	6.528365e+000	-1.865339e+001	-7.080463e+001	-1.865529e+001	-7.070703e+001	-2.705388e-001	6.715130e+000
34.125	-2.822578e-001	6.470515e+000	-1.873412e+001	-7.097447e+001	-1.873567e+001	-7.087600e+001	-2.653744e-001	6.656885e+000
34.485	-2.772129e-001	6.414631e+000	-1.881403e+001	-7.114225e+001	-1.881577e+001	-7.104221e+001	-2.604069e-001	6.599893e+000
34.845	-2.724389e-001	6.359142e+000	-1.889311e+001	-7.130503e+001	-1.889533e+001	-7.120363e+001	-2.554946e-001	6.543886e+000
35.205	-2.674719e-001	6.303900e+000	-1.897161e+001	-7.146606e+001	-1.897379e+001	-7.136817e+001	-2.507442e-001	6.489997e+000
35.565	-2.630751e-001	6.249936e+000	-1.905031e+001	-7.162210e+001	-1.905237e+001	-7.152648e+001	-2.461449e-001	6.434822e+000
35.985	-2.526928e-001	6.199823e+000	-1.913258e+001	-7.211146e+001	-1.913402e+001	-7.200900e+001	-2.359901e-001	6.386670e+000
36.483	-2.517576e-001	6.115545e+000	-1.924613e+001	-7.201267e+001	-1.924832e+001	-7.191762e+001	-2.349841e-001	6.301438e+000
36.980	-2.458672e-001	6.044897e+000	-1.935099e+001	-7.222415e+001	-1.935415e+001	-7.212402e+001	-2.291445e-001	6.229735e+000
37.478	-2.403660e-001	5.975885e+000	-1.945463e+001	-7.241719e+001	-1.945705e+001	-7.231498e+001	-2.237552e-001	6.161582e+000
37.975	-2.350265e-001	5.908426e+000	-1.955744e+001	-7.261716e+001	-1.955914e+001	-7.251922e+001	-2.182484e-001	6.094466e+000
38.473	-2.298303e-001	5.842536e+000	-1.965798e+001	-7.279965e+001	-1.966053e+001	-7.270309e+001	-2.132333e-001	6.028395e+000
38.970	-2.246803e-001	5.777653e+000	-1.975925e+001	-7.298693e+001	-1.976131e+001	-7.288586e+001	-2.081831e-001	5.962945e+000
39.468	-2.198951e-001	5.714052e+000	-1.985837e+001	-7.316956e+001	-1.986114e+001	-7.307159e+001	-2.033329e-001	5.899573e+000
39.965	-2.152414e-001	5.651572e+000	-1.995657e+001	-7.334742e+001	-1.995914e+001	-7.324501e+001	-1.986537e-001	5.837564e+000
40.463	-2.107585e-001	5.590726e+000	-2.005324e+001	-7.352038e+001	-2.005528e+001	-7.341981e+001	-1.941814e-001	5.776897e+000
40.960	-2.063117e-001	5.531363e+000	-2.014982e+001	-7.369199e+001	-2.015219e+001	-7.359647e+001	-1.895979e-001	5.716706e+000
41.458	-2.021333e-001	5.472196e+000	-2.024537e+001	-7.385431e+001	-2.024697e+001	-7.375498e+001	-1.856002e-001	5.658793e+000
41.955	-1.980768e-001	5.414918e+000	-2.033885e+001	-7.402487e+001	-2.034160e+001	-7.392192e+001	-1.813540e-001	5.600877e+000
42.452	-1.940995e-001	5.359198e+000	-2.043116e+001	-7.417694e+001	-2.043444e+001	-7.408144e+001	-1.774641e-001	5.545187e+000
42.950	-1.902301e-001	5.303622e+000	-2.052346e+001	-7.433736e+001	-2.052642e+001	-7.423482e+001	-1.735578e-001	5.490294e+000
43.447	-1.865085e-001	5.249678e+000	-2.061504e+001	-7.448976e+001	-2.061790e+001	-7.438683e+001	-1.698387e-001	5.436253e+000
43.945	-1.828853e-001	5.196883e+000	-2.070574e+001	-7.463557e+001	-2.070884e+001	-7.453530e+001	-1.662538e-001	5.383409e+000
44.442	-1.795079e-001	5.144381e+000	-2.079552e+001	-7.477830e+001	-2.079874e+001	-7.467579e+001	-1.627147e-001	5.331034e+000
44.940	-1.760557e-001	5.094012e+000	-2.088399e+001	-7.492526e+001	-2.088709e+001	-7.481981e+001	-1.593518e-001	5.280395e+000
45.437	-1.728195e-001	5.043582e+000	-2.097224e+001	-7.506230e+001	-2.097605e+001	-7.495800e+001	-1.561927e-001	5.230281e+000
45.935	-1.694300e-001	4.994826e+000	-2.105951e+001	-7.520162e+001	-2.106314e+001	-7.509949e+001	-1.529092e-001	5.180451e+000
46.432	-1.663555e-001	4.946712e+000	-2.114574e+001	-7.533639e+001	-2.114910e+001	-7.523271e+001	-1.498258e-001	5.132569e+000
46.930	-1.633917e-001	4.900116e+000	-2.123122e+001	-7.546556e+001	-2.123410e+001	-7.536290e+001	-1.468036e-001	5.085545e+000
47.427	-1.604739e-001	4.853730e+000	-2.131540e+001	-7.559158e+001	-2.131854e+001	-7.549356e+001	-1.439683e-001	5.039363e+000
47.925	-1.576055e-001	4.808385e+000	-2.139874e+001	-7.571817e+001	-2.140292e+001	-7.562137e+001	-1.410012e-001	4.993003e+000
48.422	-1.546499e-001	4.763143e+000	-2.148237e+001	-7.584795e+001	-2.148623e+001	-7.574049e+001	-1.382489e-001	4.948424e+000
48.920	-1.521640e-001	4.719642e+000	-2.156437e+001	-7.596038e+001	-2.156802e+001	-7.586257e+001	-1.355020e-001	4.904883e+000
49.417	-1.493003e-001	4.676315e+000	-2.164630e+001	-7.608972e+001	-2.165051e+001	-7.598483e+001	-1.327714e-001	4.861469e+000
50.001	-1.547505e-001	4.612367e+000	-2.174938e+001	-7.554258e+001	-2.175199e+001	-7.562794e+001	-1.359245e-001	4.801028e+000
50.688	-1.428489e-001	4.570001e+000	-2.185035e+001	-7.638170e+001	-2.185582e+001	-7.628283e+001	-1.264476e-001	4.754810e+000
51.375	-1.395234e-001	4.513626e+000	-2.196019e+001	-7.654287e+001	-2.196600e+001	-7.643783e+001	-1.229330e-001	4.698166e+000
52.062	-1.363749e-001	4.458828e+000	-2.206932e+001	-7.669179e+001	-2.207341e+001	-7.657766e+001	-1.199779e-001	4.644112e+000
52.749	-1.334403e-001	4.404962e+000	-2.217565e+001	-7.682421e+001	-2.217748e+001	-7.672290e+001	-1.170692e-001	4.590696e+000
53.436	-1.305167e-001	4.353991e+000	-2.227838e+001	-7.697329e+001	-2.228397e+001	-7.688467e+001	-1.138099e-001	4.538697e+000
54.123	-1.275707e-001	4.301587e+000	-2.238554e+001	-7.711548e+001	-2.238982e+001	-7.699302e+001	-1.112667e-001	4.486635e+000
54.810	-1.250820e-001	4.254345e+000	-2.248471e+001	-7.723369e+001	-2.248830e+001	-7.715205e+001	-1.084186e-001	4.439735e+000
55.497	-1.220004e-001	4.203442e+000	-2.259067e+001	-7.738577e+001	-2.259503e+001	-7.725943e+001	-1.059302e-001	4.388036e+000
56.184	-1.196398e-001	4.157487e+000	-2.268545e+001	-7.751022e+001	-2.269239e+001	-7.742559e+001	-1.029338e-001	4.342674e+000
56.871	-1.175368e-001	4.110053e+000	-2.278918e+001	-7.761444e+001	-2.278954e+001	-7.751464e+001	-1.009776e-001	4.297482e+000
57.558	-1.148281e-001	4.063782e+000	-2.288840e+001	-7.776787e+001	-2.289286e+001	-7.763715e+001	-9.855106e-002	4.249399e+000
58.245	-1.124066e-001	4.021419e+000	-2.298198e+001	-7.789626e+001	-2.299048e+001	-7.778443e+001	-9.602143e-002	4.204930e+000
58.932	-1.103675e-001	3.976859e+000	-2.307613e+001	-7.800512e+001	-2.308443e+001	-7.791710e+001	-9.363647e-002	4.161682e+000
59.619	-1.081696e-001	3.935340e+000	-2.317176e+001	-7.810661e+001	-2.317875e+001	-7.802906e+001	-9.154301e-002	4.120200e+000
60.306	-1.061714e-001	3.893122e+000	-2.326490e+001	-7.821692e+001	-2.327174e+001	-7.813930e+001	-8.944880e-002	4.079031e+000
60.993	-1.040936e-001	3.851968e+000	-2.335942e+001	-7.834001e+001	-2.336713e+001	-7.825159e+001	-8.746508e-002	4.036677e+000
61.680	-1.018359e-001	3.811937e+000	-2.345255e+001	-7.846099e+001	-2.346147e+001	-7.835380e+001	-8.555620e-002	3.995149e+000
62.367	-1.000036e-001	3.770226e+000	-2.354756e+001	-7.856435e+001	-2.355306e+001	-7.843107e+001	-8.392342e-002	3.955903e+000
63.054	-9.855436e-002	3.732974e+000	-2.363793e+001	-7.863111e+001	-2.363809e+001	-7.852520e+001	-8.224575e-002	3.919573e+000
