!Agilent Technologies,E5061B,MY49204007,A.02.12
!Date: Wed Jul 23 11:28:11 2025
!Data & Calibration Information:
!Freq	S11:SOLT2(ON)	S21:SOLT2(ON)	S12:SOLT2(ON)	S22:SOLT2(ON)
# Hz S dB R 50
10.000	-1.346222e+000	1.300508e+001	-1.188417e+001	-4.950048e+001	-1.187618e+001	-4.943908e+001	-1.328107e+000	1.322244e+001
10.137	-1.324360e+000	1.294325e+001	-1.194705e+001	-4.983374e+001	-1.193989e+001	-4.977685e+001	-1.306181e+000	1.315742e+001
10.275	-1.302880e+000	1.287794e+001	-1.201029e+001	-5.016080e+001	-1.200343e+001	-5.010422e+001	-1.284752e+000	1.309127e+001
10.412	-1.281905e+000	1.281279e+001	-1.207392e+001	-5.048467e+001	-1.206705e+001	-5.042636e+001	-1.263738e+000	1.302393e+001
10.550	-1.261234e+000	1.274717e+001	-1.213697e+001	-5.080590e+001	-1.213059e+001	-5.074588e+001	-1.243238e+000	1.295771e+001
10.687	-1.241243e+000	1.268177e+001	-1.219988e+001	-5.112277e+001	-1.219388e+001	-5.106104e+001	-1.223035e+000	1.289105e+001
10.824	-1.221452e+000	1.261674e+001	-1.226241e+001	-5.143799e+001	-1.225701e+001	-5.137445e+001	-1.203283e+000	1.282467e+001
10.962	-1.202021e+000	1.255014e+001	-1.232535e+001	-5.174352e+001	-1.231993e+001	-5.167654e+001	-1.184080e+000	1.275732e+001
11.099	-1.183273e+000	1.248586e+001	-1.238710e+001	-5.204809e+001	-1.238219e+001	-5.198324e+001	-1.165053e+000	1.269176e+001
11.237	-1.164756e+000	1.241873e+001	-1.244954e+001	-5.234400e+001	-1.244463e+001	-5.227795e+001	-1.146729e+000	1.262504e+001
11.374	-1.146492e+000	1.235308e+001	-1.251173e+001	-5.264119e+001	-1.250725e+001	-5.257116e+001	-1.128486e+000	1.255743e+001
11.511	-1.128689e+000	1.228694e+001	-1.257348e+001	-5.293397e+001	-1.256927e+001	-5.286275e+001	-1.110693e+000	1.249069e+001
11.649	-1.111288e+000	1.222163e+001	-1.263498e+001	-5.322093e+001	-1.263109e+001	-5.314881e+001	-1.093413e+000	1.242409e+001
11.786	-1.094312e+000	1.215560e+001	-1.269645e+001	-5.350338e+001	-1.269263e+001	-5.343179e+001	-1.076424e+000	1.235797e+001
11.924	-1.077673e+000	1.209075e+001	-1.275727e+001	-5.378388e+001	-1.275362e+001	-5.371269e+001	-1.059683e+000	1.229212e+001
12.061	-1.061194e+000	1.202415e+001	-1.281859e+001	-5.406145e+001	-1.281538e+001	-5.398642e+001	-1.043381e+000	1.222497e+001
12.198	-1.045359e+000	1.195935e+001	-1.287890e+001	-5.433362e+001	-1.287581e+001	-5.426118e+001	-1.027267e+000	1.215924e+001
12.336	-1.029724e+000	1.189256e+001	-1.293999e+001	-5.460028e+001	-1.293669e+001	-5.452703e+001	-1.011633e+000	1.209263e+001
12.473	-1.014243e+000	1.182702e+001	-1.300056e+001	-5.486599e+001	-1.299739e+001	-5.479098e+001	-9.962441e-001	1.202680e+001
12.611	-9.992071e-001	1.176217e+001	-1.306078e+001	-5.512857e+001	-1.305775e+001	-5.505213e+001	-9.812120e-001	1.196117e+001
12.748	-9.845773e-001	1.169744e+001	-1.312068e+001	-5.538668e+001	-1.311778e+001	-5.530995e+001	-9.664544e-001	1.189634e+001
12.885	-9.701584e-001	1.163283e+001	-1.318029e+001	-5.564207e+001	-1.317754e+001	-5.556583e+001	-9.520198e-001	1.183117e+001
13.023	-9.558296e-001	1.156862e+001	-1.323984e+001	-5.589591e+001	-1.323753e+001	-5.581763e+001	-9.378001e-001	1.176628e+001
13.160	-9.420931e-001	1.150450e+001	-1.329931e+001	-5.614146e+001	-1.329674e+001	-5.606241e+001	-9.240754e-001	1.170163e+001
13.298	-9.283383e-001	1.144076e+001	-1.335827e+001	-5.638990e+001	-1.335649e+001	-5.630910e+001	-9.104312e-001	1.163708e+001
13.435	-9.149741e-001	1.137800e+001	-1.341676e+001	-5.663204e+001	-1.341516e+001	-5.655157e+001	-8.970219e-001	1.157363e+001
13.572	-9.019546e-001	1.131481e+001	-1.347537e+001	-5.686952e+001	-1.347398e+001	-5.678938e+001	-8.841475e-001	1.151042e+001
13.733	-8.892513e-001	1.122454e+001	-1.354957e+001	-5.706031e+001	-1.353978e+001	-5.709283e+001	-8.684632e-001	1.144273e+001
13.923	-8.697245e-001	1.115490e+001	-1.362372e+001	-5.746690e+001	-1.362283e+001	-5.738414e+001	-8.520188e-001	1.134969e+001
14.112	-8.530031e-001	1.106825e+001	-1.370378e+001	-5.777750e+001	-1.370299e+001	-5.769338e+001	-8.354199e-001	1.126287e+001
14.302	-8.365217e-001	1.098367e+001	-1.378295e+001	-5.809023e+001	-1.378234e+001	-5.800627e+001	-8.190377e-001	1.117770e+001
14.492	-8.207593e-001	1.090011e+001	-1.386153e+001	-5.839037e+001	-1.386094e+001	-5.830566e+001	-8.033044e-001	1.109372e+001
14.682	-8.052647e-001	1.081617e+001	-1.394004e+001	-5.868770e+001	-1.393965e+001	-5.860252e+001	-7.878007e-001	1.100945e+001
14.872	-7.902105e-001	1.073308e+001	-1.401813e+001	-5.898111e+001	-1.401798e+001	-5.889487e+001	-7.728332e-001	1.092641e+001
15.062	-7.754414e-001	1.065081e+001	-1.409600e+001	-5.927135e+001	-1.409581e+001	-5.918593e+001	-7.581381e-001	1.084316e+001
15.251	-7.611962e-001	1.056901e+001	-1.417320e+001	-5.954938e+001	-1.417314e+001	-5.946284e+001	-7.438689e-001	1.076199e+001
15.441	-7.473163e-001	1.048825e+001	-1.425010e+001	-5.983219e+001	-1.425015e+001	-5.974477e+001	-7.298606e-001	1.068076e+001
15.631	-7.337588e-001	1.040912e+001	-1.432606e+001	-6.010494e+001	-1.432605e+001	-6.001737e+001	-7.163436e-001	1.060096e+001
15.821	-7.205151e-001	1.032998e+001	-1.440191e+001	-6.037306e+001	-1.440194e+001	-6.028514e+001	-7.031474e-001	1.052185e+001
16.011	-7.076103e-001	1.025182e+001	-1.447723e+001	-6.063640e+001	-1.447765e+001	-6.054865e+001	-6.903149e-001	1.044277e+001
16.201	-6.951506e-001	1.017394e+001	-1.455212e+001	-6.089352e+001	-1.455251e+001	-6.080433e+001	-6.778545e-001	1.036556e+001
16.391	-6.828820e-001	1.009755e+001	-1.462659e+001	-6.115275e+001	-1.462692e+001	-6.106381e+001	-6.655612e-001	1.028856e+001
16.580	-6.709867e-001	1.002197e+001	-1.470024e+001	-6.140227e+001	-1.470070e+001	-6.131215e+001	-6.536850e-001	1.021320e+001
16.770	-6.593821e-001	9.946908e+000	-1.477378e+001	-6.164738e+001	-1.477431e+001	-6.155726e+001	-6.421319e-001	1.013774e+001
16.960	-6.479843e-001	9.872402e+000	-1.484677e+001	-6.189053e+001	-1.484737e+001	-6.179900e+001	-6.308125e-001	1.006327e+001
17.150	-6.378437e-001	9.791340e+000	-1.492332e+001	-6.208915e+001	-1.492397e+001	-6.200061e+001	-6.204935e-001	9.982732e+000
17.340	-6.260980e-001	9.725957e+000	-1.499141e+001	-6.236579e+001	-1.499207e+001	-6.227400e+001	-6.088604e-001	9.916641e+000
17.530	-6.156418e-001	9.654920e+000	-1.506282e+001	-6.259679e+001	-1.506356e+001	-6.250306e+001	-5.984037e-001	9.845544e+000
17.720	-6.053346e-001	9.583745e+000	-1.513405e+001	-6.282291e+001	-1.513501e+001	-6.272963e+001	-5.881591e-001	9.773939e+000
17.909	-5.952935e-001	9.512607e+000	-1.520508e+001	-6.304744e+001	-1.520590e+001	-6.295262e+001	-5.780946e-001	9.703633e+000
18.099	-5.855515e-001	9.443444e+000	-1.527543e+001	-6.326869e+001	-1.527637e+001	-6.317254e+001	-5.683714e-001	9.633480e+000
18.289	-5.759747e-001	9.374095e+000	-1.534562e+001	-6.348630e+001	-1.534660e+001	-6.338978e+001	-5.587695e-001	9.563869e+000
18.479	-5.665981e-001	9.306641e+000	-1.541490e+001	-6.369904e+001	-1.541583e+001	-6.360354e+001	-5.495201e-001	9.496011e+000
18.669	-5.575363e-001	9.239278e+000	-1.548414e+001	-6.390773e+001	-1.548515e+001	-6.381153e+001	-5.403901e-001	9.428630e+000
18.859	-5.486279e-001	9.172570e+000	-1.555294e+001	-6.411523e+001	-1.555398e+001	-6.401817e+001	-5.314065e-001	9.362347e+000
19.082	-5.473207e-001	9.056718e+000	-1.565124e+001	-6.397556e+001	-1.565294e+001	-6.388429e+001	-5.300142e-001	9.245476e+000
19.344	-5.269029e-001	9.006343e+000	-1.572745e+001	-6.463500e+001	-1.572846e+001	-6.453833e+001	-5.096018e-001	9.195051e+000
19.606	-5.156825e-001	8.918175e+000	-1.581981e+001	-6.489758e+001	-1.582099e+001	-6.480082e+001	-4.984962e-001	9.106599e+000
19.868	-5.047268e-001	8.832409e+000	-1.591149e+001	-6.516766e+001	-1.591289e+001	-6.506991e+001	-4.875550e-001	9.020407e+000
20.130	-4.942699e-001	8.747064e+000	-1.600244e+001	-6.542220e+001	-1.600363e+001	-6.532396e+001	-4.770938e-001	8.935799e+000
20.392	-4.840694e-001	8.662881e+000	-1.609306e+001	-6.567379e+001	-1.609435e+001	-6.557372e+001	-4.668706e-001	8.851359e+000
20.655	-4.741076e-001	8.580511e+000	-1.618256e+001	-6.592135e+001	-1.618389e+001	-6.582256e+001	-4.569751e-001	8.769030e+000
20.917	-4.644643e-001	8.499260e+000	-1.627151e+001	-6.616699e+001	-1.627290e+001	-6.606764e+001	-4.472634e-001	8.687897e+000
21.179	-4.550879e-001	8.418422e+000	-1.636040e+001	-6.640253e+001	-1.636178e+001	-6.630421e+001	-4.380132e-001	8.606723e+000
21.441	-4.460731e-001	8.340440e+000	-1.644704e+001	-6.663870e+001	-1.644833e+001	-6.653795e+001	-4.289226e-001	8.529529e+000
21.703	-4.372275e-001	8.262152e+000	-1.653387e+001	-6.686209e+001	-1.653536e+001	-6.676166e+001	-4.202474e-001	8.451032e+000
21.965	-4.287492e-001	8.185965e+000	-1.662018e+001	-6.708634e+001	-1.662172e+001	-6.698635e+001	-4.117365e-001	8.374746e+000
22.228	-4.204970e-001	8.111346e+000	-1.670520e+001	-6.730603e+001	-1.670687e+001	-6.720581e+001	-4.035105e-001	8.299286e+000
22.490	-4.124729e-001	8.038015e+000	-1.678940e+001	-6.752186e+001	-1.679113e+001	-6.742272e+001	-3.954339e-001	8.225700e+000
22.752	-4.045187e-001	7.964748e+000	-1.687399e+001	-6.773680e+001	-1.687552e+001	-6.763703e+001	-3.875661e-001	8.152762e+000
23.014	-3.970291e-001	7.893638e+000	-1.695671e+001	-6.794094e+001	-1.695826e+001	-6.783953e+001	-3.800520e-001	8.081470e+000
23.276	-3.896188e-001	7.822351e+000	-1.703952e+001	-6.814395e+001	-1.704132e+001	-6.804274e+001	-3.726137e-001	8.010465e+000
23.538	-3.824073e-001	7.753206e+000	-1.712156e+001	-6.834470e+001	-1.712327e+001	-6.824372e+001	-3.654313e-001	7.941164e+000
23.801	-3.754257e-001	7.684679e+000	-1.720259e+001	-6.853985e+001	-1.720446e+001	-6.843866e+001	-3.585027e-001	7.873494e+000
24.063	-3.686803e-001	7.618781e+000	-1.728284e+001	-6.873137e+001	-1.728474e+001	-6.863017e+001	-3.517208e-001	7.806193e+000
24.325	-3.619473e-001	7.552529e+000	-1.736275e+001	-6.892452e+001	-1.736456e+001	-6.882246e+001	-3.450571e-001	7.740421e+000
24.587	-3.556129e-001	7.487442e+000	-1.744204e+001	-6.910562e+001	-1.744388e+001	-6.900409e+001	-3.387576e-001	7.675321e+000
24.849	-3.493745e-001	7.422738e+000	-1.752097e+001	-6.928968e+001	-1.752274e+001	-6.918661e+001	-3.323196e-001	7.610938e+000
25.111	-3.431768e-001	7.359853e+000	-1.759875e+001	-6.946889e+001	-1.760041e+001	-6.936544e+001	-3.262693e-001	7.547551e+000
25.374	-3.372795e-001	7.297538e+000	-1.767595e+001	-6.964442e+001	-1.767783e+001	-6.954159e+001	-3.203012e-001	7.485206e+000
25.636	-3.314581e-001	7.236559e+000	-1.775269e+001	-6.981577e+001	-1.775451e+001	-6.971297e+001	-3.146248e-001	7.424040e+000
25.898	-3.258192e-001	7.176625e+000	-1.782853e+001	-6.998575e+001	-1.783057e+001	-6.988278e+001	-3.090530e-001	7.364253e+000
26.204	-3.166049e-001	7.113809e+000	-1.791384e+001	-7.032500e+001	-1.791542e+001	-7.022803e+001	-2.996334e-001	7.302756e+000
26.564	-3.122481e-001	7.027073e+000	-1.801999e+001	-7.040462e+001	-1.802191e+001	-7.029982e+001	-2.953430e-001	7.214941e+000
26.924	-3.050936e-001	6.948679e+000	-1.812236e+001	-7.062683e+001	-1.812421e+001	-7.052444e+001	-2.882110e-001	7.135630e+000
27.284	-2.983980e-001	6.871898e+000	-1.822281e+001	-7.083212e+001	-1.822528e+001	-7.072718e+001	-2.816156e-001	7.059072e+000
27.644	-2.917651e-001	6.797285e+000	-1.832211e+001	-7.104657e+001	-1.832420e+001	-7.094517e+001	-2.748899e-001	6.983680e+000
28.004	-2.854946e-001	6.723331e+000	-1.842076e+001	-7.124325e+001	-1.842285e+001	-7.114040e+001	-2.686955e-001	6.909915e+000
28.364	-2.792774e-001	6.650662e+000	-1.851915e+001	-7.144490e+001	-1.852141e+001	-7.134346e+001	-2.624910e-001	6.837224e+000
28.724	-2.734526e-001	6.579653e+000	-1.861561e+001	-7.164246e+001	-1.861785e+001	-7.153769e+001	-2.566247e-001	6.766499e+000
29.084	-2.676064e-001	6.510319e+000	-1.871103e+001	-7.183132e+001	-1.871365e+001	-7.172819e+001	-2.507850e-001	6.697734e+000
29.444	-2.621060e-001	6.443163e+000	-1.880536e+001	-7.201432e+001	-1.880807e+001	-7.190819e+001	-2.453590e-001	6.630286e+000
29.804	-2.568491e-001	6.377002e+000	-1.889855e+001	-7.219842e+001	-1.890080e+001	-7.209198e+001	-2.399600e-001	6.564401e+000
30.164	-2.514096e-001	6.311479e+000	-1.899184e+001	-7.238000e+001	-1.899450e+001	-7.227345e+001	-2.347203e-001	6.498277e+000
30.524	-2.466802e-001	6.247512e+000	-1.908324e+001	-7.255271e+001	-1.908561e+001	-7.244512e+001	-2.297484e-001	6.434501e+000
30.884	-2.417114e-001	6.183238e+000	-1.917491e+001	-7.271973e+001	-1.917727e+001	-7.261444e+001	-2.247922e-001	6.370768e+000
31.244	-2.369036e-001	6.121485e+000	-1.926537e+001	-7.288986e+001	-1.926751e+001	-7.278146e+001	-2.201079e-001	6.308381e+000
31.605	-2.323089e-001	6.060421e+000	-1.935471e+001	-7.305120e+001	-1.935706e+001	-7.294631e+001	-2.154868e-001	6.247988e+000
31.965	-2.278672e-001	6.000692e+000	-1.944279e+001	-7.321145e+001	-1.944512e+001	-7.310541e+001	-2.109544e-001	6.188553e+000
32.325	-2.234924e-001	5.943028e+000	-1.952971e+001	-7.337214e+001	-1.953215e+001	-7.326610e+001	-2.066531e-001	6.130427e+000
32.685	-2.191267e-001	5.885379e+000	-1.961726e+001	-7.352666e+001	-1.961983e+001	-7.342006e+001	-2.024877e-001	6.072420e+000
33.045	-2.152551e-001	5.828929e+000	-1.970272e+001	-7.367512e+001	-1.970524e+001	-7.356878e+001	-1.982916e-001	6.016170e+000
33.405	-2.111798e-001	5.773319e+000	-1.978868e+001	-7.382298e+001	-1.979086e+001	-7.371385e+001	-1.944582e-001	5.960910e+000
33.765	-2.072559e-001	5.719375e+000	-1.987255e+001	-7.396951e+001	-1.987591e+001	-7.386294e+001	-1.904306e-001	5.906360e+000
34.125	-2.035186e-001	5.665758e+000	-1.995648e+001	-7.411164e+001	-1.995918e+001	-7.400548e+001	-1.867125e-001	5.853358e+000
34.485	-1.998975e-001	5.613202e+000	-2.003973e+001	-7.425204e+001	-2.004176e+001	-7.414070e+001	-1.831636e-001	5.800530e+000
34.845	-1.963720e-001	5.562032e+000	-2.012147e+001	-7.438702e+001	-2.012339e+001	-7.428080e+001	-1.796528e-001	5.749101e+000
35.205	-1.928949e-001	5.512216e+000	-2.020244e+001	-7.452329e+001	-2.020530e+001	-7.441576e+001	-1.762044e-001	5.698343e+000
35.565	-1.896446e-001	5.462462e+000	-2.028199e+001	-7.465418e+001	-2.028592e+001	-7.455075e+001	-1.727417e-001	5.649512e+000
35.985	-1.902936e-001	5.394868e+000	-2.038288e+001	-7.448441e+001	-2.038401e+001	-7.449451e+001	-1.720190e-001	5.585672e+000
36.483	-1.814016e-001	5.339198e+000	-2.048505e+001	-7.498246e+001	-2.048845e+001	-7.488014e+001	-1.647284e-001	5.526245e+000
36.980	-1.772116e-001	5.274456e+000	-2.059328e+001	-7.515060e+001	-2.059702e+001	-7.504949e+001	-1.605712e-001	5.461307e+000
37.478	-1.732629e-001	5.211479e+000	-2.070003e+001	-7.531191e+001	-2.070371e+001	-7.520661e+001	-1.566683e-001	5.398513e+000
37.975	-1.692590e-001	5.149757e+000	-2.080591e+001	-7.548259e+001	-2.080894e+001	-7.537211e+001	-1.528027e-001	5.337247e+000
38.473	-1.656353e-001	5.090057e+000	-2.090972e+001	-7.563061e+001	-2.091320e+001	-7.552489e+001	-1.492250e-001	5.277689e+000
38.970	-1.619935e-001	5.030897e+000	-2.101349e+001	-7.578671e+001	-2.101732e+001	-7.567862e+001	-1.455387e-001	5.217887e+000
39.468	-1.586041e-001	4.973246e+000	-2.111583e+001	-7.593673e+001	-2.111884e+001	-7.583196e+001	-1.420457e-001	5.160879e+000
39.965	-1.551297e-001	4.916901e+000	-2.121607e+001	-7.608366e+001	-2.121991e+001	-7.597810e+001	-1.386709e-001	5.104356e+000
40.463	-1.519626e-001	4.862464e+000	-2.131517e+001	-7.622567e+001	-2.131936e+001	-7.612385e+001	-1.354478e-001	5.049060e+000
40.960	-1.487126e-001	4.808378e+000	-2.141390e+001	-7.637272e+001	-2.141757e+001	-7.626473e+001	-1.322539e-001	4.995173e+000
41.458	-1.457009e-001	4.755189e+000	-2.151216e+001	-7.650446e+001	-2.151580e+001	-7.639892e+001	-1.292133e-001	4.942512e+000
41.955	-1.427383e-001	4.703585e+000	-2.160785e+001	-7.664561e+001	-2.161226e+001	-7.653745e+001	-1.262675e-001	4.890691e+000
42.452	-1.400938e-001	4.653440e+000	-2.170332e+001	-7.677045e+001	-2.170728e+001	-7.666282e+001	-1.234776e-001	4.840672e+000
42.950	-1.373360e-001	4.603753e+000	-2.179801e+001	-7.689701e+001	-2.180191e+001	-7.679001e+001	-1.206137e-001	4.791115e+000
43.447	-1.347098e-001	4.555771e+000	-2.189134e+001	-7.702354e+001	-2.189561e+001	-7.691386e+001	-1.180723e-001	4.742595e+000
43.945	-1.320364e-001	4.507646e+000	-2.198357e+001	-7.714874e+001	-2.198813e+001	-7.704214e+001	-1.154195e-001	4.695045e+000
44.442	-1.294768e-001	4.461871e+000	-2.207546e+001	-7.726795e+001	-2.207975e+001	-7.716375e+001	-1.128508e-001	4.648794e+000
44.940	-1.272732e-001	4.415579e+000	-2.216662e+001	-7.737989e+001	-2.217011e+001	-7.727553e+001	-1.105010e-001	4.602404e+000
45.437	-1.247690e-001	4.370621e+000	-2.225665e+001	-7.750004e+001	-2.225989e+001	-7.739264e+001	-1.081205e-001	4.558382e+000
45.935	-1.224559e-001	4.327554e+000	-2.234483e+001	-7.760904e+001	-2.234826e+001	-7.750290e+001	-1.058987e-001	4.515094e+000
46.432	-1.203439e-001	4.283846e+000	-2.243260e+001	-7.771718e+001	-2.243622e+001	-7.761361e+001	-1.036562e-001	4.471401e+000
46.930	-1.181557e-001	4.242734e+000	-2.251896e+001	-7.782625e+001	-2.252367e+001	-7.772764e+001	-1.014621e-001	4.429062e+000
47.427	-1.158669e-001	4.201672e+000	-2.260514e+001	-7.793866e+001	-2.261082e+001	-7.783397e+001	-9.937427e-002	4.387727e+000
47.925	-1.138853e-001	4.160455e+000	-2.269252e+001	-7.804712e+001	-2.269708e+001	-7.792944e+001	-9.746128e-002	4.346969e+000
48.422	-1.119827e-001	4.120420e+000	-2.277642e+001	-7.813300e+001	-2.278022e+001	-7.803006e+001	-9.544482e-002	4.307727e+000
48.920	-1.099028e-001	4.082271e+000	-2.285939e+001	-7.824656e+001	-2.286545e+001	-7.813818e+001	-9.329425e-002	4.268426e+000
49.417	-1.081307e-001	4.043290e+000	-2.294324e+001	-7.833556e+001	-2.294687e+001	-7.822617e+001	-9.163989e-002	4.230935e+000
50.001	-1.057967e-001	3.998752e+000	-2.304129e+001	-7.846501e+001	-2.304503e+001	-7.834991e+001	-8.930621e-002	4.185980e+000
50.688	-1.035197e-001	3.947720e+000	-2.315423e+001	-7.857048e+001	-2.315697e+001	-7.845573e+001	-8.718198e-002	4.134642e+000
51.375	-1.012224e-001	3.898184e+000	-2.326447e+001	-7.869513e+001	-2.326628e+001	-7.859673e+001	-8.461617e-002	4.086186e+000
52.062	-9.901085e-002	3.851811e+000	-2.337029e+001	-7.881979e+001	-2.337568e+001	-7.873789e+001	-8.231563e-002	4.038714e+000
52.749	-9.654364e-002	3.805147e+000	-2.347843e+001	-7.896694e+001	-2.348764e+001	-7.885171e+001	-8.010157e-002	3.989955e+000
53.436	-9.464944e-002	3.755802e+000	-2.359122e+001	-7.906798e+001	-2.359218e+001	-7.893586e+001	-7.835168e-002	3.944829e+000
54.123	-9.286618e-002	3.715046e+000	-2.368949e+001	-7.915604e+001	-2.369581e+001	-7.908384e+001	-7.599440e-002	3.901169e+000
54.810	-9.052742e-002	3.669037e+000	-2.379923e+001	-7.930988e+001	-2.380419e+001	-7.916087e+001	-7.426738e-002	3.854980e+000
55.497	-8.901572e-002	3.628078e+000	-2.389613e+001	-7.937703e+001	-2.390325e+001	-7.930694e+001	-7.210242e-002	3.815111e+000
56.184	-8.696214e-002	3.582217e+000	-2.400663e+001	-7.950303e+001	-2.400652e+001	-7.936596e+001	-7.072990e-002	3.771535e+000
56.871	-8.501864e-002	3.545020e+000	-2.409913e+001	-7.963454e+001	-2.411129e+001	-7.950838e+001	-6.848873e-002	3.729736e+000
57.558	-8.382078e-002	3.505658e+000	-2.419696e+001	-7.968293e+001	-2.420413e+001	-7.962149e+001	-6.689349e-002	3.693226e+000
58.245	-8.229243e-002	3.463957e+000	-2.430191e+001	-7.976598e+001	-2.430010e+001	-7.968268e+001	-6.570377e-002	3.654018e+000
58.932	-8.037150e-002	3.423857e+000	-2.440285e+001	-7.988258e+001	-2.440004e+001	-7.975609e+001	-6.428690e-002	3.614234e+000
59.619	-7.877481e-002	3.386445e+000	-2.450006e+001	-7.999032e+001	-2.449914e+001	-7.984157e+001	-6.276951e-002	3.577162e+000
60.306	-7.732284e-002	3.350239e+000	-2.459517e+001	-8.008128e+001	-2.459365e+001	-7.993316e+001	-6.122255e-002	3.540005e+000
60.993	-7.607190e-002	3.313815e+000	-2.468942e+001	-8.015559e+001	-2.468661e+001	-8.002459e+001	-5.982632e-002	3.504862e+000
61.680	-7.476415e-002	3.280669e+000	-2.477877e+001	-8.022750e+001	-2.477593e+001	-8.014154e+001	-5.819976e-002	3.471057e+000
62.367	-7.344097e-002	3.248436e+000	-2.486403e+001	-8.031746e+001	-2.487044e+001	-8.026527e+001	-5.646561e-002	3.436058e+000
63.054	-7.155849e-002	3.215034e+000	-2.495642e+001	-8.046078e+001	-2.496965e+001	-8.034171e+001	-5.517311e-002	3.398962e+000
