!Agilent Technologies,E5061B,MY49204007,A.02.12
!Date: Wed Jul 23 11:17:44 2025
!Data & Calibration Information:
!Freq	S11:SOLT2(ON)	S21:SOLT2(ON)	S12:SOLT2(ON)	S22:SOLT2(ON)
# Hz S dB R 50
10.000	-2.417156e+000	1.197360e+001	-1.034905e+001	-3.136522e+001	-1.033166e+001	-3.129877e+001	-2.404302e+000	1.220916e+001
10.137	-2.398457e+000	1.200288e+001	-1.037570e+001	-3.162895e+001	-1.035889e+001	-3.156547e+001	-2.385262e+000	1.223678e+001
10.275	-2.379622e+000	1.203021e+001	-1.040244e+001	-3.189416e+001	-1.038631e+001	-3.183304e+001	-2.366160e+000	1.226256e+001
10.412	-2.360743e+000	1.205696e+001	-1.042956e+001	-3.215770e+001	-1.041380e+001	-3.209922e+001	-2.347181e+000	1.228661e+001
10.550	-2.342014e+000	1.208252e+001	-1.045682e+001	-3.242375e+001	-1.044168e+001	-3.236332e+001	-2.328325e+000	1.231142e+001
10.687	-2.323522e+000	1.210725e+001	-1.048403e+001	-3.268915e+001	-1.046930e+001	-3.262780e+001	-2.309456e+000	1.233427e+001
10.824	-2.305026e+000	1.213073e+001	-1.051142e+001	-3.295423e+001	-1.049720e+001	-3.289164e+001	-2.290689e+000	1.235683e+001
10.962	-2.286430e+000	1.215225e+001	-1.053907e+001	-3.321609e+001	-1.052530e+001	-3.315259e+001	-2.272108e+000	1.237718e+001
11.099	-2.268259e+000	1.217407e+001	-1.056657e+001	-3.347914e+001	-1.055337e+001	-3.341676e+001	-2.253517e+000	1.239742e+001
11.237	-2.249893e+000	1.219289e+001	-1.059420e+001	-3.373994e+001	-1.058158e+001	-3.367598e+001	-2.235179e+000	1.241613e+001
11.374	-2.231544e+000	1.221180e+001	-1.062221e+001	-3.400001e+001	-1.061012e+001	-3.393483e+001	-2.216798e+000	1.243311e+001
11.511	-2.213403e+000	1.222893e+001	-1.065038e+001	-3.425884e+001	-1.063871e+001	-3.419337e+001	-2.198554e+000	1.244908e+001
11.649	-2.195427e+000	1.224576e+001	-1.067853e+001	-3.451670e+001	-1.066723e+001	-3.445087e+001	-2.180393e+000	1.246448e+001
11.786	-2.177519e+000	1.225987e+001	-1.070698e+001	-3.477503e+001	-1.069596e+001	-3.470792e+001	-2.162391e+000	1.247826e+001
11.924	-2.159831e+000	1.227494e+001	-1.073543e+001	-3.502968e+001	-1.072470e+001	-3.496454e+001	-2.144380e+000	1.249156e+001
12.061	-2.141931e+000	1.228713e+001	-1.076412e+001	-3.528463e+001	-1.075380e+001	-3.521817e+001	-2.126616e+000	1.250341e+001
12.198	-2.124461e+000	1.229865e+001	-1.079269e+001	-3.553898e+001	-1.078255e+001	-3.547304e+001	-2.108865e+000	1.251416e+001
12.336	-2.106952e+000	1.230881e+001	-1.082162e+001	-3.579090e+001	-1.081154e+001	-3.572444e+001	-2.091167e+000	1.252384e+001
12.473	-2.089491e+000	1.231802e+001	-1.085062e+001	-3.604249e+001	-1.084072e+001	-3.597488e+001	-2.073578e+000	1.253240e+001
12.611	-2.072117e+000	1.232626e+001	-1.087974e+001	-3.629301e+001	-1.087013e+001	-3.622533e+001	-2.056221e+000	1.253985e+001
12.748	-2.055054e+000	1.233365e+001	-1.090889e+001	-3.654201e+001	-1.089934e+001	-3.647377e+001	-2.038910e+000	1.254694e+001
12.885	-2.037940e+000	1.234044e+001	-1.093813e+001	-3.678885e+001	-1.092891e+001	-3.672196e+001	-2.021741e+000	1.255217e+001
13.023	-2.020926e+000	1.234597e+001	-1.096747e+001	-3.703568e+001	-1.095859e+001	-3.696804e+001	-2.004672e+000	1.255723e+001
13.160	-2.004247e+000	1.235026e+001	-1.099706e+001	-3.727951e+001	-1.098815e+001	-3.721179e+001	-1.987936e+000	1.256136e+001
13.298	-1.987394e+000	1.235345e+001	-1.102647e+001	-3.752563e+001	-1.101805e+001	-3.745586e+001	-1.971089e+000	1.256412e+001
13.435	-1.970748e+000	1.235608e+001	-1.105597e+001	-3.776823e+001	-1.104786e+001	-3.769972e+001	-1.954491e+000	1.256624e+001
13.572	-1.954330e+000	1.235799e+001	-1.108571e+001	-3.800865e+001	-1.107776e+001	-3.794023e+001	-1.937956e+000	1.256741e+001
13.733	-1.935302e+000	1.234617e+001	-1.112415e+001	-3.826667e+001	-1.111200e+001	-3.822380e+001	-1.918838e+000	1.256948e+001
13.923	-1.912841e+000	1.235743e+001	-1.116197e+001	-3.861799e+001	-1.115440e+001	-3.854931e+001	-1.896503e+000	1.256633e+001
14.112	-1.890593e+000	1.235441e+001	-1.120337e+001	-3.894257e+001	-1.119615e+001	-3.887430e+001	-1.874390e+000	1.256280e+001
14.302	-1.868798e+000	1.235032e+001	-1.124518e+001	-3.926836e+001	-1.123799e+001	-3.919949e+001	-1.852382e+000	1.255900e+001
14.492	-1.847101e+000	1.234508e+001	-1.128673e+001	-3.958902e+001	-1.127970e+001	-3.951993e+001	-1.830631e+000	1.255304e+001
14.682	-1.825619e+000	1.233798e+001	-1.132857e+001	-3.990801e+001	-1.132186e+001	-3.983842e+001	-1.809161e+000	1.254530e+001
14.872	-1.804533e+000	1.232984e+001	-1.137062e+001	-4.022357e+001	-1.136410e+001	-4.015510e+001	-1.787942e+000	1.253621e+001
15.062	-1.783528e+000	1.232021e+001	-1.141267e+001	-4.053870e+001	-1.140636e+001	-4.046956e+001	-1.766952e+000	1.252566e+001
15.251	-1.762892e+000	1.230880e+001	-1.145477e+001	-4.084875e+001	-1.144868e+001	-4.077867e+001	-1.746192e+000	1.251399e+001
15.441	-1.742315e+000	1.229594e+001	-1.149723e+001	-4.115895e+001	-1.149126e+001	-4.108902e+001	-1.725682e+000	1.250105e+001
15.631	-1.722138e+000	1.228335e+001	-1.153947e+001	-4.146510e+001	-1.153363e+001	-4.139473e+001	-1.705499e+000	1.248748e+001
15.821	-1.702206e+000	1.226843e+001	-1.158190e+001	-4.176872e+001	-1.157609e+001	-4.169881e+001	-1.685360e+000	1.247165e+001
16.011	-1.682417e+000	1.225266e+001	-1.162442e+001	-4.206898e+001	-1.161885e+001	-4.199845e+001	-1.665697e+000	1.245587e+001
16.201	-1.663052e+000	1.223562e+001	-1.166696e+001	-4.236673e+001	-1.166149e+001	-4.229602e+001	-1.646223e+000	1.243832e+001
16.391	-1.643686e+000	1.221767e+001	-1.170968e+001	-4.266413e+001	-1.170420e+001	-4.259363e+001	-1.626856e+000	1.242001e+001
16.580	-1.624708e+000	1.219896e+001	-1.175218e+001	-4.295626e+001	-1.174678e+001	-4.288605e+001	-1.607826e+000	1.240059e+001
16.770	-1.605980e+000	1.217855e+001	-1.179497e+001	-4.324625e+001	-1.178970e+001	-4.317627e+001	-1.589112e+000	1.237987e+001
16.960	-1.587367e+000	1.215708e+001	-1.183767e+001	-4.353422e+001	-1.183269e+001	-4.346283e+001	-1.570553e+000	1.235832e+001
17.150	-1.569114e+000	1.211767e+001	-1.188769e+001	-4.378821e+001	-1.188307e+001	-4.371883e+001	-1.552197e+000	1.231903e+001
17.340	-1.550993e+000	1.211267e+001	-1.192310e+001	-4.410392e+001	-1.191851e+001	-4.403263e+001	-1.534144e+000	1.231305e+001
17.530	-1.533110e+000	1.208948e+001	-1.196571e+001	-4.438454e+001	-1.196129e+001	-4.431330e+001	-1.516252e+000	1.228972e+001
17.720	-1.515596e+000	1.206468e+001	-1.200879e+001	-4.466191e+001	-1.200423e+001	-4.459009e+001	-1.498608e+000	1.226485e+001
17.909	-1.498163e+000	1.203933e+001	-1.205154e+001	-4.493748e+001	-1.204736e+001	-4.486582e+001	-1.481258e+000	1.223914e+001
18.099	-1.481128e+000	1.201341e+001	-1.209450e+001	-4.521090e+001	-1.209016e+001	-4.513894e+001	-1.464081e+000	1.221284e+001
18.289	-1.464103e+000	1.198629e+001	-1.213753e+001	-4.548141e+001	-1.213334e+001	-4.540975e+001	-1.447121e+000	1.218491e+001
18.479	-1.447415e+000	1.195907e+001	-1.218022e+001	-4.575091e+001	-1.217611e+001	-4.567763e+001	-1.430340e+000	1.215779e+001
18.669	-1.431012e+000	1.193112e+001	-1.222308e+001	-4.601587e+001	-1.221925e+001	-4.594221e+001	-1.413940e+000	1.212928e+001
18.859	-1.414775e+000	1.190251e+001	-1.226611e+001	-4.627980e+001	-1.226232e+001	-4.620605e+001	-1.397627e+000	1.210030e+001
19.082	-1.399488e+000	1.181192e+001	-1.233579e+001	-4.641550e+001	-1.233250e+001	-4.634019e+001	-1.382299e+000	1.200854e+001
19.344	-1.374260e+000	1.182700e+001	-1.237601e+001	-4.694304e+001	-1.237246e+001	-4.686958e+001	-1.357040e+000	1.202325e+001
19.606	-1.352924e+000	1.178468e+001	-1.243487e+001	-4.729059e+001	-1.243163e+001	-4.721736e+001	-1.335895e+000	1.197997e+001
19.868	-1.332035e+000	1.174122e+001	-1.249422e+001	-4.764100e+001	-1.249108e+001	-4.756779e+001	-1.314757e+000	1.193656e+001
20.130	-1.311689e+000	1.169707e+001	-1.255314e+001	-4.798259e+001	-1.255007e+001	-4.790772e+001	-1.294328e+000	1.189263e+001
20.392	-1.291444e+000	1.165195e+001	-1.261225e+001	-4.831882e+001	-1.260921e+001	-4.824485e+001	-1.274188e+000	1.184696e+001
20.655	-1.271719e+000	1.160600e+001	-1.267132e+001	-4.865359e+001	-1.266832e+001	-4.857815e+001	-1.254409e+000	1.180099e+001
20.917	-1.252349e+000	1.155928e+001	-1.273039e+001	-4.898341e+001	-1.272742e+001	-4.890893e+001	-1.234978e+000	1.175421e+001
21.179	-1.233224e+000	1.151174e+001	-1.278936e+001	-4.930760e+001	-1.278672e+001	-4.923146e+001	-1.215925e+000	1.170628e+001
21.441	-1.214593e+000	1.146512e+001	-1.284787e+001	-4.962921e+001	-1.284527e+001	-4.955362e+001	-1.197376e+000	1.165924e+001
21.703	-1.196252e+000	1.141628e+001	-1.290641e+001	-4.994371e+001	-1.290413e+001	-4.986767e+001	-1.179128e+000	1.161063e+001
21.965	-1.178260e+000	1.136697e+001	-1.296519e+001	-5.025719e+001	-1.296286e+001	-5.018011e+001	-1.161053e+000	1.156146e+001
22.228	-1.160716e+000	1.131834e+001	-1.302364e+001	-5.056594e+001	-1.302141e+001	-5.048902e+001	-1.143491e+000	1.151156e+001
22.490	-1.143343e+000	1.126944e+001	-1.308178e+001	-5.087044e+001	-1.307964e+001	-5.079442e+001	-1.126186e+000	1.146205e+001
22.752	-1.126310e+000	1.121940e+001	-1.314031e+001	-5.117275e+001	-1.313826e+001	-5.109663e+001	-1.109138e+000	1.141169e+001
23.014	-1.109843e+000	1.116930e+001	-1.319804e+001	-5.146832e+001	-1.319606e+001	-5.139257e+001	-1.092611e+000	1.136131e+001
23.276	-1.093435e+000	1.111791e+001	-1.325628e+001	-5.176166e+001	-1.325436e+001	-5.168393e+001	-1.076251e+000	1.131049e+001
23.538	-1.077429e+000	1.106751e+001	-1.331411e+001	-5.205102e+001	-1.331218e+001	-5.197384e+001	-1.060099e+000	1.125982e+001
23.801	-1.061700e+000	1.101645e+001	-1.337176e+001	-5.233725e+001	-1.336991e+001	-5.225970e+001	-1.044527e+000	1.120878e+001
24.063	-1.046304e+000	1.096588e+001	-1.342913e+001	-5.261917e+001	-1.342735e+001	-5.254217e+001	-1.029058e+000	1.115773e+001
24.325	-1.031022e+000	1.091479e+001	-1.348640e+001	-5.289947e+001	-1.348483e+001	-5.282167e+001	-1.013901e+000	1.110635e+001
24.587	-1.016262e+000	1.086265e+001	-1.354363e+001	-5.317331e+001	-1.354197e+001	-5.309538e+001	-9.990547e-001	1.105441e+001
24.849	-1.001671e+000	1.081086e+001	-1.360091e+001	-5.344557e+001	-1.359922e+001	-5.336657e+001	-9.844435e-001	1.100279e+001
25.111	-9.873236e-001	1.075985e+001	-1.365755e+001	-5.371300e+001	-1.365610e+001	-5.363486e+001	-9.702262e-001	1.095155e+001
25.374	-9.734153e-001	1.070895e+001	-1.371427e+001	-5.397732e+001	-1.371283e+001	-5.389879e+001	-9.562851e-001	1.089945e+001
25.636	-9.596513e-001	1.065748e+001	-1.377085e+001	-5.423713e+001	-1.376945e+001	-5.415969e+001	-9.426208e-001	1.084738e+001
25.898	-9.461800e-001	1.060637e+001	-1.382698e+001	-5.449587e+001	-1.382565e+001	-5.441757e+001	-9.290830e-001	1.079590e+001
26.204	-9.331492e-001	1.052290e+001	-1.390216e+001	-5.468354e+001	-1.390059e+001	-5.461158e+001	-9.158516e-001	1.071338e+001
26.564	-9.130752e-001	1.047538e+001	-1.396961e+001	-5.513978e+001	-1.396844e+001	-5.506114e+001	-8.959428e-001	1.066482e+001
26.924	-8.957564e-001	1.040433e+001	-1.404658e+001	-5.547822e+001	-1.404547e+001	-5.540077e+001	-8.786521e-001	1.059345e+001
27.284	-8.789376e-001	1.033421e+001	-1.412259e+001	-5.580498e+001	-1.412169e+001	-5.572696e+001	-8.619130e-001	1.052293e+001
27.644	-8.624547e-001	1.026497e+001	-1.419835e+001	-5.613737e+001	-1.419725e+001	-5.605886e+001	-8.452948e-001	1.045284e+001
28.004	-8.465592e-001	1.019442e+001	-1.427359e+001	-5.645336e+001	-1.427276e+001	-5.637348e+001	-8.295344e-001	1.038283e+001
28.364	-8.309537e-001	1.012358e+001	-1.434931e+001	-5.677012e+001	-1.434851e+001	-5.669044e+001	-8.139112e-001	1.031215e+001
28.724	-8.157742e-001	1.005414e+001	-1.442397e+001	-5.708143e+001	-1.442336e+001	-5.700301e+001	-7.986485e-001	1.024196e+001
29.084	-8.009757e-001	9.985425e+000	-1.449825e+001	-5.738651e+001	-1.449772e+001	-5.730619e+001	-7.838519e-001	1.017388e+001
29.444	-7.865741e-001	9.917584e+000	-1.457209e+001	-5.768446e+001	-1.457156e+001	-5.760274e+001	-7.694742e-001	1.010631e+001
29.804	-7.725757e-001	9.850522e+000	-1.464535e+001	-5.798217e+001	-1.464482e+001	-5.790009e+001	-7.554775e-001	1.003816e+001
30.164	-7.586402e-001	9.782101e+000	-1.471909e+001	-5.827206e+001	-1.471878e+001	-5.819009e+001	-7.416234e-001	9.970113e+000
30.524	-7.454464e-001	9.715062e+000	-1.479149e+001	-5.855729e+001	-1.479105e+001	-5.847530e+001	-7.283718e-001	9.902806e+000
30.884	-7.323760e-001	9.646593e+000	-1.486434e+001	-5.883404e+001	-1.486383e+001	-5.875389e+001	-7.153156e-001	9.835208e+000
31.244	-7.195060e-001	9.580033e+000	-1.493663e+001	-5.911111e+001	-1.493623e+001	-5.902955e+001	-7.025480e-001	9.767989e+000
31.605	-7.070550e-001	9.513887e+000	-1.500828e+001	-5.938314e+001	-1.500822e+001	-5.930166e+001	-6.899757e-001	9.701149e+000
31.965	-6.949808e-001	9.448681e+000	-1.507964e+001	-5.964853e+001	-1.507928e+001	-5.956744e+001	-6.779851e-001	9.635561e+000
32.325	-6.830167e-001	9.384111e+000	-1.515010e+001	-5.991468e+001	-1.514983e+001	-5.983178e+001	-6.661266e-001	9.571844e+000
32.685	-6.713692e-001	9.319026e+000	-1.522127e+001	-6.017362e+001	-1.522108e+001	-6.009148e+001	-6.545921e-001	9.505743e+000
33.045	-6.602501e-001	9.255808e+000	-1.529071e+001	-6.042619e+001	-1.529060e+001	-6.034272e+001	-6.433325e-001	9.442594e+000
33.405	-6.491218e-001	9.191545e+000	-1.536123e+001	-6.067511e+001	-1.536107e+001	-6.059311e+001	-6.323195e-001	9.378365e+000
33.765	-6.381925e-001	9.129377e+000	-1.543051e+001	-6.092374e+001	-1.543054e+001	-6.083950e+001	-6.214921e-001	9.315860e+000
34.125	-6.276959e-001	9.066474e+000	-1.549948e+001	-6.116620e+001	-1.549963e+001	-6.108231e+001	-6.110027e-001	9.252865e+000
34.485	-6.174203e-001	9.004916e+000	-1.556836e+001	-6.140296e+001	-1.556840e+001	-6.132152e+001	-6.006953e-001	9.191056e+000
34.845	-6.074590e-001	8.943705e+000	-1.563654e+001	-6.163751e+001	-1.563651e+001	-6.155603e+001	-5.907617e-001	9.129753e+000
35.205	-5.975452e-001	8.883209e+000	-1.570402e+001	-6.187219e+001	-1.570411e+001	-6.178856e+001	-5.808805e-001	9.069304e+000
35.565	-5.880286e-001	8.822710e+000	-1.577193e+001	-6.209761e+001	-1.577188e+001	-6.201401e+001	-5.713525e-001	9.008450e+000
35.985	-5.725749e-001	8.776796e+000	-1.583902e+001	-6.256612e+001	-1.583886e+001	-6.248085e+001	-5.559280e-001	8.963134e+000
36.483	-5.645788e-001	8.672108e+000	-1.594178e+001	-6.266604e+001	-1.594208e+001	-6.258227e+001	-5.479954e-001	8.858085e+000
36.980	-5.524463e-001	8.591312e+000	-1.603420e+001	-6.296488e+001	-1.603416e+001	-6.287967e+001	-5.357831e-001	8.776956e+000
37.478	-5.406452e-001	8.512970e+000	-1.612367e+001	-6.324807e+001	-1.612485e+001	-6.316439e+001	-5.242592e-001	8.697781e+000
37.975	-5.292553e-001	8.434717e+000	-1.621387e+001	-6.354216e+001	-1.621458e+001	-6.345744e+001	-5.127118e-001	8.619783e+000
38.473	-5.183184e-001	8.358317e+000	-1.630299e+001	-6.381443e+001	-1.630357e+001	-6.373078e+001	-5.018812e-001	8.543369e+000
38.970	-5.075826e-001	8.280813e+000	-1.639211e+001	-6.408580e+001	-1.639300e+001	-6.400187e+001	-4.911294e-001	8.466079e+000
39.468	-4.971910e-001	8.206215e+000	-1.648016e+001	-6.435648e+001	-1.648093e+001	-6.427198e+001	-4.807023e-001	8.390850e+000
39.965	-4.870131e-001	8.131906e+000	-1.656708e+001	-6.461815e+001	-1.656809e+001	-6.453217e+001	-4.706632e-001	8.316838e+000
40.463	-4.773158e-001	8.059385e+000	-1.665348e+001	-6.487391e+001	-1.665403e+001	-6.478861e+001	-4.608572e-001	8.244386e+000
40.960	-4.678246e-001	7.987664e+000	-1.673909e+001	-6.513198e+001	-1.673953e+001	-6.504723e+001	-4.511967e-001	8.172633e+000
41.458	-4.584474e-001	7.915901e+000	-1.682476e+001	-6.537508e+001	-1.682563e+001	-6.528912e+001	-4.420783e-001	8.100745e+000
41.955	-4.495852e-001	7.846026e+000	-1.690908e+001	-6.562325e+001	-1.690972e+001	-6.553717e+001	-4.330526e-001	8.031144e+000
42.452	-4.409666e-001	7.778134e+000	-1.699265e+001	-6.585753e+001	-1.699342e+001	-6.576972e+001	-4.245541e-001	7.962116e+000
42.950	-4.326622e-001	7.710022e+000	-1.707580e+001	-6.608847e+001	-1.707650e+001	-6.600236e+001	-4.159727e-001	7.894469e+000
43.447	-4.243849e-001	7.642542e+000	-1.715841e+001	-6.631947e+001	-1.715914e+001	-6.623127e+001	-4.079034e-001	7.827502e+000
43.945	-4.162628e-001	7.576868e+000	-1.724018e+001	-6.654658e+001	-1.724081e+001	-6.645729e+001	-3.996937e-001	7.761482e+000
44.442	-4.084190e-001	7.512021e+000	-1.732225e+001	-6.676652e+001	-1.732299e+001	-6.667829e+001	-3.919886e-001	7.695723e+000
44.940	-4.011017e-001	7.448303e+000	-1.740229e+001	-6.697813e+001	-1.740332e+001	-6.689045e+001	-3.844909e-001	7.631949e+000
45.437	-3.935078e-001	7.384459e+000	-1.748257e+001	-6.719336e+001	-1.748405e+001	-6.710799e+001	-3.770843e-001	7.568382e+000
45.935	-3.864071e-001	7.322326e+000	-1.756156e+001	-6.740261e+001	-1.756301e+001	-6.731664e+001	-3.699077e-001	7.505972e+000
46.432	-3.796138e-001	7.260631e+000	-1.764059e+001	-6.760708e+001	-1.764179e+001	-6.751725e+001	-3.630854e-001	7.444754e+000
46.930	-3.728018e-001	7.199654e+000	-1.771882e+001	-6.780824e+001	-1.772015e+001	-6.771821e+001	-3.563162e-001	7.383951e+000
47.427	-3.661370e-001	7.140747e+000	-1.779661e+001	-6.800493e+001	-1.779775e+001	-6.791633e+001	-3.497681e-001	7.323653e+000
47.925	-3.597192e-001	7.080948e+000	-1.787414e+001	-6.819777e+001	-1.787486e+001	-6.811098e+001	-3.431179e-001	7.265243e+000
48.422	-3.534990e-001	7.023424e+000	-1.794995e+001	-6.838738e+001	-1.795161e+001	-6.829998e+001	-3.368680e-001	7.206126e+000
48.920	-3.472236e-001	6.966388e+000	-1.802640e+001	-6.857607e+001	-1.802741e+001	-6.848604e+001	-3.307827e-001	7.149814e+000
49.417	-3.413908e-001	6.910193e+000	-1.810125e+001	-6.875797e+001	-1.810280e+001	-6.867273e+001	-3.247804e-001	7.093281e+000
50.001	-3.380178e-001	6.832908e+000	-1.819538e+001	-6.876962e+001	-1.819690e+001	-6.868973e+001	-3.214412e-001	7.016505e+000
50.688	-3.268800e-001	6.769628e+000	-1.829192e+001	-6.920931e+001	-1.829339e+001	-6.912485e+001	-3.101691e-001	6.952460e+000
51.375	-3.193241e-001	6.695790e+000	-1.839296e+001	-6.945672e+001	-1.839537e+001	-6.936831e+001	-3.026185e-001	6.877685e+000
52.062	-3.120132e-001	6.623540e+000	-1.849320e+001	-6.969510e+001	-1.849529e+001	-6.959568e+001	-2.955207e-001	6.805157e+000
52.749	-3.051103e-001	6.551652e+000	-1.859343e+001	-6.992034e+001	-1.859315e+001	-6.982420e+001	-2.886095e-001	6.735134e+000
53.436	-2.985386e-001	6.481789e+000	-1.869083e+001	-7.013202e+001	-1.869253e+001	-7.005193e+001	-2.817498e-001	6.664279e+000
54.123	-2.918284e-001	6.414219e+000	-1.878779e+001	-7.035269e+001	-1.879015e+001	-7.024996e+001	-2.754732e-001	6.596159e+000
54.810	-2.857646e-001	6.346775e+000	-1.888386e+001	-7.055802e+001	-1.888429e+001	-7.047841e+001	-2.690194e-001	6.531676e+000
55.497	-2.794748e-001	6.281394e+000	-1.897967e+001	-7.077433e+001	-1.898195e+001	-7.066952e+001	-2.632266e-001	6.462767e+000
56.184	-2.737111e-001	6.215798e+000	-1.907319e+001	-7.097060e+001	-1.907559e+001	-7.089512e+001	-2.570777e-001	6.400093e+000
56.871	-2.680411e-001	6.152035e+000	-1.916854e+001	-7.117537e+001	-1.916695e+001	-7.107692e+001	-2.515927e-001	6.337193e+000
57.558	-2.623045e-001	6.090959e+000	-1.925940e+001	-7.137447e+001	-1.926193e+001	-7.126278e+001	-2.461117e-001	6.272758e+000
58.245	-2.570640e-001	6.030589e+000	-1.934982e+001	-7.155780e+001	-1.935458e+001	-7.146578e+001	-2.407111e-001	6.211783e+000
58.932	-2.519495e-001	5.968475e+000	-1.944158e+001	-7.173700e+001	-1.944487e+001	-7.166203e+001	-2.353271e-001	6.152295e+000
59.619	-2.469072e-001	5.909983e+000	-1.953265e+001	-7.191446e+001	-1.953487e+001	-7.184192e+001	-2.303054e-001	6.093111e+000
60.306	-2.421869e-001	5.852466e+000	-1.962145e+001	-7.209089e+001	-1.962328e+001	-7.202045e+001	-2.254830e-001	6.036256e+000
60.993	-2.373743e-001	5.795464e+000	-1.970951e+001	-7.226556e+001	-1.971300e+001	-7.219153e+001	-2.206690e-001	5.978554e+000
61.680	-2.326349e-001	5.740643e+000	-1.979620e+001	-7.244946e+001	-1.980123e+001	-7.236079e+001	-2.161751e-001	5.921949e+000
62.367	-2.279531e-001	5.685318e+000	-1.988376e+001	-7.262595e+001	-1.988641e+001	-7.251053e+001	-2.121209e-001	5.867999e+000
63.054	-2.238471e-001	5.629582e+000	-1.997205e+001	-7.278337e+001	-1.997056e+001	-7.268327e+001	-2.075687e-001	5.814883e+000
