!Agilent Technologies,E5061B,MY49204007,A.02.12
!Date: Wed Jul 23 11:00:31 2025
!Data & Calibration Information:
!Freq	S11:SOLT2(ON)	S21:SOLT2(ON)	S12:SOLT2(ON)	S22:SOLT2(ON)
# Hz S dB R 50
10.000	-2.251459e+000	1.086266e+001	-1.096760e+001	-3.116796e+001	-1.098009e+001	-3.104366e+001	-2.234250e+000	1.101654e+001
10.137	-2.235093e+000	1.089016e+001	-1.099362e+001	-3.141821e+001	-1.100639e+001	-3.129673e+001	-2.217678e+000	1.104159e+001
10.275	-2.218556e+000	1.091601e+001	-1.101959e+001	-3.167050e+001	-1.103262e+001	-3.155056e+001	-2.201282e+000	1.106597e+001
10.412	-2.202262e+000	1.094046e+001	-1.104591e+001	-3.192300e+001	-1.105893e+001	-3.180262e+001	-2.184940e+000	1.109025e+001
10.550	-2.185886e+000	1.096398e+001	-1.107262e+001	-3.217549e+001	-1.108552e+001	-3.205444e+001	-2.168567e+000	1.111338e+001
10.687	-2.169602e+000	1.098709e+001	-1.109899e+001	-3.242815e+001	-1.111207e+001	-3.230515e+001	-2.152369e+000	1.113583e+001
10.824	-2.153413e+000	1.101029e+001	-1.112538e+001	-3.268028e+001	-1.113859e+001	-3.255701e+001	-2.136056e+000	1.115755e+001
10.962	-2.137205e+000	1.103120e+001	-1.115197e+001	-3.293019e+001	-1.116545e+001	-3.280516e+001	-2.119977e+000	1.117822e+001
11.099	-2.121259e+000	1.105240e+001	-1.117854e+001	-3.318174e+001	-1.119211e+001	-3.305708e+001	-2.103866e+000	1.119862e+001
11.237	-2.105155e+000	1.107083e+001	-1.120555e+001	-3.343015e+001	-1.121903e+001	-3.330392e+001	-2.087983e+000	1.121806e+001
11.374	-2.089108e+000	1.108939e+001	-1.123247e+001	-3.367915e+001	-1.124615e+001	-3.355116e+001	-2.072045e+000	1.123653e+001
11.511	-2.073204e+000	1.110670e+001	-1.125957e+001	-3.392810e+001	-1.127328e+001	-3.379920e+001	-2.056188e+000	1.125319e+001
11.649	-2.057315e+000	1.112354e+001	-1.128666e+001	-3.417557e+001	-1.130046e+001	-3.404589e+001	-2.040389e+000	1.126984e+001
11.786	-2.041657e+000	1.113936e+001	-1.131400e+001	-3.442267e+001	-1.132790e+001	-3.429112e+001	-2.024659e+000	1.128532e+001
11.924	-2.026084e+000	1.115515e+001	-1.134122e+001	-3.466856e+001	-1.135535e+001	-3.453784e+001	-2.008959e+000	1.129993e+001
12.061	-2.010239e+000	1.116817e+001	-1.136893e+001	-3.491331e+001	-1.138302e+001	-3.478058e+001	-1.993451e+000	1.131354e+001
12.198	-1.994807e+000	1.118108e+001	-1.139670e+001	-3.515688e+001	-1.141048e+001	-3.502588e+001	-1.977807e+000	1.132621e+001
12.336	-1.979311e+000	1.119227e+001	-1.142456e+001	-3.539977e+001	-1.143815e+001	-3.526698e+001	-1.962309e+000	1.133850e+001
12.473	-1.963947e+000	1.120296e+001	-1.145259e+001	-3.564195e+001	-1.146625e+001	-3.550754e+001	-1.947022e+000	1.134904e+001
12.611	-1.948679e+000	1.121309e+001	-1.148054e+001	-3.588379e+001	-1.149417e+001	-3.574850e+001	-1.931761e+000	1.135881e+001
12.748	-1.933428e+000	1.122231e+001	-1.150877e+001	-3.612305e+001	-1.152217e+001	-3.598794e+001	-1.916526e+000	1.136790e+001
12.885	-1.918345e+000	1.123045e+001	-1.153722e+001	-3.636138e+001	-1.155033e+001	-3.622592e+001	-1.901368e+000	1.137618e+001
13.023	-1.903130e+000	1.123765e+001	-1.156548e+001	-3.660000e+001	-1.157882e+001	-3.646386e+001	-1.886291e+000	1.138370e+001
13.160	-1.888307e+000	1.124429e+001	-1.159419e+001	-3.683447e+001	-1.160706e+001	-3.669950e+001	-1.871551e+000	1.139058e+001
13.298	-1.873306e+000	1.125017e+001	-1.162264e+001	-3.707168e+001	-1.163584e+001	-3.693489e+001	-1.856779e+000	1.139616e+001
13.435	-1.858510e+000	1.125496e+001	-1.165129e+001	-3.730547e+001	-1.166445e+001	-3.716966e+001	-1.841977e+000	1.140134e+001
13.572	-1.843884e+000	1.125913e+001	-1.168000e+001	-3.753803e+001	-1.169314e+001	-3.740237e+001	-1.827391e+000	1.140538e+001
13.733	-1.827007e+000	1.125330e+001	-1.171684e+001	-3.778893e+001	-1.172622e+001	-3.767601e+001	-1.810501e+000	1.141107e+001
13.923	-1.806902e+000	1.126641e+001	-1.175341e+001	-3.812872e+001	-1.176655e+001	-3.799223e+001	-1.790680e+000	1.141307e+001
14.112	-1.787068e+000	1.126758e+001	-1.179353e+001	-3.844349e+001	-1.180649e+001	-3.830670e+001	-1.771065e+000	1.141459e+001
14.302	-1.767574e+000	1.126790e+001	-1.183387e+001	-3.876010e+001	-1.184649e+001	-3.862243e+001	-1.751381e+000	1.141574e+001
14.492	-1.748087e+000	1.126721e+001	-1.187394e+001	-3.907170e+001	-1.188660e+001	-3.893398e+001	-1.732073e+000	1.141508e+001
14.682	-1.728889e+000	1.126517e+001	-1.191437e+001	-3.938062e+001	-1.192690e+001	-3.924340e+001	-1.712918e+000	1.141324e+001
14.872	-1.709801e+000	1.126078e+001	-1.195503e+001	-3.968878e+001	-1.196734e+001	-3.955128e+001	-1.694009e+000	1.141002e+001
15.062	-1.690969e+000	1.125606e+001	-1.199579e+001	-3.999526e+001	-1.200776e+001	-3.985835e+001	-1.675226e+000	1.140559e+001
15.251	-1.672266e+000	1.124980e+001	-1.203651e+001	-4.029611e+001	-1.204821e+001	-4.015983e+001	-1.656679e+000	1.139983e+001
15.441	-1.653795e+000	1.124191e+001	-1.207763e+001	-4.059892e+001	-1.208902e+001	-4.046214e+001	-1.638261e+000	1.139307e+001
15.631	-1.635562e+000	1.123388e+001	-1.211864e+001	-4.089646e+001	-1.212961e+001	-4.076130e+001	-1.620035e+000	1.138607e+001
15.821	-1.617529e+000	1.122457e+001	-1.215981e+001	-4.119187e+001	-1.217036e+001	-4.105825e+001	-1.602052e+000	1.137716e+001
16.011	-1.599592e+000	1.121324e+001	-1.220108e+001	-4.148510e+001	-1.221125e+001	-4.135175e+001	-1.584277e+000	1.136737e+001
16.201	-1.582079e+000	1.120171e+001	-1.224236e+001	-4.177522e+001	-1.225217e+001	-4.164252e+001	-1.566744e+000	1.135659e+001
16.391	-1.564576e+000	1.118933e+001	-1.228365e+001	-4.206556e+001	-1.229316e+001	-4.193443e+001	-1.549306e+000	1.134435e+001
16.580	-1.547414e+000	1.117575e+001	-1.232484e+001	-4.235195e+001	-1.233392e+001	-4.222188e+001	-1.532069e+000	1.133192e+001
16.770	-1.530336e+000	1.116107e+001	-1.236630e+001	-4.263547e+001	-1.237512e+001	-4.250680e+001	-1.515087e+000	1.131807e+001
16.960	-1.513400e+000	1.114542e+001	-1.240778e+001	-4.291600e+001	-1.241619e+001	-4.278849e+001	-1.498305e+000	1.130332e+001
17.150	-1.496648e+000	1.111291e+001	-1.245658e+001	-4.316464e+001	-1.246437e+001	-4.304049e+001	-1.481513e+000	1.127291e+001
17.340	-1.480269e+000	1.111238e+001	-1.249085e+001	-4.347218e+001	-1.249827e+001	-4.334729e+001	-1.465254e+000	1.127211e+001
17.530	-1.464020e+000	1.109478e+001	-1.253232e+001	-4.374764e+001	-1.253952e+001	-4.362358e+001	-1.449074e+000	1.125537e+001
17.720	-1.448007e+000	1.107622e+001	-1.257388e+001	-4.401965e+001	-1.258079e+001	-4.389752e+001	-1.432959e+000	1.123681e+001
17.909	-1.432139e+000	1.105635e+001	-1.261556e+001	-4.429085e+001	-1.262212e+001	-4.416840e+001	-1.417162e+000	1.121780e+001
18.099	-1.416502e+000	1.103646e+001	-1.265713e+001	-4.455862e+001	-1.266336e+001	-4.443793e+001	-1.401460e+000	1.119893e+001
18.289	-1.400898e+000	1.101550e+001	-1.269887e+001	-4.482450e+001	-1.270484e+001	-4.470483e+001	-1.385894e+000	1.117829e+001
18.479	-1.385650e+000	1.099409e+001	-1.274053e+001	-4.508781e+001	-1.274609e+001	-4.496967e+001	-1.370677e+000	1.115814e+001
18.669	-1.370558e+000	1.097149e+001	-1.278226e+001	-4.534851e+001	-1.278755e+001	-4.523074e+001	-1.355635e+000	1.113664e+001
18.859	-1.355625e+000	1.094882e+001	-1.282393e+001	-4.560770e+001	-1.282919e+001	-4.549191e+001	-1.340679e+000	1.111385e+001
19.082	-1.341124e+000	1.087150e+001	-1.289134e+001	-4.575047e+001	-1.289683e+001	-4.563383e+001	-1.326116e+000	1.103645e+001
19.344	-1.318345e+000	1.088909e+001	-1.293043e+001	-4.626281e+001	-1.293528e+001	-4.614768e+001	-1.303319e+000	1.105501e+001
19.606	-1.298836e+000	1.085576e+001	-1.298764e+001	-4.660618e+001	-1.299227e+001	-4.649243e+001	-1.283879e+000	1.102115e+001
19.868	-1.279456e+000	1.082148e+001	-1.304511e+001	-4.695231e+001	-1.304954e+001	-4.683915e+001	-1.264460e+000	1.098699e+001
20.130	-1.260622e+000	1.078553e+001	-1.310229e+001	-4.729043e+001	-1.310658e+001	-4.717733e+001	-1.245558e+000	1.095216e+001
20.392	-1.241938e+000	1.074898e+001	-1.315962e+001	-4.762310e+001	-1.316372e+001	-4.751075e+001	-1.226972e+000	1.091586e+001
20.655	-1.223593e+000	1.071149e+001	-1.321687e+001	-4.795422e+001	-1.322091e+001	-4.784214e+001	-1.208668e+000	1.087943e+001
20.917	-1.205745e+000	1.067371e+001	-1.327423e+001	-4.828084e+001	-1.327791e+001	-4.817096e+001	-1.190682e+000	1.084183e+001
21.179	-1.187987e+000	1.063421e+001	-1.333166e+001	-4.860193e+001	-1.333533e+001	-4.849229e+001	-1.172974e+000	1.080269e+001
21.441	-1.170697e+000	1.059524e+001	-1.338838e+001	-4.892234e+001	-1.339189e+001	-4.881293e+001	-1.155688e+000	1.076451e+001
21.703	-1.153663e+000	1.055497e+001	-1.344546e+001	-4.923430e+001	-1.344876e+001	-4.912638e+001	-1.138750e+000	1.072421e+001
21.965	-1.137001e+000	1.051417e+001	-1.350246e+001	-4.954440e+001	-1.350567e+001	-4.943679e+001	-1.121942e+000	1.068404e+001
22.228	-1.120563e+000	1.047340e+001	-1.355930e+001	-4.985143e+001	-1.356259e+001	-4.974727e+001	-1.105455e+000	1.064267e+001
22.490	-1.104460e+000	1.043222e+001	-1.361582e+001	-5.015582e+001	-1.361873e+001	-5.004948e+001	-1.089344e+000	1.060218e+001
22.752	-1.088417e+000	1.039012e+001	-1.367275e+001	-5.045593e+001	-1.367557e+001	-5.035023e+001	-1.073492e+000	1.056033e+001
23.014	-1.073070e+000	1.034832e+001	-1.372913e+001	-5.075020e+001	-1.373170e+001	-5.064602e+001	-1.058004e+000	1.051835e+001
23.276	-1.057749e+000	1.030507e+001	-1.378571e+001	-5.104112e+001	-1.378825e+001	-5.093721e+001	-1.042711e+000	1.047568e+001
23.538	-1.042715e+000	1.026176e+001	-1.384208e+001	-5.132968e+001	-1.384453e+001	-5.122735e+001	-1.027667e+000	1.043281e+001
23.801	-1.027941e+000	1.021859e+001	-1.389812e+001	-5.161445e+001	-1.390060e+001	-5.151257e+001	-1.012957e+000	1.038984e+001
24.063	-1.013499e+000	1.017571e+001	-1.395398e+001	-5.189582e+001	-1.395632e+001	-5.179384e+001	-9.984383e-001	1.034690e+001
24.325	-9.992955e-001	1.013212e+001	-1.400988e+001	-5.217598e+001	-1.401217e+001	-5.207386e+001	-9.841603e-001	1.030334e+001
24.587	-9.853716e-001	1.008791e+001	-1.406562e+001	-5.244899e+001	-1.406779e+001	-5.234776e+001	-9.702791e-001	1.025926e+001
24.849	-9.715936e-001	1.004375e+001	-1.412157e+001	-5.271940e+001	-1.412343e+001	-5.261876e+001	-9.565298e-001	1.021530e+001
25.111	-9.581167e-001	9.999732e+000	-1.417673e+001	-5.298729e+001	-1.417885e+001	-5.288738e+001	-9.431199e-001	1.017119e+001
25.374	-9.449762e-001	9.955395e+000	-1.423217e+001	-5.325174e+001	-1.423410e+001	-5.315153e+001	-9.298663e-001	1.012707e+001
25.636	-9.320614e-001	9.910997e+000	-1.428735e+001	-5.351296e+001	-1.428929e+001	-5.341338e+001	-9.169855e-001	1.008263e+001
25.898	-9.193321e-001	9.866602e+000	-1.434216e+001	-5.377185e+001	-1.434411e+001	-5.367153e+001	-9.042699e-001	1.003858e+001
26.204	-9.070792e-001	9.790698e+000	-1.441701e+001	-5.395310e+001	-1.441864e+001	-5.386040e+001	-8.917234e-001	9.963387e+000
26.564	-8.880026e-001	9.753645e+000	-1.448146e+001	-5.441571e+001	-1.448335e+001	-5.431604e+001	-8.728850e-001	9.924878e+000
26.924	-8.715988e-001	9.692082e+000	-1.455647e+001	-5.475480e+001	-1.455856e+001	-5.465601e+001	-8.565085e-001	9.863651e+000
27.284	-8.555690e-001	9.630596e+000	-1.463074e+001	-5.508437e+001	-1.463298e+001	-5.498559e+001	-8.406721e-001	9.801919e+000
27.644	-8.401610e-001	9.569957e+000	-1.470497e+001	-5.541650e+001	-1.470681e+001	-5.531862e+001	-8.249865e-001	9.741011e+000
28.004	-8.250300e-001	9.508219e+000	-1.477846e+001	-5.573522e+001	-1.478044e+001	-5.563514e+001	-8.098598e-001	9.679685e+000
28.364	-8.101707e-001	9.446630e+000	-1.485258e+001	-5.605214e+001	-1.485453e+001	-5.595407e+001	-7.950303e-001	9.617818e+000
28.724	-7.956703e-001	9.385423e+000	-1.492576e+001	-5.636636e+001	-1.492773e+001	-5.626781e+001	-7.805680e-001	9.556399e+000
29.084	-7.814986e-001	9.324943e+000	-1.499872e+001	-5.667175e+001	-1.500065e+001	-5.657427e+001	-7.664501e-001	9.496064e+000
29.444	-7.678002e-001	9.264903e+000	-1.507068e+001	-5.697238e+001	-1.507279e+001	-5.687250e+001	-7.527740e-001	9.436683e+000
29.804	-7.545539e-001	9.205056e+000	-1.514268e+001	-5.727130e+001	-1.514426e+001	-5.717081e+001	-7.393030e-001	9.377504e+000
30.164	-7.412309e-001	9.145517e+000	-1.521488e+001	-5.756353e+001	-1.521683e+001	-5.746406e+001	-7.261283e-001	9.316689e+000
30.524	-7.285631e-001	9.085243e+000	-1.528592e+001	-5.785158e+001	-1.528759e+001	-5.775131e+001	-7.133659e-001	9.257124e+000
30.884	-7.160253e-001	9.024902e+000	-1.535728e+001	-5.813017e+001	-1.535924e+001	-5.803192e+001	-7.009514e-001	9.196380e+000
31.244	-7.037987e-001	8.965426e+000	-1.542841e+001	-5.840815e+001	-1.542997e+001	-5.831014e+001	-6.887118e-001	9.136651e+000
31.605	-6.917723e-001	8.906421e+000	-1.549845e+001	-5.868295e+001	-1.550057e+001	-5.858472e+001	-6.768421e-001	9.077650e+000
31.965	-6.801525e-001	8.848096e+000	-1.556832e+001	-5.895167e+001	-1.557031e+001	-5.885351e+001	-6.652049e-001	9.019709e+000
32.325	-6.687877e-001	8.790445e+000	-1.563782e+001	-5.921842e+001	-1.563962e+001	-5.911981e+001	-6.538529e-001	8.962043e+000
32.685	-6.575041e-001	8.732614e+000	-1.570738e+001	-5.948110e+001	-1.570935e+001	-5.938183e+001	-6.425809e-001	8.903751e+000
33.045	-6.468875e-001	8.675516e+000	-1.577614e+001	-5.973631e+001	-1.577783e+001	-5.963670e+001	-6.317644e-001	8.846581e+000
33.405	-6.363077e-001	8.618235e+000	-1.584506e+001	-5.998849e+001	-1.584678e+001	-5.988954e+001	-6.212178e-001	8.789501e+000
33.765	-6.258103e-001	8.561478e+000	-1.591329e+001	-6.023732e+001	-1.591496e+001	-6.013892e+001	-6.108180e-001	8.733514e+000
34.125	-6.157145e-001	8.505121e+000	-1.598138e+001	-6.048335e+001	-1.598311e+001	-6.038427e+001	-6.007510e-001	8.677178e+000
34.485	-6.058807e-001	8.449687e+000	-1.604884e+001	-6.072332e+001	-1.605067e+001	-6.062658e+001	-5.908404e-001	8.620823e+000
34.845	-5.962784e-001	8.394553e+000	-1.611551e+001	-6.096075e+001	-1.611742e+001	-6.086348e+001	-5.812066e-001	8.565882e+000
35.205	-5.866682e-001	8.340755e+000	-1.618223e+001	-6.119568e+001	-1.618416e+001	-6.109906e+001	-5.716377e-001	8.511312e+000
35.565	-5.774867e-001	8.285665e+000	-1.624893e+001	-6.142476e+001	-1.625092e+001	-6.132676e+001	-5.625007e-001	8.456528e+000
35.985	-5.629399e-001	8.245368e+000	-1.631468e+001	-6.188663e+001	-1.631672e+001	-6.178671e+001	-5.481227e-001	8.416310e+000
36.483	-5.549021e-001	8.149414e+000	-1.641666e+001	-6.199970e+001	-1.641862e+001	-6.190357e+001	-5.399622e-001	8.320924e+000
36.980	-5.430631e-001	8.076615e+000	-1.650714e+001	-6.230291e+001	-1.650896e+001	-6.220384e+001	-5.282144e-001	8.247586e+000
37.478	-5.316598e-001	8.004898e+000	-1.659588e+001	-6.259097e+001	-1.659831e+001	-6.249284e+001	-5.170046e-001	8.175244e+000
37.975	-5.208211e-001	7.934184e+000	-1.668450e+001	-6.288613e+001	-1.668708e+001	-6.278801e+001	-5.058094e-001	8.104552e+000
38.473	-5.101261e-001	7.864171e+000	-1.677217e+001	-6.316277e+001	-1.677463e+001	-6.306566e+001	-4.952199e-001	8.035405e+000
38.970	-4.996093e-001	7.793897e+000	-1.686020e+001	-6.344046e+001	-1.686261e+001	-6.334129e+001	-4.848642e-001	7.964732e+000
39.468	-4.895184e-001	7.725336e+000	-1.694707e+001	-6.371346e+001	-1.694950e+001	-6.361577e+001	-4.748985e-001	7.896391e+000
39.965	-4.797635e-001	7.658435e+000	-1.703310e+001	-6.397952e+001	-1.703530e+001	-6.387935e+001	-4.650526e-001	7.829655e+000
40.463	-4.702417e-001	7.591394e+000	-1.711821e+001	-6.424008e+001	-1.711995e+001	-6.414111e+001	-4.555432e-001	7.762955e+000
40.960	-4.610903e-001	7.525456e+000	-1.720308e+001	-6.450001e+001	-1.720485e+001	-6.440410e+001	-4.462498e-001	7.697551e+000
41.458	-4.520711e-001	7.459780e+000	-1.728752e+001	-6.474757e+001	-1.728948e+001	-6.464986e+001	-4.372457e-001	7.631909e+000
41.955	-4.433627e-001	7.395586e+000	-1.737057e+001	-6.499934e+001	-1.737223e+001	-6.490224e+001	-4.283943e-001	7.568901e+000
42.452	-4.350694e-001	7.333715e+000	-1.745330e+001	-6.523789e+001	-1.745517e+001	-6.514014e+001	-4.201113e-001	7.504938e+000
42.950	-4.268386e-001	7.270767e+000	-1.753573e+001	-6.547379e+001	-1.753748e+001	-6.537524e+001	-4.118773e-001	7.442871e+000
43.447	-4.187140e-001	7.209559e+000	-1.761719e+001	-6.570574e+001	-1.761887e+001	-6.560819e+001	-4.037209e-001	7.381231e+000
43.945	-4.109457e-001	7.147746e+000	-1.769833e+001	-6.593780e+001	-1.769972e+001	-6.583877e+001	-3.959946e-001	7.320517e+000
44.442	-4.032786e-001	7.088850e+000	-1.777903e+001	-6.616082e+001	-1.778075e+001	-6.606142e+001	-3.884435e-001	7.260231e+000
44.940	-3.961409e-001	7.030123e+000	-1.785853e+001	-6.637772e+001	-1.786071e+001	-6.627733e+001	-3.812017e-001	7.201425e+000
45.437	-3.887445e-001	6.971208e+000	-1.793782e+001	-6.659596e+001	-1.794023e+001	-6.649777e+001	-3.739135e-001	7.142898e+000
45.935	-3.817936e-001	6.914092e+000	-1.801582e+001	-6.680899e+001	-1.801824e+001	-6.670989e+001	-3.669834e-001	7.085392e+000
46.432	-3.749839e-001	6.856711e+000	-1.809380e+001	-6.701516e+001	-1.809654e+001	-6.691472e+001	-3.602287e-001	7.028653e+000
46.930	-3.684529e-001	6.801921e+000	-1.817155e+001	-6.722161e+001	-1.817356e+001	-6.711936e+001	-3.537009e-001	6.972983e+000
47.427	-3.619168e-001	6.746244e+000	-1.824895e+001	-6.742167e+001	-1.824986e+001	-6.732297e+001	-3.470442e-001	6.918743e+000
47.925	-3.557173e-001	6.691355e+000	-1.832569e+001	-6.761363e+001	-1.832728e+001	-6.752411e+001	-3.408071e-001	6.863419e+000
48.422	-3.495997e-001	6.638261e+000	-1.840040e+001	-6.780867e+001	-1.840326e+001	-6.771051e+001	-3.346976e-001	6.808515e+000
48.920	-3.434568e-001	6.584330e+000	-1.847673e+001	-6.800284e+001	-1.847766e+001	-6.790499e+001	-3.287334e-001	6.756438e+000
49.417	-3.377617e-001	6.532934e+000	-1.855018e+001	-6.818627e+001	-1.855311e+001	-6.809288e+001	-3.229495e-001	6.703551e+000
50.001	-3.344799e-001	6.459151e+000	-1.864472e+001	-6.818797e+001	-1.864716e+001	-6.810693e+001	-3.196097e-001	6.631607e+000
50.688	-3.235366e-001	6.402060e+000	-1.873909e+001	-6.864072e+001	-1.874215e+001	-6.855598e+001	-3.087165e-001	6.573130e+000
51.375	-3.160688e-001	6.333870e+000	-1.883883e+001	-6.889265e+001	-1.884320e+001	-6.880079e+001	-3.012921e-001	6.504104e+000
52.062	-3.088950e-001	6.266164e+000	-1.893872e+001	-6.914075e+001	-1.894126e+001	-6.903020e+001	-2.943296e-001	6.437921e+000
52.749	-3.021650e-001	6.199646e+000	-1.903908e+001	-6.937076e+001	-1.903784e+001	-6.927023e+001	-2.873881e-001	6.372639e+000
53.436	-2.958436e-001	6.133827e+000	-1.913508e+001	-6.957976e+001	-1.913787e+001	-6.950718e+001	-2.806168e-001	6.305633e+000
54.123	-2.891170e-001	6.072916e+000	-1.923008e+001	-6.981322e+001	-1.923384e+001	-6.969508e+001	-2.747197e-001	6.242158e+000
54.810	-2.833907e-001	6.008899e+000	-1.932781e+001	-7.001586e+001	-1.932699e+001	-6.994524e+001	-2.680254e-001	6.181744e+000
55.497	-2.768877e-001	5.948266e+000	-1.942051e+001	-7.024604e+001	-1.942429e+001	-7.012197e+001	-2.625277e-001	6.118739e+000
56.184	-2.715780e-001	5.886486e+000	-1.951513e+001	-7.043055e+001	-1.951807e+001	-7.036781e+001	-2.561702e-001	6.058694e+000
56.871	-2.656176e-001	5.827695e+000	-1.960962e+001	-7.065520e+001	-1.960650e+001	-7.054714e+001	-2.510973e-001	6.002034e+000
57.558	-2.601855e-001	5.771456e+000	-1.969794e+001	-7.085725e+001	-1.970195e+001	-7.072907e+001	-2.458689e-001	5.940811e+000
58.245	-2.551506e-001	5.715466e+000	-1.978749e+001	-7.102913e+001	-1.979571e+001	-7.094270e+001	-2.401426e-001	5.883091e+000
58.932	-2.501496e-001	5.656690e+000	-1.987980e+001	-7.120997e+001	-1.988533e+001	-7.114791e+001	-2.348629e-001	5.827705e+000
59.619	-2.452483e-001	5.600879e+000	-1.997149e+001	-7.139015e+001	-1.997397e+001	-7.133674e+001	-2.298646e-001	5.773143e+000
60.306	-2.406192e-001	5.547013e+000	-2.005920e+001	-7.157165e+001	-2.006158e+001	-7.151879e+001	-2.251407e-001	5.720353e+000
60.993	-2.358855e-001	5.494011e+000	-2.014623e+001	-7.175027e+001	-2.015048e+001	-7.169295e+001	-2.205197e-001	5.666012e+000
61.680	-2.313913e-001	5.443843e+000	-2.023000e+001	-7.193812e+001	-2.023956e+001	-7.185356e+001	-2.162716e-001	5.612636e+000
62.367	-2.266075e-001	5.391696e+000	-2.031795e+001	-7.213295e+001	-2.032419e+001	-7.200339e+001	-2.122357e-001	5.561731e+000
63.054	-2.223233e-001	5.338888e+000	-2.040757e+001	-7.229363e+001	-2.040517e+001	-7.218081e+001	-2.078612e-001	5.514085e+000
