!Agilent Technologies,E5061B,MY49204007,A.02.12
!Date: Wed Jul 23 11:14:51 2025
!Data & Calibration Information:
!Freq	S11:SOLT2(ON)	S21:SOLT2(ON)	S12:SOLT2(ON)	S22:SOLT2(ON)
# Hz S dB R 50
10.000	-2.608334e+000	1.182559e+001	-1.004131e+001	-2.905708e+001	-1.003301e+001	-2.896675e+001	-2.594010e+000	1.203573e+001
10.137	-2.590494e+000	1.186389e+001	-1.006452e+001	-2.930465e+001	-1.005630e+001	-2.921800e+001	-2.575845e+000	1.207224e+001
10.275	-2.572293e+000	1.189988e+001	-1.008798e+001	-2.955423e+001	-1.007988e+001	-2.947065e+001	-2.557700e+000	1.210792e+001
10.412	-2.554329e+000	1.193590e+001	-1.011153e+001	-2.980389e+001	-1.010353e+001	-2.972204e+001	-2.539594e+000	1.214276e+001
10.550	-2.536359e+000	1.197027e+001	-1.013530e+001	-3.005470e+001	-1.012753e+001	-2.997261e+001	-2.521614e+000	1.217675e+001
10.687	-2.518467e+000	1.200310e+001	-1.015912e+001	-3.030580e+001	-1.015150e+001	-3.022252e+001	-2.503590e+000	1.220959e+001
10.824	-2.500718e+000	1.203631e+001	-1.018306e+001	-3.055595e+001	-1.017556e+001	-3.047354e+001	-2.485619e+000	1.224160e+001
10.962	-2.482787e+000	1.206738e+001	-1.020710e+001	-3.080482e+001	-1.019971e+001	-3.072168e+001	-2.467809e+000	1.227255e+001
11.099	-2.465129e+000	1.209821e+001	-1.023114e+001	-3.105458e+001	-1.022398e+001	-3.097261e+001	-2.449939e+000	1.230274e+001
11.237	-2.447327e+000	1.212671e+001	-1.025538e+001	-3.130209e+001	-1.024847e+001	-3.121955e+001	-2.432286e+000	1.233123e+001
11.374	-2.429670e+000	1.215492e+001	-1.027984e+001	-3.154966e+001	-1.027301e+001	-3.146649e+001	-2.414534e+000	1.235916e+001
11.511	-2.412019e+000	1.218190e+001	-1.030427e+001	-3.179662e+001	-1.029765e+001	-3.171344e+001	-2.396786e+000	1.238547e+001
11.649	-2.394468e+000	1.220812e+001	-1.032886e+001	-3.204283e+001	-1.032254e+001	-3.195956e+001	-2.379164e+000	1.241131e+001
11.786	-2.377097e+000	1.223286e+001	-1.035363e+001	-3.228923e+001	-1.034738e+001	-3.220558e+001	-2.361646e+000	1.243505e+001
11.924	-2.359769e+000	1.225718e+001	-1.037844e+001	-3.253372e+001	-1.037237e+001	-3.245100e+001	-2.344212e+000	1.245876e+001
12.061	-2.342311e+000	1.227924e+001	-1.040341e+001	-3.277735e+001	-1.039748e+001	-3.269382e+001	-2.326767e+000	1.248094e+001
12.198	-2.325107e+000	1.230095e+001	-1.042830e+001	-3.302086e+001	-1.042254e+001	-3.293843e+001	-2.309390e+000	1.250164e+001
12.336	-2.307982e+000	1.232115e+001	-1.045359e+001	-3.326277e+001	-1.044785e+001	-3.318003e+001	-2.292113e+000	1.252192e+001
12.473	-2.290879e+000	1.234040e+001	-1.047902e+001	-3.350475e+001	-1.047341e+001	-3.342111e+001	-2.275007e+000	1.254083e+001
12.611	-2.273868e+000	1.235866e+001	-1.050442e+001	-3.374586e+001	-1.049887e+001	-3.366157e+001	-2.257905e+000	1.255911e+001
12.748	-2.256879e+000	1.237596e+001	-1.052989e+001	-3.398517e+001	-1.052443e+001	-3.390138e+001	-2.240840e+000	1.257596e+001
12.885	-2.239996e+000	1.239243e+001	-1.055563e+001	-3.422388e+001	-1.055017e+001	-3.414021e+001	-2.223938e+000	1.259182e+001
13.023	-2.223187e+000	1.240852e+001	-1.058124e+001	-3.446184e+001	-1.057629e+001	-3.437822e+001	-2.207103e+000	1.260686e+001
13.160	-2.206604e+000	1.242217e+001	-1.060708e+001	-3.469797e+001	-1.060211e+001	-3.461489e+001	-2.190425e+000	1.262036e+001
13.298	-2.189909e+000	1.243554e+001	-1.063298e+001	-3.493514e+001	-1.062840e+001	-3.485053e+001	-2.173788e+000	1.263332e+001
13.435	-2.173427e+000	1.244834e+001	-1.065893e+001	-3.516936e+001	-1.065447e+001	-3.508553e+001	-2.157266e+000	1.264613e+001
13.572	-2.157015e+000	1.245983e+001	-1.068489e+001	-3.540355e+001	-1.068061e+001	-3.531854e+001	-2.140796e+000	1.265758e+001
13.733	-2.137877e+000	1.246175e+001	-1.071855e+001	-3.565884e+001	-1.071104e+001	-3.559179e+001	-2.121835e+000	1.267036e+001
13.923	-2.115639e+000	1.248504e+001	-1.075181e+001	-3.599526e+001	-1.074813e+001	-3.590963e+001	-2.099432e+000	1.268194e+001
14.112	-2.093327e+000	1.249543e+001	-1.078824e+001	-3.631092e+001	-1.078476e+001	-3.622628e+001	-2.077281e+000	1.269179e+001
14.302	-2.071400e+000	1.250513e+001	-1.082509e+001	-3.662819e+001	-1.082155e+001	-3.654351e+001	-2.055110e+000	1.270125e+001
14.492	-2.049588e+000	1.251282e+001	-1.086172e+001	-3.694198e+001	-1.085835e+001	-3.685632e+001	-2.033399e+000	1.270899e+001
14.682	-2.027987e+000	1.251879e+001	-1.089885e+001	-3.725255e+001	-1.089553e+001	-3.716701e+001	-2.011760e+000	1.271481e+001
14.872	-2.006607e+000	1.252309e+001	-1.093604e+001	-3.756188e+001	-1.093280e+001	-3.747688e+001	-1.990362e+000	1.271864e+001
15.062	-1.985289e+000	1.252616e+001	-1.097336e+001	-3.786981e+001	-1.097021e+001	-3.778476e+001	-1.969047e+000	1.272133e+001
15.251	-1.964302e+000	1.252775e+001	-1.101067e+001	-3.817268e+001	-1.100775e+001	-3.808793e+001	-1.948111e+000	1.272242e+001
15.441	-1.943457e+000	1.252748e+001	-1.104842e+001	-3.847737e+001	-1.104542e+001	-3.839243e+001	-1.927085e+000	1.272196e+001
15.631	-1.922905e+000	1.252694e+001	-1.108595e+001	-3.877811e+001	-1.108319e+001	-3.869304e+001	-1.906488e+000	1.272084e+001
15.821	-1.902421e+000	1.252450e+001	-1.112372e+001	-3.907677e+001	-1.112097e+001	-3.899193e+001	-1.886088e+000	1.271764e+001
16.011	-1.882133e+000	1.252055e+001	-1.116150e+001	-3.937254e+001	-1.115911e+001	-3.928715e+001	-1.865813e+000	1.271366e+001
16.201	-1.862202e+000	1.251470e+001	-1.119937e+001	-3.966636e+001	-1.119707e+001	-3.958039e+001	-1.845831e+000	1.270829e+001
16.391	-1.842381e+000	1.250877e+001	-1.123760e+001	-3.995912e+001	-1.123517e+001	-3.987385e+001	-1.825920e+000	1.270131e+001
16.580	-1.822937e+000	1.250117e+001	-1.127566e+001	-4.024896e+001	-1.127325e+001	-4.016297e+001	-1.806321e+000	1.269371e+001
16.770	-1.803508e+000	1.249189e+001	-1.131394e+001	-4.053617e+001	-1.131172e+001	-4.044979e+001	-1.786920e+000	1.268436e+001
16.960	-1.784311e+000	1.248156e+001	-1.135222e+001	-4.082084e+001	-1.135007e+001	-4.073500e+001	-1.767782e+000	1.267411e+001
17.150	-1.764918e+000	1.245237e+001	-1.139783e+001	-4.107579e+001	-1.139574e+001	-4.099129e+001	-1.748401e+000	1.264513e+001
17.340	-1.746457e+000	1.245853e+001	-1.142893e+001	-4.138551e+001	-1.142703e+001	-4.130022e+001	-1.730018e+000	1.265078e+001
17.530	-1.727955e+000	1.244571e+001	-1.146739e+001	-4.166488e+001	-1.146550e+001	-4.157863e+001	-1.711483e+000	1.263748e+001
17.720	-1.709589e+000	1.243159e+001	-1.150592e+001	-4.194082e+001	-1.150413e+001	-4.185554e+001	-1.693066e+000	1.262236e+001
17.909	-1.691453e+000	1.241571e+001	-1.154463e+001	-4.221508e+001	-1.154284e+001	-4.212893e+001	-1.675026e+000	1.260724e+001
18.099	-1.673494e+000	1.240010e+001	-1.158317e+001	-4.248720e+001	-1.158147e+001	-4.240053e+001	-1.657006e+000	1.259147e+001
18.289	-1.655729e+000	1.238285e+001	-1.162205e+001	-4.275767e+001	-1.162029e+001	-4.267098e+001	-1.639156e+000	1.257342e+001
18.479	-1.638201e+000	1.236519e+001	-1.166071e+001	-4.302563e+001	-1.165904e+001	-4.293868e+001	-1.621700e+000	1.255588e+001
18.669	-1.620915e+000	1.234605e+001	-1.169950e+001	-4.329161e+001	-1.169800e+001	-4.320434e+001	-1.604356e+000	1.253653e+001
18.859	-1.603761e+000	1.232671e+001	-1.173850e+001	-4.355554e+001	-1.173695e+001	-4.346785e+001	-1.587187e+000	1.251745e+001
19.082	-1.586498e+000	1.224812e+001	-1.180233e+001	-4.371926e+001	-1.180129e+001	-4.363057e+001	-1.569931e+000	1.243781e+001
19.344	-1.561068e+000	1.227415e+001	-1.183838e+001	-4.421954e+001	-1.183685e+001	-4.413363e+001	-1.544311e+000	1.246329e+001
19.606	-1.538514e+000	1.224350e+001	-1.189180e+001	-4.456970e+001	-1.189042e+001	-4.448350e+001	-1.521819e+000	1.243202e+001
19.868	-1.516234e+000	1.221145e+001	-1.194570e+001	-4.492201e+001	-1.194453e+001	-4.483444e+001	-1.499501e+000	1.240023e+001
20.130	-1.494546e+000	1.217822e+001	-1.199938e+001	-4.526563e+001	-1.199818e+001	-4.517814e+001	-1.477678e+000	1.236699e+001
20.392	-1.472991e+000	1.214387e+001	-1.205331e+001	-4.560501e+001	-1.205209e+001	-4.551739e+001	-1.456161e+000	1.233244e+001
20.655	-1.451915e+000	1.210831e+001	-1.210718e+001	-4.594251e+001	-1.210623e+001	-4.585549e+001	-1.435132e+000	1.229652e+001
20.917	-1.431037e+000	1.207151e+001	-1.216101e+001	-4.627741e+001	-1.216018e+001	-4.618950e+001	-1.414335e+000	1.226014e+001
21.179	-1.410508e+000	1.203393e+001	-1.221508e+001	-4.660437e+001	-1.221437e+001	-4.651653e+001	-1.393948e+000	1.222222e+001
21.441	-1.390497e+000	1.199654e+001	-1.226866e+001	-4.693127e+001	-1.226798e+001	-4.684263e+001	-1.373885e+000	1.218430e+001
21.703	-1.370822e+000	1.195688e+001	-1.232258e+001	-4.725068e+001	-1.232187e+001	-4.716248e+001	-1.354192e+000	1.214416e+001
21.965	-1.351464e+000	1.191664e+001	-1.237648e+001	-4.756828e+001	-1.237574e+001	-4.748017e+001	-1.334736e+000	1.210443e+001
22.228	-1.332410e+000	1.187587e+001	-1.243026e+001	-4.788201e+001	-1.242963e+001	-4.779433e+001	-1.315681e+000	1.206291e+001
22.490	-1.313736e+000	1.183515e+001	-1.248389e+001	-4.819339e+001	-1.248336e+001	-4.810533e+001	-1.296891e+000	1.202212e+001
22.752	-1.295177e+000	1.179345e+001	-1.253775e+001	-4.850078e+001	-1.253728e+001	-4.841282e+001	-1.278377e+000	1.197910e+001
23.014	-1.277218e+000	1.175070e+001	-1.259096e+001	-4.880326e+001	-1.259060e+001	-4.871462e+001	-1.260363e+000	1.193706e+001
23.276	-1.259409e+000	1.170633e+001	-1.264472e+001	-4.910264e+001	-1.264444e+001	-4.901292e+001	-1.242609e+000	1.189344e+001
23.538	-1.241766e+000	1.166315e+001	-1.269818e+001	-4.939909e+001	-1.269801e+001	-4.931029e+001	-1.225087e+000	1.184944e+001
23.801	-1.224664e+000	1.161907e+001	-1.275152e+001	-4.969083e+001	-1.275134e+001	-4.960308e+001	-1.207881e+000	1.180517e+001
24.063	-1.207810e+000	1.157504e+001	-1.280466e+001	-4.998020e+001	-1.280440e+001	-4.989200e+001	-1.191016e+000	1.176040e+001
24.325	-1.191108e+000	1.153039e+001	-1.285793e+001	-5.026783e+001	-1.285778e+001	-5.017904e+001	-1.174275e+000	1.171592e+001
24.587	-1.174900e+000	1.148449e+001	-1.291095e+001	-5.054876e+001	-1.291074e+001	-5.046006e+001	-1.158058e+000	1.167033e+001
24.849	-1.158797e+000	1.143825e+001	-1.296418e+001	-5.082889e+001	-1.296411e+001	-5.073928e+001	-1.142099e+000	1.162418e+001
25.111	-1.143074e+000	1.139246e+001	-1.301699e+001	-5.110469e+001	-1.301704e+001	-5.101459e+001	-1.126420e+000	1.157806e+001
25.374	-1.127596e+000	1.134622e+001	-1.306982e+001	-5.137726e+001	-1.306983e+001	-5.128720e+001	-1.110947e+000	1.153207e+001
25.636	-1.112415e+000	1.129962e+001	-1.312247e+001	-5.164612e+001	-1.312251e+001	-5.155658e+001	-1.095794e+000	1.148486e+001
25.898	-1.097371e+000	1.125333e+001	-1.317482e+001	-5.191342e+001	-1.317518e+001	-5.182309e+001	-1.080813e+000	1.143834e+001
26.204	-1.083400e+000	1.116668e+001	-1.324835e+001	-5.208742e+001	-1.324836e+001	-5.200416e+001	-1.066400e+000	1.135179e+001
26.564	-1.060774e+000	1.113431e+001	-1.330816e+001	-5.257695e+001	-1.330833e+001	-5.248601e+001	-1.044089e+000	1.131851e+001
26.924	-1.041377e+000	1.106845e+001	-1.338008e+001	-5.292892e+001	-1.338045e+001	-5.283822e+001	-1.024779e+000	1.125264e+001
27.284	-1.022805e+000	1.100344e+001	-1.345148e+001	-5.326787e+001	-1.345183e+001	-5.317830e+001	-1.006145e+000	1.118749e+001
27.644	-1.004355e+000	1.093895e+001	-1.352245e+001	-5.361161e+001	-1.352292e+001	-5.352173e+001	-9.877153e-001	1.112235e+001
28.004	-9.866096e-001	1.087290e+001	-1.359316e+001	-5.394076e+001	-1.359367e+001	-5.385030e+001	-9.699085e-001	1.105698e+001
28.364	-9.691618e-001	1.080702e+001	-1.366444e+001	-5.426962e+001	-1.366496e+001	-5.417944e+001	-9.524385e-001	1.099021e+001
28.724	-9.520022e-001	1.074148e+001	-1.373488e+001	-5.459440e+001	-1.373523e+001	-5.450374e+001	-9.353680e-001	1.092522e+001
29.084	-9.354274e-001	1.067677e+001	-1.380486e+001	-5.491169e+001	-1.380543e+001	-5.482105e+001	-9.187530e-001	1.085937e+001
29.444	-9.192898e-001	1.061195e+001	-1.387443e+001	-5.522323e+001	-1.387506e+001	-5.513042e+001	-9.025443e-001	1.079539e+001
29.804	-9.034503e-001	1.054772e+001	-1.394361e+001	-5.553358e+001	-1.394434e+001	-5.543992e+001	-8.867468e-001	1.073137e+001
30.164	-8.878070e-001	1.048179e+001	-1.401356e+001	-5.583746e+001	-1.401422e+001	-5.574429e+001	-8.711251e-001	1.066486e+001
30.524	-8.727315e-001	1.041738e+001	-1.408178e+001	-5.613565e+001	-1.408257e+001	-5.604362e+001	-8.560430e-001	1.060015e+001
30.884	-8.580189e-001	1.035185e+001	-1.415089e+001	-5.642631e+001	-1.415159e+001	-5.633513e+001	-8.413148e-001	1.053442e+001
31.244	-8.434983e-001	1.028688e+001	-1.421952e+001	-5.671632e+001	-1.422022e+001	-5.662459e+001	-8.268932e-001	1.046931e+001
31.605	-8.294096e-001	1.022232e+001	-1.428750e+001	-5.700115e+001	-1.428847e+001	-5.690931e+001	-8.127674e-001	1.040508e+001
31.965	-8.155876e-001	1.015894e+001	-1.435502e+001	-5.728174e+001	-1.435578e+001	-5.718947e+001	-7.990177e-001	1.034180e+001
32.325	-8.021361e-001	1.009573e+001	-1.442223e+001	-5.755888e+001	-1.442311e+001	-5.746774e+001	-7.855392e-001	1.027792e+001
32.685	-7.887868e-001	1.003141e+001	-1.448972e+001	-5.783208e+001	-1.449074e+001	-5.773815e+001	-7.723297e-001	1.021487e+001
33.045	-7.760803e-001	9.969460e+000	-1.455614e+001	-5.810005e+001	-1.455714e+001	-5.800563e+001	-7.594589e-001	1.015182e+001
33.405	-7.635278e-001	9.905558e+000	-1.462317e+001	-5.836142e+001	-1.462419e+001	-5.826794e+001	-7.468414e-001	1.008861e+001
33.765	-7.510575e-001	9.844451e+000	-1.468957e+001	-5.862136e+001	-1.469043e+001	-5.852999e+001	-7.344303e-001	1.002667e+001
34.125	-7.389740e-001	9.782432e+000	-1.475524e+001	-5.887835e+001	-1.475612e+001	-5.878589e+001	-7.224323e-001	9.964190e+000
34.485	-7.273167e-001	9.720464e+000	-1.482084e+001	-5.913054e+001	-1.482191e+001	-5.903725e+001	-7.107789e-001	9.902592e+000
34.845	-7.157454e-001	9.660075e+000	-1.488583e+001	-5.937648e+001	-1.488709e+001	-5.928530e+001	-6.993308e-001	9.841281e+000
35.205	-7.044184e-001	9.599714e+000	-1.495076e+001	-5.962251e+001	-1.495193e+001	-5.953233e+001	-6.880002e-001	9.780415e+000
35.565	-6.935545e-001	9.539479e+000	-1.501557e+001	-5.986325e+001	-1.501673e+001	-5.977210e+001	-6.769666e-001	9.720361e+000
35.985	-6.766684e-001	9.494556e+000	-1.507938e+001	-6.032100e+001	-1.508064e+001	-6.022855e+001	-6.604085e-001	9.676081e+000
36.483	-6.664495e-001	9.388323e+000	-1.517861e+001	-6.046454e+001	-1.518000e+001	-6.037222e+001	-6.500377e-001	9.569039e+000
36.980	-6.523510e-001	9.306778e+000	-1.526683e+001	-6.078165e+001	-1.526816e+001	-6.068944e+001	-6.359883e-001	9.487332e+000
37.478	-6.389402e-001	9.227163e+000	-1.535350e+001	-6.108508e+001	-1.535500e+001	-6.099244e+001	-6.226228e-001	9.408622e+000
37.975	-6.255841e-001	9.148193e+000	-1.544028e+001	-6.139550e+001	-1.544148e+001	-6.130233e+001	-6.092012e-001	9.329258e+000
38.473	-6.129467e-001	9.069472e+000	-1.552539e+001	-6.168509e+001	-1.552717e+001	-6.159203e+001	-5.966565e-001	9.250706e+000
38.970	-6.003599e-001	8.991588e+000	-1.561154e+001	-6.197578e+001	-1.561284e+001	-6.188120e+001	-5.841700e-001	9.172477e+000
39.468	-5.884213e-001	8.915176e+000	-1.569657e+001	-6.226285e+001	-1.569797e+001	-6.217029e+001	-5.720210e-001	9.095334e+000
39.965	-5.766184e-001	8.839422e+000	-1.578060e+001	-6.254453e+001	-1.578196e+001	-6.244992e+001	-5.604400e-001	9.019941e+000
40.463	-5.653996e-001	8.764467e+000	-1.586358e+001	-6.281598e+001	-1.586491e+001	-6.272350e+001	-5.491200e-001	8.945596e+000
40.960	-5.542782e-001	8.691346e+000	-1.594657e+001	-6.309178e+001	-1.594816e+001	-6.299726e+001	-5.379350e-001	8.871449e+000
41.458	-5.434896e-001	8.617196e+000	-1.602947e+001	-6.335171e+001	-1.603079e+001	-6.325697e+001	-5.271390e-001	8.798147e+000
41.955	-5.330816e-001	8.545074e+000	-1.611093e+001	-6.361788e+001	-1.611232e+001	-6.352247e+001	-5.166571e-001	8.726403e+000
42.452	-5.230194e-001	8.475218e+000	-1.619161e+001	-6.386648e+001	-1.619295e+001	-6.377338e+001	-5.066857e-001	8.655380e+000
42.950	-5.131463e-001	8.404355e+000	-1.627243e+001	-6.411542e+001	-1.627371e+001	-6.401977e+001	-4.968215e-001	8.585449e+000
43.447	-5.036315e-001	8.334735e+000	-1.635251e+001	-6.436198e+001	-1.635380e+001	-6.426636e+001	-4.871586e-001	8.515874e+000
43.945	-4.941627e-001	8.266152e+000	-1.643218e+001	-6.460441e+001	-1.643310e+001	-6.450972e+001	-4.776703e-001	8.447173e+000
44.442	-4.849777e-001	8.198800e+000	-1.651145e+001	-6.484222e+001	-1.651292e+001	-6.474601e+001	-4.686513e-001	8.378976e+000
44.940	-4.762960e-001	8.132073e+000	-1.658950e+001	-6.507132e+001	-1.659086e+001	-6.497418e+001	-4.598569e-001	8.312460e+000
45.437	-4.674173e-001	8.065645e+000	-1.666749e+001	-6.530164e+001	-1.666875e+001	-6.520389e+001	-4.512199e-001	8.245969e+000
45.935	-4.590785e-001	8.000608e+000	-1.674415e+001	-6.552606e+001	-1.674564e+001	-6.543039e+001	-4.428558e-001	8.180864e+000
46.432	-4.509587e-001	7.936823e+000	-1.682077e+001	-6.574383e+001	-1.682226e+001	-6.564796e+001	-4.347480e-001	8.116899e+000
46.930	-4.429715e-001	7.872372e+000	-1.689697e+001	-6.596270e+001	-1.689844e+001	-6.586491e+001	-4.266973e-001	8.053597e+000
47.427	-4.350947e-001	7.810183e+000	-1.697278e+001	-6.617392e+001	-1.697447e+001	-6.607801e+001	-4.188680e-001	7.990123e+000
47.925	-4.276715e-001	7.748322e+000	-1.704843e+001	-6.638115e+001	-1.705018e+001	-6.628380e+001	-4.112814e-001	7.927903e+000
48.422	-4.202513e-001	7.687674e+000	-1.712227e+001	-6.658761e+001	-1.712397e+001	-6.648761e+001	-4.040412e-001	7.867353e+000
48.920	-4.129532e-001	7.626702e+000	-1.719688e+001	-6.678933e+001	-1.719836e+001	-6.669373e+001	-3.965917e-001	7.806873e+000
49.417	-4.059276e-001	7.568343e+000	-1.726961e+001	-6.698565e+001	-1.727140e+001	-6.688794e+001	-3.898118e-001	7.748277e+000
50.001	-4.025404e-001	7.482284e+000	-1.736411e+001	-6.697737e+001	-1.736629e+001	-6.688538e+001	-3.861336e-001	7.662007e+000
50.688	-3.888292e-001	7.419108e+000	-1.745582e+001	-6.747168e+001	-1.745810e+001	-6.737300e+001	-3.727981e-001	7.598510e+000
51.375	-3.798682e-001	7.340568e+000	-1.755452e+001	-6.773889e+001	-1.755659e+001	-6.763970e+001	-3.636740e-001	7.520252e+000
52.062	-3.713760e-001	7.264591e+000	-1.765297e+001	-6.799449e+001	-1.765418e+001	-6.789534e+001	-3.551090e-001	7.445188e+000
52.749	-3.631737e-001	7.188344e+000	-1.775049e+001	-6.823400e+001	-1.775232e+001	-6.814420e+001	-3.467608e-001	7.368270e+000
53.436	-3.553784e-001	7.113480e+000	-1.784599e+001	-6.847070e+001	-1.784853e+001	-6.837117e+001	-3.390199e-001	7.294023e+000
54.123	-3.475903e-001	7.042421e+000	-1.794137e+001	-6.870766e+001	-1.794241e+001	-6.860799e+001	-3.313147e-001	7.222206e+000
54.810	-3.402751e-001	6.971239e+000	-1.803513e+001	-6.893155e+001	-1.803800e+001	-6.883875e+001	-3.238950e-001	7.150078e+000
55.497	-3.328318e-001	6.899965e+000	-1.812956e+001	-6.916260e+001	-1.813085e+001	-6.906499e+001	-3.167511e-001	7.080284e+000
56.184	-3.259080e-001	6.832112e+000	-1.822074e+001	-6.937790e+001	-1.822419e+001	-6.927903e+001	-3.097905e-001	7.010351e+000
56.871	-3.192632e-001	6.762805e+000	-1.831429e+001	-6.959558e+001	-1.831606e+001	-6.950530e+001	-3.029108e-001	6.943029e+000
57.558	-3.124405e-001	6.697561e+000	-1.840417e+001	-6.981221e+001	-1.840511e+001	-6.971048e+001	-2.965552e-001	6.877967e+000
58.245	-3.062057e-001	6.633094e+000	-1.849334e+001	-7.001471e+001	-1.849516e+001	-6.990773e+001	-2.902603e-001	6.811960e+000
58.932	-3.000748e-001	6.567801e+000	-1.858259e+001	-7.021361e+001	-1.858603e+001	-7.010806e+001	-2.840613e-001	6.747252e+000
59.619	-2.940992e-001	6.503991e+000	-1.867225e+001	-7.040393e+001	-1.867554e+001	-7.030342e+001	-2.781360e-001	6.682611e+000
60.306	-2.885129e-001	6.442807e+000	-1.875904e+001	-7.059757e+001	-1.876251e+001	-7.049562e+001	-2.723679e-001	6.620726e+000
60.993	-2.827331e-001	6.381188e+000	-1.884627e+001	-7.078908e+001	-1.884979e+001	-7.068594e+001	-2.666678e-001	6.560167e+000
61.680	-2.771048e-001	6.321638e+000	-1.893227e+001	-7.098557e+001	-1.893463e+001	-7.087440e+001	-2.611633e-001	6.501080e+000
62.367	-2.716743e-001	6.262110e+000	-1.901863e+001	-7.117426e+001	-1.901946e+001	-7.106698e+001	-2.558177e-001	6.442623e+000
63.054	-2.666996e-001	6.202452e+000	-1.910472e+001	-7.134302e+001	-1.910579e+001	-7.125387e+001	-2.505077e-001	6.383172e+000
