!Agilent Technologies,E5061B,MY49204007,A.02.12
!Date: Wed Jul 23 11:23:07 2025
!Data & Calibration Information:
!Freq	S11:SOLT2(ON)	S21:SOLT2(ON)	S12:SOLT2(ON)	S22:SOLT2(ON)
# Hz S dB R 50
10.000	-1.935617e+000	1.292376e+001	-1.092794e+001	-3.928868e+001	-1.088938e+001	-3.931469e+001	-1.921490e+000	1.322018e+001
10.137	-1.913511e+000	1.291853e+001	-1.096853e+001	-3.960421e+001	-1.093171e+001	-3.963157e+001	-1.898761e+000	1.320961e+001
10.275	-1.891364e+000	1.290949e+001	-1.100966e+001	-3.991835e+001	-1.097433e+001	-3.994520e+001	-1.876447e+000	1.319588e+001
10.412	-1.869446e+000	1.290037e+001	-1.105090e+001	-4.023027e+001	-1.101717e+001	-4.025489e+001	-1.854226e+000	1.318152e+001
10.550	-1.847792e+000	1.288932e+001	-1.109224e+001	-4.054195e+001	-1.106010e+001	-4.056325e+001	-1.832389e+000	1.316621e+001
10.687	-1.826457e+000	1.287646e+001	-1.113397e+001	-4.085069e+001	-1.110313e+001	-4.086851e+001	-1.810754e+000	1.314945e+001
10.824	-1.805375e+000	1.286299e+001	-1.117575e+001	-4.115756e+001	-1.114610e+001	-4.117284e+001	-1.789347e+000	1.313203e+001
10.962	-1.784391e+000	1.284693e+001	-1.121785e+001	-4.145867e+001	-1.118929e+001	-4.147043e+001	-1.768413e+000	1.311299e+001
11.099	-1.763850e+000	1.283138e+001	-1.125948e+001	-4.176092e+001	-1.123226e+001	-4.177240e+001	-1.747490e+000	1.309412e+001
11.237	-1.743325e+000	1.281227e+001	-1.130185e+001	-4.205703e+001	-1.127531e+001	-4.206552e+001	-1.726954e+000	1.307384e+001
11.374	-1.723191e+000	1.279265e+001	-1.134432e+001	-4.235283e+001	-1.131855e+001	-4.235882e+001	-1.706595e+000	1.305168e+001
11.511	-1.703239e+000	1.277324e+001	-1.138660e+001	-4.264639e+001	-1.136190e+001	-4.265046e+001	-1.686543e+000	1.302851e+001
11.649	-1.683488e+000	1.275230e+001	-1.142883e+001	-4.293695e+001	-1.140514e+001	-4.293891e+001	-1.666754e+000	1.300488e+001
11.786	-1.664157e+000	1.273026e+001	-1.147111e+001	-4.322622e+001	-1.144848e+001	-4.322485e+001	-1.647291e+000	1.298040e+001
11.924	-1.645083e+000	1.270817e+001	-1.151337e+001	-4.351314e+001	-1.149150e+001	-4.351141e+001	-1.627859e+000	1.295557e+001
12.061	-1.626002e+000	1.268306e+001	-1.155620e+001	-4.379585e+001	-1.153512e+001	-4.379059e+001	-1.608784e+000	1.292933e+001
12.198	-1.607336e+000	1.265805e+001	-1.159858e+001	-4.407662e+001	-1.157812e+001	-4.407271e+001	-1.589945e+000	1.290224e+001
12.336	-1.588849e+000	1.263131e+001	-1.164140e+001	-4.435372e+001	-1.162146e+001	-4.434750e+001	-1.571393e+000	1.287415e+001
12.473	-1.570537e+000	1.260454e+001	-1.168421e+001	-4.463060e+001	-1.166480e+001	-4.462192e+001	-1.552996e+000	1.284520e+001
12.611	-1.552522e+000	1.257732e+001	-1.172684e+001	-4.490448e+001	-1.170821e+001	-4.489372e+001	-1.534889e+000	1.281645e+001
12.748	-1.534852e+000	1.254898e+001	-1.176952e+001	-4.517634e+001	-1.175146e+001	-4.516363e+001	-1.517004e+000	1.278637e+001
12.885	-1.517403e+000	1.252058e+001	-1.181234e+001	-4.544483e+001	-1.179467e+001	-4.543107e+001	-1.499428e+000	1.275564e+001
13.023	-1.499962e+000	1.249115e+001	-1.185512e+001	-4.571190e+001	-1.183834e+001	-4.569644e+001	-1.481979e+000	1.272432e+001
13.160	-1.482978e+000	1.245974e+001	-1.189823e+001	-4.597390e+001	-1.188151e+001	-4.595763e+001	-1.465011e+000	1.269237e+001
13.298	-1.465988e+000	1.242826e+001	-1.194119e+001	-4.623770e+001	-1.192534e+001	-4.621852e+001	-1.448065e+000	1.265988e+001
13.435	-1.449373e+000	1.239770e+001	-1.198381e+001	-4.649624e+001	-1.196847e+001	-4.647741e+001	-1.431367e+000	1.262703e+001
13.572	-1.432940e+000	1.236511e+001	-1.202659e+001	-4.675257e+001	-1.201191e+001	-4.673279e+001	-1.414949e+000	1.259357e+001
13.733	-1.415111e+000	1.231087e+001	-1.208195e+001	-4.700308e+001	-1.206079e+001	-4.704196e+001	-1.395849e+000	1.255831e+001
13.923	-1.392253e+000	1.228014e+001	-1.213596e+001	-4.739850e+001	-1.212244e+001	-4.737372e+001	-1.374234e+000	1.250633e+001
14.112	-1.370688e+000	1.223275e+001	-1.219522e+001	-4.773650e+001	-1.218236e+001	-4.771249e+001	-1.352820e+000	1.245671e+001
14.302	-1.349574e+000	1.218569e+001	-1.225440e+001	-4.807831e+001	-1.224197e+001	-4.805243e+001	-1.331554e+000	1.240777e+001
14.492	-1.328845e+000	1.213684e+001	-1.231310e+001	-4.841205e+001	-1.230137e+001	-4.838373e+001	-1.310849e+000	1.235753e+001
14.682	-1.308521e+000	1.208706e+001	-1.237233e+001	-4.874151e+001	-1.236089e+001	-4.871198e+001	-1.290406e+000	1.230664e+001
14.872	-1.288532e+000	1.203685e+001	-1.243123e+001	-4.906833e+001	-1.242033e+001	-4.903669e+001	-1.270471e+000	1.225533e+001
15.062	-1.268877e+000	1.198653e+001	-1.249026e+001	-4.939183e+001	-1.247987e+001	-4.935928e+001	-1.250912e+000	1.220323e+001
15.251	-1.249624e+000	1.193493e+001	-1.254902e+001	-4.970700e+001	-1.253912e+001	-4.967278e+001	-1.231679e+000	1.215053e+001
15.441	-1.230686e+000	1.188259e+001	-1.260790e+001	-5.002354e+001	-1.259837e+001	-4.998844e+001	-1.212755e+000	1.209712e+001
15.631	-1.212289e+000	1.183103e+001	-1.266655e+001	-5.033283e+001	-1.265714e+001	-5.029664e+001	-1.194235e+000	1.204479e+001
15.821	-1.194061e+000	1.177792e+001	-1.272495e+001	-5.063809e+001	-1.271601e+001	-5.060120e+001	-1.176053e+000	1.199082e+001
16.011	-1.176332e+000	1.172521e+001	-1.278357e+001	-5.093958e+001	-1.277491e+001	-5.090123e+001	-1.158282e+000	1.193658e+001
16.201	-1.158947e+000	1.167111e+001	-1.284186e+001	-5.123551e+001	-1.283348e+001	-5.119595e+001	-1.140907e+000	1.188236e+001
16.391	-1.141712e+000	1.161753e+001	-1.290023e+001	-5.153210e+001	-1.289200e+001	-5.149197e+001	-1.123706e+000	1.182801e+001
16.580	-1.125008e+000	1.156416e+001	-1.295800e+001	-5.182158e+001	-1.295006e+001	-5.178031e+001	-1.106909e+000	1.177400e+001
16.770	-1.108531e+000	1.150994e+001	-1.301592e+001	-5.210748e+001	-1.300835e+001	-5.206512e+001	-1.090471e+000	1.171844e+001
16.960	-1.092383e+000	1.145527e+001	-1.307370e+001	-5.238983e+001	-1.306640e+001	-5.234681e+001	-1.074269e+000	1.166376e+001
17.150	-1.077107e+000	1.138702e+001	-1.313772e+001	-5.262790e+001	-1.313084e+001	-5.258696e+001	-1.059048e+000	1.159495e+001
17.340	-1.060814e+000	1.134691e+001	-1.318863e+001	-5.294655e+001	-1.318203e+001	-5.290148e+001	-1.042921e+000	1.155346e+001
17.530	-1.045543e+000	1.129315e+001	-1.324569e+001	-5.321932e+001	-1.323936e+001	-5.317344e+001	-1.027630e+000	1.149873e+001
17.720	-1.030484e+000	1.123789e+001	-1.330283e+001	-5.348836e+001	-1.329678e+001	-5.344037e+001	-1.012611e+000	1.144308e+001
17.909	-1.015797e+000	1.118308e+001	-1.335995e+001	-5.375364e+001	-1.335406e+001	-5.370467e+001	-9.979630e-001	1.138756e+001
18.099	-1.001477e+000	1.112856e+001	-1.341688e+001	-5.401514e+001	-1.341103e+001	-5.396601e+001	-9.835848e-001	1.133211e+001
18.289	-9.872209e-001	1.107366e+001	-1.347362e+001	-5.427430e+001	-1.346812e+001	-5.422481e+001	-9.693954e-001	1.127635e+001
18.479	-9.733336e-001	1.101916e+001	-1.353001e+001	-5.453045e+001	-1.352456e+001	-5.447987e+001	-9.554815e-001	1.122164e+001
18.669	-9.597252e-001	1.096451e+001	-1.358635e+001	-5.478130e+001	-1.358118e+001	-5.473066e+001	-9.419880e-001	1.116625e+001
18.859	-9.463724e-001	1.090991e+001	-1.364264e+001	-5.503157e+001	-1.363765e+001	-5.497909e+001	-9.286263e-001	1.111114e+001
19.082	-9.378156e-001	1.079116e+001	-1.372945e+001	-5.504875e+001	-1.372518e+001	-5.499562e+001	-9.200139e-001	1.099158e+001
19.344	-9.133477e-001	1.077081e+001	-1.378587e+001	-5.565757e+001	-1.378120e+001	-5.560472e+001	-8.955184e-001	1.097090e+001
19.606	-8.962673e-001	1.069601e+001	-1.386219e+001	-5.598139e+001	-1.385783e+001	-5.592765e+001	-8.785524e-001	1.089548e+001
19.868	-8.795513e-001	1.062209e+001	-1.393858e+001	-5.630853e+001	-1.393423e+001	-5.625413e+001	-8.616616e-001	1.082133e+001
20.130	-8.632856e-001	1.054796e+001	-1.401409e+001	-5.662354e+001	-1.401004e+001	-5.656776e+001	-8.455974e-001	1.074690e+001
20.392	-8.474119e-001	1.047413e+001	-1.408964e+001	-5.693422e+001	-1.408575e+001	-5.687693e+001	-8.296800e-001	1.067273e+001
20.655	-8.318402e-001	1.040089e+001	-1.416464e+001	-5.724108e+001	-1.416114e+001	-5.718364e+001	-8.141572e-001	1.059907e+001
20.917	-8.167709e-001	1.032779e+001	-1.423958e+001	-5.754495e+001	-1.423609e+001	-5.748716e+001	-7.990066e-001	1.052525e+001
21.179	-8.019027e-001	1.025418e+001	-1.431431e+001	-5.783978e+001	-1.431139e+001	-5.778072e+001	-7.843116e-001	1.045191e+001
21.441	-7.877013e-001	1.018352e+001	-1.438784e+001	-5.813219e+001	-1.438474e+001	-5.807258e+001	-7.699673e-001	1.038047e+001
21.703	-7.737623e-001	1.011101e+001	-1.446163e+001	-5.841607e+001	-1.445877e+001	-5.835528e+001	-7.560087e-001	1.030806e+001
21.965	-7.600822e-001	1.003997e+001	-1.453517e+001	-5.869807e+001	-1.453221e+001	-5.863657e+001	-7.424224e-001	1.023657e+001
22.228	-7.468202e-001	9.969759e+000	-1.460802e+001	-5.897482e+001	-1.460521e+001	-5.891370e+001	-7.290866e-001	1.016564e+001
22.490	-7.337622e-001	9.900114e+000	-1.468020e+001	-5.924862e+001	-1.467746e+001	-5.918747e+001	-7.160287e-001	1.009604e+001
22.752	-7.210489e-001	9.830156e+000	-1.475267e+001	-5.951808e+001	-1.475015e+001	-5.945647e+001	-7.033260e-001	1.002580e+001
23.014	-7.087791e-001	9.761597e+000	-1.482388e+001	-5.978018e+001	-1.482164e+001	-5.971801e+001	-6.911248e-001	9.956506e+000
23.276	-6.966149e-001	9.692898e+000	-1.489555e+001	-6.003916e+001	-1.489326e+001	-5.997625e+001	-6.790058e-001	9.887806e+000
23.538	-6.847464e-001	9.625063e+000	-1.496666e+001	-6.029499e+001	-1.496429e+001	-6.023292e+001	-6.671551e-001	9.819071e+000
23.801	-6.732600e-001	9.557930e+000	-1.503706e+001	-6.054669e+001	-1.503469e+001	-6.048254e+001	-6.557052e-001	9.752508e+000
24.063	-6.620340e-001	9.491592e+000	-1.510699e+001	-6.079374e+001	-1.510491e+001	-6.073014e+001	-6.444644e-001	9.685870e+000
24.325	-6.508859e-001	9.426069e+000	-1.517659e+001	-6.103984e+001	-1.517450e+001	-6.097485e+001	-6.333811e-001	9.619895e+000
24.587	-6.403193e-001	9.360451e+000	-1.524595e+001	-6.127744e+001	-1.524396e+001	-6.121168e+001	-6.228415e-001	9.554561e+000
24.849	-6.298400e-001	9.295537e+000	-1.531526e+001	-6.151377e+001	-1.531329e+001	-6.144798e+001	-6.123667e-001	9.489158e+000
25.111	-6.195846e-001	9.231616e+000	-1.538348e+001	-6.174599e+001	-1.538174e+001	-6.167991e+001	-6.021960e-001	9.425225e+000
25.374	-6.096017e-001	9.168388e+000	-1.545154e+001	-6.197436e+001	-1.545008e+001	-6.190845e+001	-5.922598e-001	9.361172e+000
25.636	-5.999549e-001	9.105271e+000	-1.551942e+001	-6.219847e+001	-1.551785e+001	-6.213269e+001	-5.825039e-001	9.298033e+000
25.898	-5.903063e-001	9.043181e+000	-1.558661e+001	-6.242091e+001	-1.558512e+001	-6.235355e+001	-5.730496e-001	9.236309e+000
26.204	-5.794511e-001	8.969461e+000	-1.566647e+001	-6.267050e+001	-1.566455e+001	-6.261083e+001	-5.619819e-001	9.162903e+000
26.564	-5.672363e-001	8.888360e+000	-1.575646e+001	-6.297012e+001	-1.575493e+001	-6.290332e+001	-5.498006e-001	9.080230e+000
26.924	-5.550878e-001	8.805128e+000	-1.584764e+001	-6.325975e+001	-1.584626e+001	-6.319334e+001	-5.376949e-001	8.997167e+000
27.284	-5.435311e-001	8.723597e+000	-1.593738e+001	-6.353559e+001	-1.593644e+001	-6.346746e+001	-5.261825e-001	8.915416e+000
27.644	-5.322143e-001	8.644089e+000	-1.602629e+001	-6.381871e+001	-1.602517e+001	-6.374932e+001	-5.147196e-001	8.834949e+000
28.004	-5.213273e-001	8.564494e+000	-1.611480e+001	-6.408105e+001	-1.611369e+001	-6.401322e+001	-5.038945e-001	8.755111e+000
28.364	-5.105905e-001	8.485846e+000	-1.620342e+001	-6.434859e+001	-1.620234e+001	-6.428049e+001	-4.932347e-001	8.676530e+000
28.724	-5.003498e-001	8.409014e+000	-1.629047e+001	-6.461104e+001	-1.628958e+001	-6.454145e+001	-4.828662e-001	8.599305e+000
29.084	-4.902895e-001	8.333395e+000	-1.637681e+001	-6.486478e+001	-1.637610e+001	-6.479466e+001	-4.729379e-001	8.523339e+000
29.444	-4.806315e-001	8.259924e+000	-1.646227e+001	-6.511064e+001	-1.646167e+001	-6.503992e+001	-4.632780e-001	8.449458e+000
29.804	-4.712833e-001	8.186899e+000	-1.654675e+001	-6.535918e+001	-1.654608e+001	-6.528483e+001	-4.538592e-001	8.377068e+000
30.164	-4.619492e-001	8.113830e+000	-1.663206e+001	-6.560096e+001	-1.663141e+001	-6.552677e+001	-4.445597e-001	8.303499e+000
30.524	-4.532073e-001	8.042160e+000	-1.671508e+001	-6.583401e+001	-1.671456e+001	-6.575989e+001	-4.358141e-001	8.232384e+000
30.884	-4.444369e-001	7.971156e+000	-1.679859e+001	-6.606193e+001	-1.679804e+001	-6.598980e+001	-4.271273e-001	8.160513e+000
31.244	-4.359857e-001	7.900601e+000	-1.688133e+001	-6.628917e+001	-1.688106e+001	-6.621556e+001	-4.187557e-001	8.090827e+000
31.605	-4.278745e-001	7.832339e+000	-1.696313e+001	-6.651063e+001	-1.696291e+001	-6.643851e+001	-4.105897e-001	8.022003e+000
31.965	-4.199104e-001	7.765015e+000	-1.704407e+001	-6.672792e+001	-1.704366e+001	-6.665479e+001	-4.026591e-001	7.954876e+000
32.325	-4.122538e-001	7.699050e+000	-1.712455e+001	-6.694563e+001	-1.712395e+001	-6.687074e+001	-3.949111e-001	7.888463e+000
32.685	-4.045204e-001	7.632906e+000	-1.720475e+001	-6.715494e+001	-1.720468e+001	-6.708036e+001	-3.873508e-001	7.821909e+000
33.045	-3.973018e-001	7.568559e+000	-1.728354e+001	-6.736085e+001	-1.728367e+001	-6.728570e+001	-3.800944e-001	7.758049e+000
33.405	-3.901487e-001	7.504076e+000	-1.736307e+001	-6.756115e+001	-1.736297e+001	-6.748532e+001	-3.730443e-001	7.693497e+000
33.765	-3.831197e-001	7.441535e+000	-1.744120e+001	-6.776252e+001	-1.744130e+001	-6.768764e+001	-3.660038e-001	7.630113e+000
34.125	-3.763870e-001	7.379589e+000	-1.751846e+001	-6.795807e+001	-1.751849e+001	-6.788226e+001	-3.592681e-001	7.568615e+000
34.485	-3.698862e-001	7.318786e+000	-1.759549e+001	-6.814794e+001	-1.759556e+001	-6.807265e+001	-3.527406e-001	7.507176e+000
34.845	-3.634438e-001	7.258701e+000	-1.767164e+001	-6.833643e+001	-1.767197e+001	-6.826122e+001	-3.463671e-001	7.447176e+000
35.205	-3.570067e-001	7.200269e+000	-1.774738e+001	-6.852475e+001	-1.774782e+001	-6.844937e+001	-3.400392e-001	7.388043e+000
35.565	-3.509793e-001	7.141621e+000	-1.782292e+001	-6.870378e+001	-1.782346e+001	-6.862789e+001	-3.340925e-001	7.329093e+000
35.985	-3.388965e-001	7.091484e+000	-1.790029e+001	-6.919543e+001	-1.790040e+001	-6.911558e+001	-3.219931e-001	7.279394e+000
36.483	-3.362511e-001	6.996509e+000	-1.801236e+001	-6.915560e+001	-1.801219e+001	-6.908047e+001	-3.192581e-001	7.183589e+000
36.980	-3.285299e-001	6.919205e+000	-1.811371e+001	-6.939474e+001	-1.811437e+001	-6.931776e+001	-3.116222e-001	7.106973e+000
37.478	-3.212557e-001	6.844477e+000	-1.821346e+001	-6.961704e+001	-1.821445e+001	-6.953891e+001	-3.045041e-001	7.031979e+000
37.975	-3.141337e-001	6.771886e+000	-1.831228e+001	-6.985194e+001	-1.831316e+001	-6.977352e+001	-2.971550e-001	6.958493e+000
38.473	-3.072646e-001	6.698893e+000	-1.841009e+001	-7.006557e+001	-1.841098e+001	-6.998720e+001	-2.904433e-001	6.886608e+000
38.970	-3.006747e-001	6.627739e+000	-1.850833e+001	-7.027886e+001	-1.850909e+001	-7.019942e+001	-2.838990e-001	6.815568e+000
39.468	-2.941270e-001	6.558309e+000	-1.860487e+001	-7.049296e+001	-1.860570e+001	-7.041318e+001	-2.774411e-001	6.745140e+000
39.965	-2.879628e-001	6.490831e+000	-1.869973e+001	-7.069593e+001	-1.870095e+001	-7.061741e+001	-2.711900e-001	6.677453e+000
40.463	-2.819665e-001	6.423139e+000	-1.879420e+001	-7.089835e+001	-1.879489e+001	-7.081539e+001	-2.651420e-001	6.611098e+000
40.960	-2.760682e-001	6.358031e+000	-1.888726e+001	-7.109913e+001	-1.888773e+001	-7.101716e+001	-2.592490e-001	6.545461e+000
41.458	-2.705366e-001	6.292487e+000	-1.898013e+001	-7.128766e+001	-1.898132e+001	-7.120741e+001	-2.536945e-001	6.479932e+000
41.955	-2.650092e-001	6.229263e+000	-1.907156e+001	-7.148306e+001	-1.907245e+001	-7.139933e+001	-2.481694e-001	6.416954e+000
42.452	-2.597596e-001	6.168333e+000	-1.916203e+001	-7.166034e+001	-1.916299e+001	-7.157991e+001	-2.429331e-001	6.355609e+000
42.950	-2.547388e-001	6.107310e+000	-1.925220e+001	-7.183929e+001	-1.925301e+001	-7.175691e+001	-2.378238e-001	6.294443e+000
43.447	-2.496357e-001	6.047592e+000	-1.934104e+001	-7.201807e+001	-1.934215e+001	-7.193462e+001	-2.327471e-001	6.234278e+000
43.945	-2.447392e-001	5.987981e+000	-1.942976e+001	-7.219515e+001	-1.943042e+001	-7.211070e+001	-2.279100e-001	6.176018e+000
44.442	-2.400308e-001	5.930237e+000	-1.951746e+001	-7.236618e+001	-1.951891e+001	-7.228100e+001	-2.232164e-001	6.117137e+000
44.940	-2.356522e-001	5.873640e+000	-1.960392e+001	-7.252955e+001	-1.960502e+001	-7.244436e+001	-2.187368e-001	6.060569e+000
45.437	-2.309993e-001	5.818247e+000	-1.968990e+001	-7.269698e+001	-1.969126e+001	-7.261117e+001	-2.141140e-001	6.005240e+000
45.935	-2.267259e-001	5.763992e+000	-1.977429e+001	-7.285630e+001	-1.977593e+001	-7.277084e+001	-2.099071e-001	5.950431e+000
46.432	-2.226417e-001	5.709531e+000	-1.985874e+001	-7.301287e+001	-1.986012e+001	-7.292516e+001	-2.057324e-001	5.896403e+000
46.930	-2.185341e-001	5.656606e+000	-1.994242e+001	-7.316592e+001	-1.994350e+001	-7.307846e+001	-2.019446e-001	5.844357e+000
47.427	-2.145821e-001	5.604727e+000	-2.002611e+001	-7.331375e+001	-2.002703e+001	-7.323003e+001	-1.978242e-001	5.791962e+000
47.925	-2.107333e-001	5.553950e+000	-2.010741e+001	-7.346252e+001	-2.010921e+001	-7.337679e+001	-1.940659e-001	5.740715e+000
48.422	-2.070921e-001	5.504503e+000	-2.018766e+001	-7.360308e+001	-2.019030e+001	-7.352218e+001	-1.902783e-001	5.691199e+000
48.920	-2.031828e-001	5.455415e+000	-2.026844e+001	-7.375329e+001	-2.027111e+001	-7.366682e+001	-1.865748e-001	5.641155e+000
49.417	-1.998730e-001	5.406730e+000	-2.034881e+001	-7.388422e+001	-2.035119e+001	-7.380021e+001	-1.830957e-001	5.592299e+000
50.001	-1.975865e-001	5.346410e+000	-2.044558e+001	-7.392598e+001	-2.044715e+001	-7.383224e+001	-1.809058e-001	5.533491e+000
50.688	-1.911904e-001	5.286889e+000	-2.054863e+001	-7.423490e+001	-2.055128e+001	-7.415208e+001	-1.743730e-001	5.473050e+000
51.375	-1.866997e-001	5.222928e+000	-2.065693e+001	-7.442096e+001	-2.065997e+001	-7.433786e+001	-1.700095e-001	5.409662e+000
52.062	-1.824693e-001	5.161918e+000	-2.076390e+001	-7.460216e+001	-2.076697e+001	-7.451380e+001	-1.656240e-001	5.347023e+000
52.749	-1.784596e-001	5.100554e+000	-2.086923e+001	-7.476285e+001	-2.087124e+001	-7.467241e+001	-1.615655e-001	5.286962e+000
53.436	-1.744379e-001	5.043021e+000	-2.097022e+001	-7.492633e+001	-2.097271e+001	-7.484398e+001	-1.576084e-001	5.229756e+000
54.123	-1.705924e-001	4.985161e+000	-2.107422e+001	-7.509921e+001	-2.107779e+001	-7.500755e+001	-1.537967e-001	5.170930e+000
54.810	-1.671699e-001	4.930099e+000	-2.117366e+001	-7.524056e+001	-2.117570e+001	-7.515846e+001	-1.503795e-001	5.116120e+000
55.497	-1.632314e-001	4.873810e+000	-2.127601e+001	-7.541785e+001	-2.127976e+001	-7.532585e+001	-1.464776e-001	5.059661e+000
56.184	-1.598606e-001	4.820666e+000	-2.137153e+001	-7.555692e+001	-2.137442e+001	-7.547665e+001	-1.432409e-001	5.007807e+000
56.871	-1.566896e-001	4.765919e+000	-2.147294e+001	-7.570002e+001	-2.147509e+001	-7.560733e+001	-1.399854e-001	4.953067e+000
57.558	-1.533176e-001	4.715420e+000	-2.156913e+001	-7.586781e+001	-2.157297e+001	-7.577412e+001	-1.365975e-001	4.901256e+000
58.245	-1.501933e-001	4.666889e+000	-2.166198e+001	-7.600965e+001	-2.166616e+001	-7.592367e+001	-1.333539e-001	4.852241e+000
58.932	-1.473234e-001	4.616633e+000	-2.175619e+001	-7.613809e+001	-2.175953e+001	-7.605397e+001	-1.304749e-001	4.803564e+000
59.619	-1.444693e-001	4.567608e+000	-2.185070e+001	-7.626265e+001	-2.185348e+001	-7.618129e+001	-1.276918e-001	4.754981e+000
60.306	-1.415728e-001	4.520832e+000	-2.194270e+001	-7.639388e+001	-2.194597e+001	-7.631487e+001	-1.248447e-001	4.707568e+000
60.993	-1.388057e-001	4.473702e+000	-2.203519e+001	-7.653240e+001	-2.203878e+001	-7.644944e+001	-1.220322e-001	4.660125e+000
61.680	-1.358224e-001	4.427683e+000	-2.212678e+001	-7.667514e+001	-2.213122e+001	-7.658958e+001	-1.193747e-001	4.614346e+000
62.367	-1.332726e-001	4.381190e+000	-2.221964e+001	-7.680388e+001	-2.222391e+001	-7.670612e+001	-1.168289e-001	4.568172e+000
63.054	-1.310728e-001	4.338019e+000	-2.230957e+001	-7.689926e+001	-2.231252e+001	-7.680537e+001	-1.146568e-001	4.523524e+000
