!Agilent Technologies,E5061B,MY49204007,A.02.12
!Date: Wed Jul 23 10:47:30 2025
!Data & Calibration Information:
!Freq	S11:SOLT2(ON)	S21:SOLT2(ON)	S12:SOLT2(ON)	S22:SOLT2(ON)
# Hz S dB R 50
10.000	-1.247382e+000	1.116818e+001	-1.293970e+001	-4.836499e+001	-1.292235e+001	-4.836561e+001	-1.232677e+000	1.137029e+001
10.137	-1.228437e+000	1.112067e+001	-1.300074e+001	-4.868409e+001	-1.298283e+001	-4.869066e+001	-1.213753e+000	1.132310e+001
10.275	-1.210015e+000	1.107236e+001	-1.306094e+001	-4.900554e+001	-1.304268e+001	-4.900613e+001	-1.195491e+000	1.127558e+001
10.412	-1.192090e+000	1.102759e+001	-1.311998e+001	-4.932063e+001	-1.310240e+001	-4.931729e+001	-1.177486e+000	1.122702e+001
10.550	-1.174414e+000	1.098131e+001	-1.317880e+001	-4.963075e+001	-1.316199e+001	-4.962470e+001	-1.159780e+000	1.117881e+001
10.687	-1.157103e+000	1.093419e+001	-1.323745e+001	-4.993604e+001	-1.322130e+001	-4.992980e+001	-1.142412e+000	1.113049e+001
10.824	-1.140229e+000	1.088773e+001	-1.329573e+001	-5.023589e+001	-1.328059e+001	-5.023229e+001	-1.125403e+000	1.108204e+001
10.962	-1.123644e+000	1.084169e+001	-1.335390e+001	-5.053728e+001	-1.333954e+001	-5.052487e+001	-1.108903e+000	1.103343e+001
11.099	-1.107284e+000	1.079297e+001	-1.341254e+001	-5.082913e+001	-1.339797e+001	-5.082311e+001	-1.092417e+000	1.098520e+001
11.237	-1.091250e+000	1.074543e+001	-1.347045e+001	-5.112642e+001	-1.345669e+001	-5.110816e+001	-1.076581e+000	1.093633e+001
11.374	-1.075521e+000	1.069853e+001	-1.352816e+001	-5.141321e+001	-1.351542e+001	-5.139427e+001	-1.060792e+000	1.088655e+001
11.511	-1.060072e+000	1.065019e+001	-1.358583e+001	-5.169622e+001	-1.357382e+001	-5.167794e+001	-1.045329e+000	1.083715e+001
11.649	-1.044915e+000	1.060125e+001	-1.364370e+001	-5.197791e+001	-1.363192e+001	-5.195692e+001	-1.030180e+000	1.078790e+001
11.786	-1.030024e+000	1.055227e+001	-1.370137e+001	-5.225561e+001	-1.368985e+001	-5.223298e+001	-1.015308e+000	1.073840e+001
11.924	-1.015346e+000	1.050324e+001	-1.375896e+001	-5.252749e+001	-1.374748e+001	-5.250837e+001	-1.000670e+000	1.068909e+001
12.061	-1.001103e+000	1.045496e+001	-1.381604e+001	-5.279978e+001	-1.380546e+001	-5.277623e+001	-9.862732e-001	1.063836e+001
12.198	-9.869887e-001	1.040463e+001	-1.387351e+001	-5.306753e+001	-1.386248e+001	-5.304526e+001	-9.722007e-001	1.058966e+001
12.336	-9.731170e-001	1.035653e+001	-1.393039e+001	-5.333306e+001	-1.391981e+001	-5.330680e+001	-9.584100e-001	1.053889e+001
12.473	-9.595461e-001	1.030731e+001	-1.398683e+001	-5.359542e+001	-1.397716e+001	-5.356640e+001	-9.447653e-001	1.048911e+001
12.611	-9.461956e-001	1.025866e+001	-1.404347e+001	-5.385357e+001	-1.403408e+001	-5.382394e+001	-9.313034e-001	1.043883e+001
12.748	-9.330282e-001	1.020962e+001	-1.410005e+001	-5.410942e+001	-1.409080e+001	-5.407813e+001	-9.182021e-001	1.038924e+001
12.885	-9.202922e-001	1.015995e+001	-1.415658e+001	-5.436164e+001	-1.414735e+001	-5.433029e+001	-9.053098e-001	1.033930e+001
13.023	-9.078099e-001	1.011121e+001	-1.421255e+001	-5.460856e+001	-1.420413e+001	-5.457872e+001	-8.926900e-001	1.028976e+001
13.160	-8.952011e-001	1.006226e+001	-1.426856e+001	-5.485726e+001	-1.426027e+001	-5.482201e+001	-8.804555e-001	1.023981e+001
13.298	-8.831712e-001	1.001330e+001	-1.432417e+001	-5.509879e+001	-1.431665e+001	-5.506535e+001	-8.682080e-001	1.019040e+001
13.435	-8.712433e-001	9.964873e+000	-1.438005e+001	-5.533775e+001	-1.437242e+001	-5.530651e+001	-8.562831e-001	1.014095e+001
13.572	-8.595034e-001	9.915686e+000	-1.443557e+001	-5.557634e+001	-1.442803e+001	-5.554257e+001	-8.445980e-001	1.009208e+001
13.733	-8.553484e-001	9.781754e+000	-1.453195e+001	-5.542767e+001	-1.449036e+001	-5.584017e+001	-8.307873e-001	1.004012e+001
13.923	-8.305472e-001	9.792250e+000	-1.457583e+001	-5.617181e+001	-1.456958e+001	-5.613305e+001	-8.158560e-001	9.966815e+000
14.112	-8.153448e-001	9.724768e+000	-1.465165e+001	-5.648125e+001	-1.464567e+001	-5.644275e+001	-8.007770e-001	9.898197e+000
14.302	-8.005323e-001	9.658863e+000	-1.472694e+001	-5.679311e+001	-1.472109e+001	-5.675409e+001	-7.859257e-001	9.831754e+000
14.492	-7.862259e-001	9.592246e+000	-1.480149e+001	-5.709510e+001	-1.479607e+001	-5.705370e+001	-7.716549e-001	9.764994e+000
14.682	-7.721509e-001	9.525936e+000	-1.487628e+001	-5.739222e+001	-1.487105e+001	-5.735042e+001	-7.575960e-001	9.698367e+000
14.872	-7.583728e-001	9.460488e+000	-1.495055e+001	-5.768720e+001	-1.494572e+001	-5.764293e+001	-7.440134e-001	9.632507e+000
15.062	-7.449463e-001	9.395008e+000	-1.502475e+001	-5.797793e+001	-1.501991e+001	-5.793409e+001	-7.305488e-001	9.566651e+000
15.251	-7.319675e-001	9.329672e+000	-1.509851e+001	-5.825794e+001	-1.509385e+001	-5.821305e+001	-7.174703e-001	9.501046e+000
15.441	-7.191043e-001	9.265418e+000	-1.517177e+001	-5.854234e+001	-1.516735e+001	-5.849654e+001	-7.046575e-001	9.435846e+000
15.631	-7.067494e-001	9.202155e+000	-1.524445e+001	-5.881727e+001	-1.524011e+001	-5.877059e+001	-6.923054e-001	9.372056e+000
15.821	-6.946349e-001	9.138894e+000	-1.531683e+001	-5.908725e+001	-1.531277e+001	-5.904090e+001	-6.802398e-001	9.308148e+000
16.011	-6.826807e-001	9.075954e+000	-1.538901e+001	-5.935302e+001	-1.538515e+001	-5.930530e+001	-6.683810e-001	9.244364e+000
16.201	-6.711349e-001	9.012872e+000	-1.546057e+001	-5.961264e+001	-1.545685e+001	-5.956384e+001	-6.568830e-001	9.181465e+000
16.391	-6.597988e-001	8.950725e+000	-1.553201e+001	-5.987480e+001	-1.552820e+001	-5.982454e+001	-6.455315e-001	9.119274e+000
16.580	-6.488510e-001	8.889509e+000	-1.560262e+001	-6.012673e+001	-1.559904e+001	-6.007647e+001	-6.345478e-001	9.057655e+000
16.770	-6.381303e-001	8.828143e+000	-1.567310e+001	-6.037603e+001	-1.566969e+001	-6.032537e+001	-6.237950e-001	8.996126e+000
16.960	-6.275922e-001	8.767511e+000	-1.574334e+001	-6.062076e+001	-1.574018e+001	-6.056952e+001	-6.132927e-001	8.935400e+000
17.150	-6.180381e-001	8.700484e+000	-1.581681e+001	-6.082254e+001	-1.581384e+001	-6.077354e+001	-6.037422e-001	8.868850e+000
17.340	-6.071518e-001	8.648279e+000	-1.588174e+001	-6.110288e+001	-1.587885e+001	-6.105014e+001	-5.930322e-001	8.815649e+000
17.530	-5.974069e-001	8.589574e+000	-1.595058e+001	-6.133800e+001	-1.594795e+001	-6.128357e+001	-5.832450e-001	8.756854e+000
17.720	-5.877850e-001	8.530535e+000	-1.601933e+001	-6.156924e+001	-1.601662e+001	-6.151313e+001	-5.736578e-001	8.697970e+000
17.909	-5.784426e-001	8.472308e+000	-1.608768e+001	-6.179660e+001	-1.608516e+001	-6.174125e+001	-5.643049e-001	8.639528e+000
18.099	-5.692611e-001	8.415072e+000	-1.615541e+001	-6.202273e+001	-1.615294e+001	-6.196507e+001	-5.551349e-001	8.581721e+000
18.289	-5.602554e-001	8.357267e+000	-1.622331e+001	-6.224279e+001	-1.622090e+001	-6.218545e+001	-5.461481e-001	8.523906e+000
18.479	-5.514949e-001	8.301527e+000	-1.629010e+001	-6.246115e+001	-1.628783e+001	-6.240226e+001	-5.374205e-001	8.467783e+000
18.669	-5.429865e-001	8.245598e+000	-1.635682e+001	-6.267375e+001	-1.635479e+001	-6.261538e+001	-5.289430e-001	8.411353e+000
18.859	-5.345667e-001	8.190474e+000	-1.642337e+001	-6.288581e+001	-1.642138e+001	-6.282697e+001	-5.206756e-001	8.355777e+000
19.082	-5.322471e-001	8.089416e+000	-1.651949e+001	-6.277409e+001	-1.651837e+001	-6.271801e+001	-5.182275e-001	8.254072e+000
19.344	-5.140433e-001	8.051366e+000	-1.659211e+001	-6.341640e+001	-1.659015e+001	-6.335657e+001	-4.999405e-001	8.216190e+000
19.606	-5.036018e-001	7.978030e+000	-1.668160e+001	-6.368590e+001	-1.667984e+001	-6.362509e+001	-4.895250e-001	8.141879e+000
19.868	-4.932019e-001	7.905371e+000	-1.677048e+001	-6.396195e+001	-1.676894e+001	-6.390087e+001	-4.791489e-001	8.069183e+000
20.130	-4.833487e-001	7.833555e+000	-1.685852e+001	-6.422310e+001	-1.685702e+001	-6.416015e+001	-4.692593e-001	7.997265e+000
20.392	-4.736048e-001	7.762413e+000	-1.694642e+001	-6.448014e+001	-1.694508e+001	-6.441804e+001	-4.596049e-001	7.926521e+000
20.655	-4.641592e-001	7.692855e+000	-1.703342e+001	-6.473632e+001	-1.703185e+001	-6.467122e+001	-4.500883e-001	7.857099e+000
20.917	-4.549903e-001	7.623998e+000	-1.711972e+001	-6.498765e+001	-1.711852e+001	-6.492514e+001	-4.409073e-001	7.787717e+000
21.179	-4.460076e-001	7.555760e+000	-1.720589e+001	-6.523068e+001	-1.720496e+001	-6.516701e+001	-4.321339e-001	7.719286e+000
21.441	-4.374745e-001	7.489783e+000	-1.729021e+001	-6.547211e+001	-1.728923e+001	-6.540619e+001	-4.235652e-001	7.653420e+000
21.703	-4.290940e-001	7.422885e+000	-1.737471e+001	-6.570305e+001	-1.737388e+001	-6.563766e+001	-4.152659e-001	7.586804e+000
21.965	-4.209502e-001	7.358201e+000	-1.745863e+001	-6.593414e+001	-1.745776e+001	-6.586836e+001	-4.070770e-001	7.521459e+000
22.228	-4.130417e-001	7.294023e+000	-1.754158e+001	-6.616018e+001	-1.754083e+001	-6.609383e+001	-3.992473e-001	7.457611e+000
22.490	-4.053978e-001	7.231172e+000	-1.762386e+001	-6.638400e+001	-1.762290e+001	-6.631796e+001	-3.914418e-001	7.394435e+000
22.752	-3.977838e-001	7.169042e+000	-1.770582e+001	-6.660468e+001	-1.770525e+001	-6.653746e+001	-3.839230e-001	7.331683e+000
23.014	-3.906797e-001	7.107636e+000	-1.778655e+001	-6.681639e+001	-1.778594e+001	-6.674863e+001	-3.767716e-001	7.270311e+000
23.276	-3.835255e-001	7.046851e+000	-1.786744e+001	-6.702474e+001	-1.786692e+001	-6.695655e+001	-3.696995e-001	7.209872e+000
23.538	-3.766033e-001	6.986940e+000	-1.794751e+001	-6.723316e+001	-1.794689e+001	-6.716415e+001	-3.627140e-001	7.150107e+000
23.801	-3.699494e-001	6.928604e+000	-1.802658e+001	-6.743484e+001	-1.802602e+001	-6.736600e+001	-3.560028e-001	7.091058e+000
24.063	-3.633175e-001	6.870485e+000	-1.810480e+001	-6.763441e+001	-1.810456e+001	-6.756496e+001	-3.494644e-001	7.033294e+000
24.325	-3.568056e-001	6.813567e+000	-1.818292e+001	-6.783240e+001	-1.818271e+001	-6.776276e+001	-3.430480e-001	6.975956e+000
24.587	-3.507370e-001	6.756767e+000	-1.826055e+001	-6.802227e+001	-1.826025e+001	-6.795179e+001	-3.370313e-001	6.919535e+000
24.849	-3.446380e-001	6.701081e+000	-1.833762e+001	-6.821182e+001	-1.833735e+001	-6.814032e+001	-3.308687e-001	6.864260e+000
25.111	-3.387577e-001	6.646872e+000	-1.841357e+001	-6.839461e+001	-1.841344e+001	-6.832518e+001	-3.250206e-001	6.809332e+000
25.374	-3.331530e-001	6.593062e+000	-1.848952e+001	-6.857792e+001	-1.848920e+001	-6.850710e+001	-3.193284e-001	6.755356e+000
25.636	-3.275238e-001	6.539680e+000	-1.856455e+001	-6.875529e+001	-1.856438e+001	-6.868345e+001	-3.138297e-001	6.702484e+000
25.898	-3.220944e-001	6.487556e+000	-1.863902e+001	-6.893253e+001	-1.863894e+001	-6.886190e+001	-3.083735e-001	6.649803e+000
26.204	-3.137641e-001	6.432811e+000	-1.872332e+001	-6.925333e+001	-1.872260e+001	-6.918599e+001	-3.000143e-001	6.595611e+000
26.564	-3.088994e-001	6.357692e+000	-1.882650e+001	-6.936690e+001	-1.882675e+001	-6.929392e+001	-2.952089e-001	6.519301e+000
26.924	-3.019642e-001	6.288527e+000	-1.892693e+001	-6.959748e+001	-1.892713e+001	-6.952597e+001	-2.882476e-001	6.450499e+000
27.284	-2.954327e-001	6.221627e+000	-1.902565e+001	-6.981141e+001	-1.902621e+001	-6.973907e+001	-2.817984e-001	6.383246e+000
27.644	-2.891321e-001	6.157081e+000	-1.912302e+001	-7.003449e+001	-1.912348e+001	-6.996160e+001	-2.753225e-001	6.318273e+000
28.004	-2.829759e-001	6.091830e+000	-1.921969e+001	-7.023911e+001	-1.922036e+001	-7.016559e+001	-2.692578e-001	6.252978e+000
28.364	-2.769051e-001	6.028373e+000	-1.931650e+001	-7.044827e+001	-1.931745e+001	-7.037590e+001	-2.633160e-001	6.188829e+000
28.724	-2.711958e-001	5.965774e+000	-1.941145e+001	-7.065386e+001	-1.941215e+001	-7.058308e+001	-2.575103e-001	6.126564e+000
29.084	-2.656000e-001	5.905237e+000	-1.950534e+001	-7.085168e+001	-1.950620e+001	-7.077815e+001	-2.519869e-001	6.066035e+000
29.444	-2.602475e-001	5.845411e+000	-1.959844e+001	-7.104224e+001	-1.959916e+001	-7.096730e+001	-2.465696e-001	6.006904e+000
29.804	-2.551027e-001	5.787499e+000	-1.968993e+001	-7.123348e+001	-1.969063e+001	-7.115743e+001	-2.413775e-001	5.948911e+000
30.164	-2.498149e-001	5.729558e+000	-1.978199e+001	-7.142299e+001	-1.978264e+001	-7.134500e+001	-2.362351e-001	5.890445e+000
30.524	-2.450397e-001	5.673079e+000	-1.987177e+001	-7.160121e+001	-1.987244e+001	-7.152482e+001	-2.313100e-001	5.833930e+000
30.884	-2.402669e-001	5.616816e+000	-1.996189e+001	-7.177530e+001	-1.996205e+001	-7.170364e+001	-2.265566e-001	5.777325e+000
31.244	-2.355822e-001	5.561653e+000	-2.005093e+001	-7.195215e+001	-2.005082e+001	-7.187659e+001	-2.219899e-001	5.723513e+000
31.605	-2.310476e-001	5.507709e+000	-2.013887e+001	-7.212460e+001	-2.013910e+001	-7.204711e+001	-2.174792e-001	5.669346e+000
31.965	-2.267416e-001	5.454796e+000	-2.022430e+001	-7.229056e+001	-2.022594e+001	-7.221773e+001	-2.130426e-001	5.616235e+000
32.325	-2.223096e-001	5.403463e+000	-2.031080e+001	-7.245690e+001	-2.031294e+001	-7.238258e+001	-2.087994e-001	5.564382e+000
32.685	-2.184711e-001	5.352571e+000	-2.039655e+001	-7.261350e+001	-2.039842e+001	-7.253915e+001	-2.047680e-001	5.513352e+000
33.045	-2.142172e-001	5.302453e+000	-2.048156e+001	-7.277636e+001	-2.048321e+001	-7.270026e+001	-2.007124e-001	5.463551e+000
33.405	-2.102685e-001	5.253024e+000	-2.056492e+001	-7.292944e+001	-2.056693e+001	-7.285175e+001	-1.969473e-001	5.414504e+000
33.765	-2.065998e-001	5.204620e+000	-2.064848e+001	-7.307938e+001	-2.065034e+001	-7.300141e+001	-1.930864e-001	5.365748e+000
34.125	-2.029852e-001	5.157675e+000	-2.073096e+001	-7.322648e+001	-2.073325e+001	-7.314942e+001	-1.894080e-001	5.318199e+000
34.485	-1.993508e-001	5.110956e+000	-2.081250e+001	-7.337386e+001	-2.081499e+001	-7.329702e+001	-1.858099e-001	5.271151e+000
34.845	-1.957440e-001	5.065734e+000	-2.089382e+001	-7.351864e+001	-2.089626e+001	-7.344167e+001	-1.823152e-001	5.226229e+000
35.205	-1.924607e-001	5.020231e+000	-2.097479e+001	-7.365624e+001	-2.097709e+001	-7.358056e+001	-1.789047e-001	5.180356e+000
35.565	-1.890745e-001	4.976344e+000	-2.105363e+001	-7.379486e+001	-2.105647e+001	-7.371850e+001	-1.757497e-001	5.136261e+000
35.985	-1.833416e-001	4.929249e+000	-2.114487e+001	-7.411642e+001	-2.114428e+001	-7.415065e+001	-1.683801e-001	5.093362e+000
36.483	-1.812073e-001	4.866100e+000	-2.125452e+001	-7.413526e+001	-2.125699e+001	-7.405607e+001	-1.678629e-001	5.027240e+000
36.980	-1.771165e-001	4.808835e+000	-2.136157e+001	-7.431530e+001	-2.136481e+001	-7.423593e+001	-1.636326e-001	4.968416e+000
37.478	-1.731589e-001	4.752622e+000	-2.146705e+001	-7.448214e+001	-2.147033e+001	-7.440527e+001	-1.598254e-001	4.912205e+000
37.975	-1.693170e-001	4.698119e+000	-2.157139e+001	-7.465523e+001	-2.157480e+001	-7.458391e+001	-1.559591e-001	4.857072e+000
38.473	-1.656957e-001	4.643538e+000	-2.167465e+001	-7.481663e+001	-2.167754e+001	-7.474093e+001	-1.522321e-001	4.803733e+000
38.970	-1.619872e-001	4.590293e+000	-2.177725e+001	-7.497668e+001	-2.178061e+001	-7.490317e+001	-1.487892e-001	4.750656e+000
39.468	-1.586399e-001	4.539267e+000	-2.187794e+001	-7.513630e+001	-2.188196e+001	-7.505913e+001	-1.453551e-001	4.699136e+000
39.965	-1.553182e-001	4.488922e+000	-2.197751e+001	-7.528984e+001	-2.198159e+001	-7.520971e+001	-1.420016e-001	4.648018e+000
40.463	-1.521617e-001	4.439046e+000	-2.207635e+001	-7.544231e+001	-2.207922e+001	-7.535884e+001	-1.388439e-001	4.599608e+000
40.960	-1.490731e-001	4.390760e+000	-2.217429e+001	-7.559105e+001	-2.217670e+001	-7.551346e+001	-1.356057e-001	4.551078e+000
41.458	-1.458562e-001	4.343160e+000	-2.227089e+001	-7.572960e+001	-2.227473e+001	-7.565125e+001	-1.326708e-001	4.502969e+000
41.955	-1.430830e-001	4.296346e+000	-2.236613e+001	-7.587795e+001	-2.236926e+001	-7.579570e+001	-1.297184e-001	4.457408e+000
42.452	-1.405203e-001	4.251868e+000	-2.246070e+001	-7.600822e+001	-2.246397e+001	-7.592899e+001	-1.269734e-001	4.412064e+000
42.950	-1.376722e-001	4.206958e+000	-2.255464e+001	-7.614144e+001	-2.255797e+001	-7.605959e+001	-1.242310e-001	4.367708e+000
43.447	-1.351453e-001	4.163989e+000	-2.264749e+001	-7.627147e+001	-2.265052e+001	-7.619400e+001	-1.216068e-001	4.323531e+000
43.945	-1.325396e-001	4.120299e+000	-2.273900e+001	-7.640616e+001	-2.274175e+001	-7.632120e+001	-1.189495e-001	4.280704e+000
44.442	-1.299550e-001	4.078650e+000	-2.282963e+001	-7.653206e+001	-2.283365e+001	-7.644728e+001	-1.165357e-001	4.238630e+000
44.940	-1.277327e-001	4.038094e+000	-2.291955e+001	-7.664682e+001	-2.292398e+001	-7.656481e+001	-1.141689e-001	4.197442e+000
45.437	-1.253303e-001	3.997548e+000	-2.300875e+001	-7.676920e+001	-2.301344e+001	-7.669095e+001	-1.117849e-001	4.156848e+000
45.935	-1.231830e-001	3.957901e+000	-2.309646e+001	-7.688493e+001	-2.310120e+001	-7.680850e+001	-1.095578e-001	4.117462e+000
46.432	-1.209280e-001	3.919028e+000	-2.318328e+001	-7.699968e+001	-2.318863e+001	-7.691914e+001	-1.074946e-001	4.078779e+000
46.930	-1.186925e-001	3.881152e+000	-2.326928e+001	-7.711800e+001	-2.327434e+001	-7.702749e+001	-1.053293e-001	4.041019e+000
47.427	-1.165156e-001	3.844533e+000	-2.335585e+001	-7.723788e+001	-2.335885e+001	-7.714415e+001	-1.032771e-001	4.004122e+000
47.925	-1.145817e-001	3.807206e+000	-2.344269e+001	-7.734098e+001	-2.344498e+001	-7.726495e+001	-1.010730e-001	3.967253e+000
48.422	-1.127171e-001	3.771612e+000	-2.352469e+001	-7.743340e+001	-2.353047e+001	-7.735736e+001	-9.923530e-002	3.930213e+000
48.920	-1.106034e-001	3.736510e+000	-2.360821e+001	-7.755749e+001	-2.361120e+001	-7.746675e+001	-9.720004e-002	3.895795e+000
49.417	-1.087854e-001	3.701123e+000	-2.369073e+001	-7.764244e+001	-2.369576e+001	-7.757054e+001	-9.532270e-002	3.860721e+000
50.001	-1.066850e-001	3.659810e+000	-2.378887e+001	-7.776074e+001	-2.379253e+001	-7.769740e+001	-9.325629e-002	3.820490e+000
50.688	-1.043549e-001	3.614575e+000	-2.390066e+001	-7.788673e+001	-2.390533e+001	-7.782385e+001	-9.091368e-002	3.775028e+000
51.375	-1.020476e-001	3.570039e+000	-2.400855e+001	-7.801945e+001	-2.401605e+001	-7.795146e+001	-8.848745e-002	3.728640e+000
52.062	-9.977267e-002	3.529487e+000	-2.411382e+001	-7.816334e+001	-2.412173e+001	-7.806207e+001	-8.659745e-002	3.686084e+000
52.749	-9.733952e-002	3.484435e+000	-2.422467e+001	-7.831909e+001	-2.422535e+001	-7.821183e+001	-8.425618e-002	3.645389e+000
53.436	-9.560202e-002	3.440717e+000	-2.433529e+001	-7.839795e+001	-2.433840e+001	-7.835262e+001	-8.187117e-002	3.601048e+000
54.123	-9.352887e-002	3.404705e+000	-2.443061e+001	-7.851971e+001	-2.444005e+001	-7.840594e+001	-8.056318e-002	3.562026e+000
54.810	-9.157395e-002	3.361170e+000	-2.454408e+001	-7.865724e+001	-2.454272e+001	-7.859844e+001	-7.790989e-002	3.523413e+000
55.497	-8.977542e-002	3.325777e+000	-2.463605e+001	-7.874978e+001	-2.464573e+001	-7.862903e+001	-7.678019e-002	3.483389e+000
56.184	-8.804771e-002	3.282998e+000	-2.474894e+001	-7.884974e+001	-2.475219e+001	-7.881714e+001	-7.422773e-002	3.443715e+000
56.871	-8.596890e-002	3.248806e+000	-2.484228e+001	-7.902260e+001	-2.484024e+001	-7.890308e+001	-7.281224e-002	3.410952e+000
57.558	-8.471018e-002	3.214550e+000	-2.493409e+001	-7.906992e+001	-2.494504e+001	-7.894363e+001	-7.157711e-002	3.372736e+000
58.245	-8.344257e-002	3.176712e+000	-2.503851e+001	-7.913083e+001	-2.505129e+001	-7.907209e+001	-6.966748e-002	3.334243e+000
58.932	-8.166718e-002	3.138647e+000	-2.514218e+001	-7.924653e+001	-2.514885e+001	-7.921521e+001	-6.777793e-002	3.298963e+000
59.619	-7.990082e-002	3.104823e+000	-2.524079e+001	-7.936048e+001	-2.524342e+001	-7.933373e+001	-6.605848e-002	3.266680e+000
60.306	-7.855579e-002	3.071562e+000	-2.533489e+001	-7.945713e+001	-2.533787e+001	-7.942855e+001	-6.472842e-002	3.232629e+000
60.993	-7.714844e-002	3.039121e+000	-2.542766e+001	-7.953278e+001	-2.543408e+001	-7.950266e+001	-6.334037e-002	3.199049e+000
61.680	-7.591425e-002	3.009743e+000	-2.551396e+001	-7.960782e+001	-2.552627e+001	-7.955408e+001	-6.229265e-002	3.167137e+000
62.367	-7.427431e-002	2.980969e+000	-2.559747e+001	-7.972997e+001	-2.560928e+001	-7.961094e+001	-6.133916e-002	3.139223e+000
63.054	-7.257901e-002	2.949037e+000	-2.569299e+001	-7.988996e+001	-2.569306e+001	-7.976061e+001	-5.964829e-002	3.110641e+000
