!Agilent Technologies,E5061B,MY49204007,A.02.12
!Date: Wed Jul 23 10:42:21 2025
!Data & Calibration Information:
!Freq	S11:SOLT2(ON)	S21:SOLT2(ON)	S12:SOLT2(ON)	S22:SOLT2(ON)
# Hz S dB R 50
10.000	-1.009701e+000	1.054739e+001	-1.374639e+001	-5.275769e+001	-1.374489e+001	-5.268687e+001	-9.961698e-001	1.071255e+001
10.137	-9.928319e-001	1.048618e+001	-1.381582e+001	-5.306940e+001	-1.381407e+001	-5.300500e+001	-9.792524e-001	1.065141e+001
10.275	-9.765059e-001	1.042326e+001	-1.388545e+001	-5.336870e+001	-1.388232e+001	-5.331170e+001	-9.629166e-001	1.059004e+001
10.412	-9.604226e-001	1.036255e+001	-1.395398e+001	-5.366873e+001	-1.395022e+001	-5.361491e+001	-9.469204e-001	1.052915e+001
10.550	-9.448294e-001	1.030075e+001	-1.402223e+001	-5.396483e+001	-1.401791e+001	-5.391299e+001	-9.311964e-001	1.046912e+001
10.687	-9.295662e-001	1.024121e+001	-1.408933e+001	-5.426103e+001	-1.408522e+001	-5.420783e+001	-9.159389e-001	1.040897e+001
10.824	-9.146027e-001	1.018245e+001	-1.415619e+001	-5.455446e+001	-1.415228e+001	-5.450205e+001	-9.008566e-001	1.034908e+001
10.962	-8.998738e-001	1.012193e+001	-1.422309e+001	-5.483988e+001	-1.421897e+001	-5.478433e+001	-8.863336e-001	1.028948e+001
11.099	-8.857115e-001	1.006423e+001	-1.428840e+001	-5.512440e+001	-1.428474e+001	-5.507244e+001	-8.719257e-001	1.023102e+001
11.237	-8.716450e-001	1.000508e+001	-1.435449e+001	-5.540130e+001	-1.435046e+001	-5.534689e+001	-8.580023e-001	1.017270e+001
11.374	-8.577904e-001	9.945779e+000	-1.442077e+001	-5.567611e+001	-1.441628e+001	-5.562343e+001	-8.442608e-001	1.011335e+001
11.511	-8.443000e-001	9.887532e+000	-1.448597e+001	-5.594885e+001	-1.448191e+001	-5.589467e+001	-8.307206e-001	1.005458e+001
11.649	-8.310986e-001	9.829758e+000	-1.455095e+001	-5.621571e+001	-1.454698e+001	-5.616124e+001	-8.176255e-001	9.996345e+000
11.786	-8.182954e-001	9.772011e+000	-1.461568e+001	-5.647949e+001	-1.461183e+001	-5.642441e+001	-8.047629e-001	9.938098e+000
11.924	-8.058464e-001	9.714325e+000	-1.468021e+001	-5.673727e+001	-1.467656e+001	-5.668458e+001	-7.921825e-001	9.880947e+000
12.061	-7.933604e-001	9.655695e+000	-1.474506e+001	-5.699248e+001	-1.474140e+001	-5.693945e+001	-7.798850e-001	9.821678e+000
12.198	-7.814581e-001	9.599037e+000	-1.480867e+001	-5.724424e+001	-1.480490e+001	-5.719390e+001	-7.677907e-001	9.765044e+000
12.336	-7.697318e-001	9.540583e+000	-1.487328e+001	-5.749087e+001	-1.486882e+001	-5.744038e+001	-7.559819e-001	9.707622e+000
12.473	-7.580264e-001	9.484667e+000	-1.493643e+001	-5.774004e+001	-1.493247e+001	-5.768607e+001	-7.443054e-001	9.650281e+000
12.611	-7.466022e-001	9.429051e+000	-1.499924e+001	-5.798519e+001	-1.499566e+001	-5.792891e+001	-7.329635e-001	9.594320e+000
12.748	-7.356065e-001	9.373355e+000	-1.506199e+001	-5.822490e+001	-1.505843e+001	-5.816868e+001	-7.217282e-001	9.537662e+000
12.885	-7.247196e-001	9.318314e+000	-1.512410e+001	-5.846369e+001	-1.512092e+001	-5.840584e+001	-7.108715e-001	9.482323e+000
13.023	-7.139246e-001	9.263288e+000	-1.518656e+001	-5.869815e+001	-1.518360e+001	-5.864048e+001	-7.002160e-001	9.427015e+000
13.160	-7.036115e-001	9.207695e+000	-1.524898e+001	-5.892330e+001	-1.524570e+001	-5.886714e+001	-6.899207e-001	9.372081e+000
13.298	-6.933176e-001	9.153198e+000	-1.531054e+001	-5.915587e+001	-1.530809e+001	-5.909488e+001	-6.796121e-001	9.316765e+000
13.435	-6.832420e-001	9.099784e+000	-1.537156e+001	-5.937925e+001	-1.536947e+001	-5.931879e+001	-6.696220e-001	9.262900e+000
13.572	-6.734717e-001	9.045808e+000	-1.543275e+001	-5.959913e+001	-1.543068e+001	-5.953985e+001	-6.598044e-001	9.208815e+000
13.733	-6.642910e-001	8.970754e+000	-1.550954e+001	-5.976050e+001	-1.549923e+001	-5.983054e+001	-6.479134e-001	9.151493e+000
13.923	-6.492814e-001	8.910416e+000	-1.558759e+001	-6.015186e+001	-1.558563e+001	-6.009080e+001	-6.358394e-001	9.072872e+000
14.112	-6.367477e-001	8.837352e+000	-1.567082e+001	-6.043718e+001	-1.566922e+001	-6.037503e+001	-6.232878e-001	8.999644e+000
14.302	-6.244931e-001	8.765449e+000	-1.575347e+001	-6.072650e+001	-1.575149e+001	-6.066495e+001	-6.109758e-001	8.928314e+000
14.492	-6.127198e-001	8.693890e+000	-1.583543e+001	-6.100113e+001	-1.583337e+001	-6.094179e+001	-5.991718e-001	8.857088e+000
14.682	-6.010790e-001	8.624116e+000	-1.591667e+001	-6.127669e+001	-1.591497e+001	-6.121545e+001	-5.876804e-001	8.786233e+000
14.872	-5.896909e-001	8.555264e+000	-1.599747e+001	-6.155080e+001	-1.599605e+001	-6.148693e+001	-5.763489e-001	8.717076e+000
15.062	-5.786129e-001	8.486711e+000	-1.607793e+001	-6.182022e+001	-1.607674e+001	-6.175507e+001	-5.653019e-001	8.648121e+000
15.251	-5.679342e-001	8.418665e+000	-1.615807e+001	-6.207685e+001	-1.615699e+001	-6.201091e+001	-5.547347e-001	8.579437e+000
15.441	-5.574891e-001	8.350898e+000	-1.623770e+001	-6.233673e+001	-1.623635e+001	-6.227253e+001	-5.441652e-001	8.512280e+000
15.631	-5.473820e-001	8.285499e+000	-1.631612e+001	-6.258897e+001	-1.631492e+001	-6.252419e+001	-5.340783e-001	8.446132e+000
15.821	-5.374558e-001	8.219672e+000	-1.639428e+001	-6.283764e+001	-1.639336e+001	-6.277076e+001	-5.241752e-001	8.379977e+000
16.011	-5.278074e-001	8.154271e+000	-1.647223e+001	-6.308133e+001	-1.647162e+001	-6.301226e+001	-5.146187e-001	8.314844e+000
16.201	-5.185818e-001	8.090041e+000	-1.654979e+001	-6.331546e+001	-1.654877e+001	-6.324731e+001	-5.053372e-001	8.250683e+000
16.391	-5.093821e-001	8.026337e+000	-1.662671e+001	-6.355167e+001	-1.662561e+001	-6.348664e+001	-4.961294e-001	8.187244e+000
16.580	-5.006168e-001	7.964084e+000	-1.670286e+001	-6.377935e+001	-1.670163e+001	-6.371551e+001	-4.872659e-001	8.124787e+000
16.770	-4.919377e-001	7.901805e+000	-1.677876e+001	-6.400399e+001	-1.677752e+001	-6.394127e+001	-4.786143e-001	8.062197e+000
16.960	-4.833761e-001	7.840468e+000	-1.685374e+001	-6.422827e+001	-1.685299e+001	-6.416349e+001	-4.702489e-001	8.001430e+000
17.150	-4.757570e-001	7.775596e+000	-1.693121e+001	-6.441230e+001	-1.693031e+001	-6.435028e+001	-4.625205e-001	7.936545e+000
17.340	-4.670660e-001	7.721015e+000	-1.700199e+001	-6.466647e+001	-1.700126e+001	-6.459868e+001	-4.539079e-001	7.881345e+000
17.530	-4.591905e-001	7.662508e+000	-1.707573e+001	-6.487891e+001	-1.707468e+001	-6.481145e+001	-4.459875e-001	7.822186e+000
17.720	-4.515280e-001	7.603506e+000	-1.714901e+001	-6.508898e+001	-1.714841e+001	-6.501830e+001	-4.383387e-001	7.763315e+000
17.909	-4.439859e-001	7.546166e+000	-1.722170e+001	-6.529537e+001	-1.722143e+001	-6.522310e+001	-4.308591e-001	7.705419e+000
18.099	-4.367275e-001	7.489282e+000	-1.729395e+001	-6.549760e+001	-1.729362e+001	-6.542573e+001	-4.235274e-001	7.648431e+000
18.289	-4.295614e-001	7.432397e+000	-1.736626e+001	-6.569577e+001	-1.736566e+001	-6.562432e+001	-4.163988e-001	7.591872e+000
18.479	-4.226166e-001	7.376968e+000	-1.743735e+001	-6.589266e+001	-1.743690e+001	-6.581917e+001	-4.094848e-001	7.536646e+000
18.669	-4.158808e-001	7.322325e+000	-1.750843e+001	-6.608192e+001	-1.750793e+001	-6.601075e+001	-4.027251e-001	7.481465e+000
18.859	-4.093114e-001	7.267656e+000	-1.757908e+001	-6.627086e+001	-1.757871e+001	-6.619990e+001	-3.961808e-001	7.427073e+000
19.082	-4.090169e-001	7.175069e+000	-1.767768e+001	-6.610184e+001	-1.767801e+001	-6.603489e+001	-3.956624e-001	7.334756e+000
19.344	-3.930891e-001	7.131881e+000	-1.775801e+001	-6.674793e+001	-1.775724e+001	-6.667739e+001	-3.797630e-001	7.290518e+000
19.606	-3.847268e-001	7.060492e+000	-1.785254e+001	-6.698590e+001	-1.785215e+001	-6.691526e+001	-3.715268e-001	7.219115e+000
19.868	-3.767831e-001	6.990667e+000	-1.794665e+001	-6.723261e+001	-1.794614e+001	-6.716385e+001	-3.633902e-001	7.148654e+000
20.130	-3.689958e-001	6.921070e+000	-1.803944e+001	-6.746311e+001	-1.803906e+001	-6.739537e+001	-3.557145e-001	7.079851e+000
20.392	-3.614084e-001	6.852846e+000	-1.813220e+001	-6.769275e+001	-1.813164e+001	-6.762564e+001	-3.480503e-001	7.011826e+000
20.655	-3.540040e-001	6.785828e+000	-1.822361e+001	-6.791992e+001	-1.822344e+001	-6.785086e+001	-3.407378e-001	6.944723e+000
20.917	-3.468048e-001	6.720304e+000	-1.831437e+001	-6.814513e+001	-1.831408e+001	-6.807584e+001	-3.335389e-001	6.878936e+000
21.179	-3.397876e-001	6.654933e+000	-1.840499e+001	-6.836117e+001	-1.840501e+001	-6.829090e+001	-3.267026e-001	6.813769e+000
21.441	-3.332122e-001	6.592001e+000	-1.849343e+001	-6.857462e+001	-1.849342e+001	-6.850374e+001	-3.200316e-001	6.751268e+000
21.703	-3.267013e-001	6.528532e+000	-1.858207e+001	-6.878031e+001	-1.858216e+001	-6.870757e+001	-3.135014e-001	6.688101e+000
21.965	-3.203052e-001	6.466784e+000	-1.867003e+001	-6.898482e+001	-1.866996e+001	-6.891219e+001	-3.071606e-001	6.626096e+000
22.228	-3.141749e-001	6.406400e+000	-1.875661e+001	-6.918576e+001	-1.875696e+001	-6.911051e+001	-3.010424e-001	6.565495e+000
22.490	-3.083098e-001	6.347747e+000	-1.884263e+001	-6.938281e+001	-1.884279e+001	-6.930807e+001	-2.950889e-001	6.506152e+000
22.752	-3.023925e-001	6.288752e+000	-1.892856e+001	-6.957659e+001	-1.892880e+001	-6.950299e+001	-2.892197e-001	6.446775e+000
23.014	-2.969273e-001	6.231293e+000	-1.901256e+001	-6.976197e+001	-1.901296e+001	-6.968824e+001	-2.837814e-001	6.389496e+000
23.276	-2.913611e-001	6.174238e+000	-1.909699e+001	-6.994447e+001	-1.909722e+001	-6.987240e+001	-2.782888e-001	6.332476e+000
23.538	-2.860599e-001	6.118602e+000	-1.918035e+001	-7.012896e+001	-1.918054e+001	-7.005486e+001	-2.728572e-001	6.277280e+000
23.801	-2.808492e-001	6.063449e+000	-1.926295e+001	-7.030461e+001	-1.926300e+001	-7.023229e+001	-2.676880e-001	6.222505e+000
24.063	-2.758813e-001	6.009963e+000	-1.934463e+001	-7.047841e+001	-1.934450e+001	-7.040703e+001	-2.626464e-001	6.168711e+000
24.325	-2.708376e-001	5.957156e+000	-1.942565e+001	-7.065407e+001	-1.942563e+001	-7.058208e+001	-2.577047e-001	6.116144e+000
24.587	-2.662784e-001	5.904925e+000	-1.950623e+001	-7.081796e+001	-1.950625e+001	-7.074837e+001	-2.529743e-001	6.064035e+000
24.849	-2.615078e-001	5.852912e+000	-1.958600e+001	-7.098494e+001	-1.958651e+001	-7.091401e+001	-2.483086e-001	6.012134e+000
25.111	-2.569292e-001	5.802780e+000	-1.966472e+001	-7.114631e+001	-1.966511e+001	-7.107619e+001	-2.438596e-001	5.961891e+000
25.374	-2.526250e-001	5.752865e+000	-1.974347e+001	-7.130544e+001	-1.974356e+001	-7.123501e+001	-2.395106e-001	5.911604e+000
25.636	-2.483434e-001	5.703934e+000	-1.982115e+001	-7.146314e+001	-1.982139e+001	-7.139109e+001	-2.352326e-001	5.862989e+000
25.898	-2.440402e-001	5.655628e+000	-1.989803e+001	-7.161810e+001	-1.989841e+001	-7.154699e+001	-2.310799e-001	5.814403e+000
26.204	-2.367977e-001	5.606157e+000	-1.998523e+001	-7.196983e+001	-1.998489e+001	-7.189991e+001	-2.235579e-001	5.765749e+000
26.564	-2.341368e-001	5.537211e+000	-2.009205e+001	-7.199810e+001	-2.009240e+001	-7.192334e+001	-2.210294e-001	5.695511e+000
26.924	-2.289766e-001	5.474034e+000	-2.019408e+001	-7.219558e+001	-2.019629e+001	-7.212984e+001	-2.156722e-001	5.631892e+000
27.284	-2.237714e-001	5.413022e+000	-2.029644e+001	-7.238856e+001	-2.029815e+001	-7.231641e+001	-2.107278e-001	5.570828e+000
27.644	-2.189575e-001	5.353192e+000	-2.039720e+001	-7.258444e+001	-2.039863e+001	-7.251224e+001	-2.056935e-001	5.511075e+000
28.004	-2.142927e-001	5.294206e+000	-2.049662e+001	-7.276243e+001	-2.049844e+001	-7.269038e+001	-2.010958e-001	5.451998e+000
28.364	-2.096198e-001	5.236443e+000	-2.059599e+001	-7.294244e+001	-2.059813e+001	-7.287185e+001	-1.965736e-001	5.394034e+000
28.724	-2.053321e-001	5.180315e+000	-2.069386e+001	-7.312271e+001	-2.069568e+001	-7.304965e+001	-1.921980e-001	5.337556e+000
29.084	-2.010843e-001	5.125071e+000	-2.079034e+001	-7.329458e+001	-2.079247e+001	-7.322118e+001	-1.880331e-001	5.283010e+000
29.444	-1.970370e-001	5.071303e+000	-2.088607e+001	-7.345958e+001	-2.088792e+001	-7.338557e+001	-1.839669e-001	5.229543e+000
29.804	-1.931125e-001	5.018960e+000	-2.098006e+001	-7.362651e+001	-2.098225e+001	-7.354964e+001	-1.799759e-001	5.177515e+000
30.164	-1.890569e-001	4.966859e+000	-2.107450e+001	-7.378965e+001	-2.107673e+001	-7.371406e+001	-1.760965e-001	5.124670e+000
30.524	-1.854836e-001	4.915606e+000	-2.116672e+001	-7.394564e+001	-2.116877e+001	-7.387069e+001	-1.724982e-001	5.073813e+000
30.884	-1.819430e-001	4.864909e+000	-2.125901e+001	-7.409607e+001	-2.126122e+001	-7.402140e+001	-1.688210e-001	5.023124e+000
31.244	-1.784022e-001	4.815696e+000	-2.135058e+001	-7.424740e+001	-2.135236e+001	-7.417502e+001	-1.652190e-001	4.973474e+000
31.605	-1.749231e-001	4.767556e+000	-2.144026e+001	-7.439632e+001	-2.144259e+001	-7.432262e+001	-1.617532e-001	4.925558e+000
31.965	-1.717435e-001	4.720165e+000	-2.152945e+001	-7.453992e+001	-2.153169e+001	-7.446415e+001	-1.586513e-001	4.878352e+000
32.325	-1.684309e-001	4.673348e+000	-2.161735e+001	-7.468490e+001	-2.161965e+001	-7.460964e+001	-1.554427e-001	4.831873e+000
32.685	-1.652616e-001	4.627785e+000	-2.170539e+001	-7.482584e+001	-2.170797e+001	-7.474989e+001	-1.523061e-001	4.785996e+000
33.045	-1.623518e-001	4.582878e+000	-2.179143e+001	-7.495875e+001	-2.179386e+001	-7.488354e+001	-1.492266e-001	4.741455e+000
33.405	-1.594324e-001	4.538556e+000	-2.187825e+001	-7.509078e+001	-2.188056e+001	-7.501546e+001	-1.464614e-001	4.697498e+000
33.765	-1.563897e-001	4.495717e+000	-2.196315e+001	-7.522385e+001	-2.196578e+001	-7.514795e+001	-1.434306e-001	4.654049e+000
34.125	-1.536473e-001	4.453662e+000	-2.204740e+001	-7.535140e+001	-2.205007e+001	-7.527767e+001	-1.406639e-001	4.611737e+000
34.485	-1.510316e-001	4.412250e+000	-2.213088e+001	-7.547587e+001	-2.213356e+001	-7.540123e+001	-1.380579e-001	4.570513e+000
34.845	-1.484036e-001	4.371536e+000	-2.221314e+001	-7.559895e+001	-2.221593e+001	-7.552292e+001	-1.354629e-001	4.529612e+000
35.205	-1.457290e-001	4.332334e+000	-2.229507e+001	-7.572362e+001	-2.229791e+001	-7.564844e+001	-1.329248e-001	4.489543e+000
35.565	-1.433870e-001	4.292345e+000	-2.237654e+001	-7.583821e+001	-2.237986e+001	-7.576303e+001	-1.305351e-001	4.449431e+000
35.985	-1.363011e-001	4.255504e+000	-2.246542e+001	-7.635197e+001	-2.246842e+001	-7.624823e+001	-1.237132e-001	4.411861e+000
36.483	-1.375097e-001	4.195823e+000	-2.258046e+001	-7.612994e+001	-2.258355e+001	-7.605625e+001	-1.245819e-001	4.353428e+000
36.980	-1.342579e-001	4.144435e+000	-2.268994e+001	-7.629035e+001	-2.269332e+001	-7.620933e+001	-1.215008e-001	4.301337e+000
37.478	-1.312818e-001	4.094414e+000	-2.279741e+001	-7.643564e+001	-2.280074e+001	-7.635419e+001	-1.186667e-001	4.251806e+000
37.975	-1.285135e-001	4.046317e+000	-2.290273e+001	-7.658895e+001	-2.290704e+001	-7.650923e+001	-1.156906e-001	4.203440e+000
38.473	-1.257416e-001	3.998349e+000	-2.300755e+001	-7.672531e+001	-2.301164e+001	-7.664347e+001	-1.129686e-001	4.156111e+000
38.970	-1.230406e-001	3.951908e+000	-2.311204e+001	-7.686325e+001	-2.311616e+001	-7.678315e+001	-1.103155e-001	4.108990e+000
39.468	-1.205161e-001	3.906517e+000	-2.321518e+001	-7.699948e+001	-2.321881e+001	-7.691698e+001	-1.077162e-001	4.063647e+000
39.965	-1.180606e-001	3.861769e+000	-2.331649e+001	-7.712737e+001	-2.331996e+001	-7.704457e+001	-1.052231e-001	4.019478e+000
40.463	-1.157302e-001	3.818601e+000	-2.341591e+001	-7.725128e+001	-2.341887e+001	-7.717292e+001	-1.027609e-001	3.976374e+000
40.960	-1.134103e-001	3.776557e+000	-2.351431e+001	-7.738413e+001	-2.351793e+001	-7.730712e+001	-1.004458e-001	3.933968e+000
41.458	-1.110499e-001	3.734015e+000	-2.361368e+001	-7.750633e+001	-2.361737e+001	-7.742363e+001	-9.830878e-002	3.892074e+000
41.955	-1.089379e-001	3.693080e+000	-2.370957e+001	-7.762782e+001	-2.371329e+001	-7.754829e+001	-9.594378e-002	3.851646e+000
42.452	-1.069563e-001	3.654198e+000	-2.380569e+001	-7.774197e+001	-2.380944e+001	-7.766228e+001	-9.394541e-002	3.811779e+000
42.950	-1.048956e-001	3.614821e+000	-2.390076e+001	-7.785461e+001	-2.390419e+001	-7.777450e+001	-9.191846e-002	3.773055e+000
43.447	-1.029641e-001	3.576266e+000	-2.399445e+001	-7.796839e+001	-2.399826e+001	-7.788709e+001	-8.994764e-002	3.735178e+000
43.945	-1.010850e-001	3.538795e+000	-2.408702e+001	-7.807658e+001	-2.409086e+001	-7.799803e+001	-8.805955e-002	3.697030e+000
44.442	-9.914224e-002	3.502764e+000	-2.418001e+001	-7.818660e+001	-2.418345e+001	-7.810458e+001	-8.619643e-002	3.660102e+000
44.940	-9.749969e-002	3.467037e+000	-2.427138e+001	-7.829014e+001	-2.427505e+001	-7.820792e+001	-8.441793e-002	3.624252e+000
45.437	-9.563584e-002	3.430568e+000	-2.436155e+001	-7.840183e+001	-2.436547e+001	-7.831614e+001	-8.272168e-002	3.588655e+000
45.935	-9.396221e-002	3.396909e+000	-2.445018e+001	-7.849990e+001	-2.445476e+001	-7.841773e+001	-8.106247e-002	3.553100e+000
46.432	-9.245299e-002	3.362929e+000	-2.453897e+001	-7.859419e+001	-2.454288e+001	-7.851094e+001	-7.936155e-002	3.520427e+000
46.930	-9.081238e-002	3.329154e+000	-2.462642e+001	-7.868227e+001	-2.463010e+001	-7.860150e+001	-7.791839e-002	3.487075e+000
47.427	-8.935511e-002	3.297871e+000	-2.471111e+001	-7.877246e+001	-2.471466e+001	-7.869614e+001	-7.640632e-002	3.454905e+000
47.925	-8.761901e-002	3.266445e+000	-2.479615e+001	-7.888044e+001	-2.480061e+001	-7.880615e+001	-7.475189e-002	3.423162e+000
48.422	-8.614395e-002	3.234074e+000	-2.488380e+001	-7.896939e+001	-2.488826e+001	-7.888706e+001	-7.328752e-002	3.390881e+000
48.920	-8.489258e-002	3.204370e+000	-2.496583e+001	-7.904800e+001	-2.496970e+001	-7.896948e+001	-7.195729e-002	3.361283e+000
49.417	-8.332593e-002	3.173783e+000	-2.504992e+001	-7.915288e+001	-2.505454e+001	-7.907166e+001	-7.037243e-002	3.330588e+000
50.001	-8.138363e-002	3.139240e+000	-2.514612e+001	-7.928639e+001	-2.515079e+001	-7.920716e+001	-6.849343e-002	3.297024e+000
50.688	-7.991915e-002	3.098979e+000	-2.525991e+001	-7.937259e+001	-2.526432e+001	-7.929210e+001	-6.684443e-002	3.256267e+000
51.375	-7.809823e-002	3.058732e+000	-2.537414e+001	-7.948720e+001	-2.537840e+001	-7.940583e+001	-6.503053e-002	3.216089e+000
52.062	-7.676053e-002	3.020573e+000	-2.548383e+001	-7.956527e+001	-2.548812e+001	-7.948518e+001	-6.371534e-002	3.178032e+000
52.749	-7.520671e-002	2.986653e+000	-2.558459e+001	-7.966294e+001	-2.558933e+001	-7.958247e+001	-6.227488e-002	3.143727e+000
53.436	-7.313726e-002	2.948949e+000	-2.569454e+001	-7.982865e+001	-2.569870e+001	-7.974660e+001	-6.021200e-002	3.107525e+000
54.123	-7.222430e-002	2.912218e+000	-2.580602e+001	-7.985711e+001	-2.581116e+001	-7.977970e+001	-5.921347e-002	3.069361e+000
54.810	-7.030329e-002	2.882018e+000	-2.589870e+001	-8.001424e+001	-2.590296e+001	-7.992639e+001	-5.741494e-002	3.039824e+000
55.497	-6.930555e-002	2.844248e+000	-2.601464e+001	-8.004327e+001	-2.602005e+001	-7.997254e+001	-5.635209e-002	3.000500e+000
56.184	-6.740999e-002	2.813146e+000	-2.610977e+001	-8.023786e+001	-2.611237e+001	-8.014971e+001	-5.449393e-002	2.971960e+000
56.871	-6.675836e-002	2.783929e+000	-2.620361e+001	-8.023315e+001	-2.621005e+001	-8.013921e+001	-5.400746e-002	2.939994e+000
57.558	-6.567958e-002	2.746939e+000	-2.631764e+001	-8.030947e+001	-2.632371e+001	-8.024259e+001	-5.250485e-002	2.904344e+000
58.245	-6.389115e-002	2.714868e+000	-2.641878e+001	-8.047112e+001	-2.642148e+001	-8.040730e+001	-5.075775e-002	2.874357e+000
58.932	-6.226224e-002	2.686435e+000	-2.651029e+001	-8.059796e+001	-2.651125e+001	-8.051579e+001	-4.944220e-002	2.847061e+000
59.619	-6.116192e-002	2.659330e+000	-2.660280e+001	-8.068431e+001	-2.660346e+001	-8.059180e+001	-4.851314e-002	2.818991e+000
60.306	-6.010946e-002	2.631320e+000	-2.669737e+001	-8.076268e+001	-2.669769e+001	-8.066960e+001	-4.741332e-002	2.790334e+000
60.993	-5.906253e-002	2.601046e+000	-2.679674e+001	-8.084052e+001	-2.679598e+001	-8.075775e+001	-4.631693e-002	2.761787e+000
61.680	-5.826010e-002	2.572348e+000	-2.689597e+001	-8.088472e+001	-2.689713e+001	-8.083128e+001	-4.526494e-002	2.731383e+000
62.367	-5.784331e-002	2.545855e+000	-2.698565e+001	-8.087696e+001	-2.699327e+001	-8.083140e+001	-4.470620e-002	2.702575e+000
63.054	-5.674541e-002	2.523525e+000	-2.706180e+001	-8.095722e+001	-2.707200e+001	-8.085260e+001	-4.410834e-002	2.679028e+000
